Time,Vin,Vout
-0.008383921637227492,-0.0008216030055718087,-0.0038790385687953984
-0.007883421136726992,0.15450303683250508,-0.0036362379408296903
-0.007382920636226492,0.29040624876251947,-0.00038533445078662974
-0.006882420135725992,0.39694059055265807,0.0002768913103495157
-0.006381919635225492,0.4676422951687204,-0.014343846214331553
-0.005881419134724992,0.4844125118828275,0.0005506475195414292
-0.0053809186342244925,0.46714890469656883,-0.008346928547419799
-0.004880418133723992,0.4037602789004468,-0.010018653669919613
-0.004379917633223492,0.29107309730422903,-0.019682851525778526
-0.003879417132722992,0.14862923888753485,-0.019476783541046427
-0.0033789166322224923,-0.0016578284530575351,-0.028151390232926832
-0.0028784161317219918,-0.15166510630621471,-0.023325458952060528
-0.002377915631221492,-0.29933628096313314,-0.010450573493678861
-0.0018774151307209917,-0.40060997824612876,-0.0016798738283988772
-0.001376914630220492,-0.4740409299277162,-0.03295759845939898
-0.0008764141297199924,-0.49134406143333104,-0.027690294235900165
-0.00037591362921949277,-0.4743290324416398,-0.020175922451947853
0.0001245868712810086,-0.40298843153407155,-0.013309855644023334
0.0006250873717815082,-0.28896204342244447,-0.03403096084021467
0.0011255878722820079,-0.14843299185380224,-0.031570079464669026
0.0016260883727825075,0.002217755321756064,-0.029312224743523088
0.002126588873283007,0.15773802537331372,-0.02464096074555787
0.0026270893737835085,0.2906857669925612,-0.03502805951784815
0.003127589874284008,0.3997425048653959,-0.02320766091360808
0.0036280903747845077,0.4661717422404618,-0.04404778330783031
0.004128590875285007,0.49571438922861016,-0.04576038234396707
0.004629091375785509,0.46905728132389907,-0.056231433503569
0.005129591876286008,0.3979855053616937,-0.049377592105074634
0.005630092376786508,0.29046462579830146,-0.03013307145668853
0.006130592877287008,0.1486121765815405,-0.04901923049802756
0.006631093377787507,-3.9281172043048325e-05,-0.04843094494274713
0.007131593878288009,-0.15365059197680878,-0.050914794765197065
0.0076320943787885065,-0.2950789835088053,-0.05714920143772755
0.00813259487928901,-0.3993542240984199,-0.048316870135660245
0.00863309537978951,-0.4698792470881637,-0.05683333386534445
0.009133595880290009,-0.49591112681491534,-0.05814551232665553
0.009634096380790508,-0.4669985869720828,-0.05050229977579783
0.010134596881291008,-0.4007517458873932,-0.06022133264646861
0.010635097381791508,-0.2862765287017085,-0.06185818363052729
0.011135597882292007,-0.14292277745226775,-0.05580368226419442
0.011636098382792507,0.005978889043370876,-0.06625067646890927
0.012136598883293007,0.15542758825184153,-0.052573817234940055
0.012637099383793506,0.2977576176047249,-0.07550496840902629
0.01313759988429401,0.4058437786703359,-0.07227820948271034
0.013638100384794509,0.46895229287190526,-0.07081468060865519
0.014138600885295009,0.5002025423604853,-0.08540648137157388
0.014639101385795508,0.46879392464230235,-0.06911454545915965
0.015139601886296008,0.39791946651213356,-0.08113599173941946
0.015640102386796507,0.2817325462706504,-0.09492543721349885
0.016140602887297007,0.14636764933700047,-0.08912485082426705
0.016641103387797507,-0.006438649483700609,-0.07565999450084451
0.017141603888298006,-0.16159966575434628,-0.0995326332057427
0.01764210438879851,-0.2895932440918957,-0.09315746337112578
0.01814260488929901,-0.40461174687160895,-0.08214378732310391
0.01864310538979951,-0.46807969301952385,-0.10716455446901763
0.01914360589030001,-0.4938082850833348,-0.09749985395753591
0.019644106390800508,-0.4654850414905146,-0.09664513263102123
0.020144606891301008,-0.3943269462377086,-0.10283300412667284
0.020645107391801507,-0.2775898134715646,-0.09679263644877183
0.021145607892302007,-0.1474387630574072,-0.09836053791435823
0.021646108392802507,0.009182936769167096,-0.11753213802168234
0.02214660889330301,0.16381353939372867,-0.10029748803802936
0.02264710939380351,0.30390147203629475,-0.10923573803467244
0.02314760989430401,0.4016088266294026,-0.10771336440041782
0.023648110394804505,0.4748735591871972,-0.11579747399509623
0.024148610895305008,0.49755956322052125,-0.11780454242218318
0.02464911139580551,0.462471380927446,-0.10305430041826318
0.025149611896306007,0.3899054305328749,-0.12061736769287475
0.02565011239680651,0.27837015285924344,-0.1273577715791722
0.026150612897307007,0.13560489107792215,-0.11295734826702088
0.02665111339780751,-0.011457744070623837,-0.12567459526525238
0.027151613898308006,-0.1654108035251142,-0.11352744301872857
0.02765211439880851,-0.29214434492505703,-0.13041234923406894
0.028152614899309005,-0.40619670583226125,-0.11508989798624707
0.028653115399809508,-0.46945215757172587,-0.1429744037867846
0.02915361590031001,-0.4923213102363202,-0.12028020851501361
0.029654116400810508,-0.4616940256159106,-0.1238469294579794
0.03015461690131101,-0.3950308165024702,-0.127966703896668
0.030655117401811507,-0.28700867696692023,-0.1287684639540011
0.03115561790231201,-0.13530027271849623,-0.12379585659365296
0.0316561184028125,0.012145156368006496,-0.12703326127436954
0.032156618903313006,0.1642116997309115,-0.14624261884227022
0.03265711940381351,0.3032304005148686,-0.14690001573615943
0.03315761990431401,0.4057754489240739,-0.13927184628743014
0.0336581204048145,0.4748301075598087,-0.13528793217479787
0.034158620905315004,0.4936787359488546,-0.16262792395554693
0.03465912140581551,0.46174751734514297,-0.15511251362258363
0.03515962190631601,0.3898360108146698,-0.15315102286638088
0.03566012240681651,0.2775574368061173,-0.16154725685693888
0.036160622907317,0.13621222245849074,-0.15004937193500192
0.036661123407817506,-0.011809257615456778,-0.15139886505151215
0.03716162390831801,-0.16354782773150145,-0.14629114424980302
0.03766212440881851,-0.29985098265613164,-0.16719106863873454
0.038162624909319,-0.4095480580582792,-0.16615168783090964
0.038663125409819504,-0.469074347200124,-0.1501698669389355
0.03916362591032001,-0.4916458379052018,-0.16669840849631828
0.03966412641082051,-0.46502853961631296,-0.16321446769212838
0.040164626911321014,-0.3914766819820576,-0.1617551289515599
0.0406651274118215,-0.2757636038535816,-0.15622703276474462
0.041165627912322006,-0.13378951214418505,-0.1746045223971903
0.04166612841282251,0.014438869161442663,-0.16525421303089619
0.04216662891332301,0.16718924112533545,-0.18087216170826118
0.0426671294138235,0.2989315535361093,-0.17656255864987003
0.043167629914324004,0.40917583793781714,-0.1757861525865549
0.04366813041482451,0.4729765558065517,-0.17021445934953752
0.04416863091532501,0.4958199614271246,-0.18383091253914507
0.044669131415825514,0.4651974507850058,-0.17630088042577072
0.045169631916326,0.3930392322661279,-0.1785463761307002
0.045670132416826506,0.27918267654758533,-0.1838756738529703
0.04617063291732701,0.13314206430775752,-0.18722018352339093
0.04667113341782751,-0.01703997445848888,-0.18684563321328398
0.047171633918328,-0.16914148211260355,-0.20424834358309707
0.047672134418828505,-0.30611004377209766,-0.19103178669901338
0.04817263491932901,-0.41052290242420275,-0.19430368220746808
0.04867313541982951,-0.4692476766922181,-0.20035792214742612
0.049173635920330014,-0.49581871869732885,-0.21952485114517292
0.0496741364208305,-0.46508023272396015,-0.18870591175209397
0.050174636921331006,-0.38807224138780694,-0.2117741876659406
0.05067513742183151,-0.2742881304775499,-0.20101300942880088
0.05117563792233201,-0.13889267328913113,-0.1958574350720034
0.0516761384228325,0.021065988427371254,-0.20286071091287997
0.052176638923333005,0.17022946058853894,-0.20972048515767466
0.05267713942383351,0.3088042095551985,-0.20098140344653753
0.05317763992433401,0.41221894257326475,-0.2195496495995062
0.053678140424834514,0.4681999899843693,-0.22068261896694033
0.054178640925335,0.5001157357995761,-0.21269559287201073
0.054679141425835506,0.4638501480778695,-0.21623542197968845
0.05517964192633601,0.38281704800695504,-0.21773084445192523
0.0556801424268365,0.2699543586981105,-0.23144411937481313
0.056180642927337,0.13471706389398852,-0.21715034614854145
0.056681143427837505,-0.020661864097352534,-0.23041103716371772
0.05718164392833801,-0.1698877722324437,-0.22236550245170061
0.05768214442883851,-0.3068374750460035,-0.21921751989887814
0.058182644929339,-0.41345659161075754,-0.2356011321842555
0.0586831454298395,-0.4709865214901723,-0.24468081382119275
0.059183645930340006,-0.4994238747140756,-0.2314872174564139
0.05968414643084051,-0.4596965956219037,-0.2390331376635345
0.060184646931341,-0.38026217146720426,-0.2615627808851159
0.0606851474318415,-0.2730290129151829,-0.2377638153956674
0.061185647932342005,-0.1346118358860395,-0.26383428988524116
0.06168614843284251,0.022739133374621672,-0.23714679142620973
0.06218664893334301,0.17226993465129567,-0.251978765428969
0.0626871494338435,0.30957439984197227,-0.2407483705096667
0.063187649934344,0.40983647600034095,-0.23975190194448226
0.0636881504348445,0.47220180670019873,-0.2562522947600838
0.06418865093534501,0.49316250191413086,-0.24651644122715907
0.0646891514358455,0.46225696148513695,-0.25151638966878215
0.065189651936346,0.3839099292965726,-0.25964120277815717
0.0656901524368465,0.27214084906990604,-0.2609808794488083
0.06619065293734701,0.12463072867165485,-0.2599586842198438
0.06669115343784751,-0.018765561519710962,-0.25500867958658374
0.067191653938348,-0.17511411911165345,-0.2657439268272307
0.0676921544388485,-0.3123926242003244,-0.27385635897638433
0.068192654939349,-0.4117441218144744,-0.2686396283206959
0.06869315543984951,-0.47834591775129764,-0.25935687512868116
0.06919365594035,-0.4965999130887611,-0.26538590343065166
0.0696941564408505,-0.45570314907927384,-0.2754905082418005
0.070194656941351,-0.3821973531166728,-0.2722332744345388
0.07069515744185151,-0.27494960015693926,-0.2774004225990751
0.07119565794235201,-0.1271144764189167,-0.29263382804331195
0.0716961584428525,0.026309438372680807,-0.28303449459224517
0.072196658943353,0.17235130169793628,-0.27832672528354435
0.0726971594438535,0.31490966378009216,-0.2818136138504077
0.07319765994435401,0.4144452075845034,-0.2780863639337469
0.0736981604448545,0.47434067428802,-0.28270947214949216
0.074198660945355,0.4991958323513029,-0.2965860218922339
0.0746991614458555,0.46608803120382486,-0.29503189448204115
0.07519966194635601,0.3790514308187882,-0.3057468353172176
0.0757001624468565,0.2717827427211739,-0.2986358002618793
0.076200662947357,0.12199679950688316,-0.31329055598959793
0.0767011634478575,-0.0250752188834811,-0.2971782975199971
0.07720166394835801,-0.17894271635670814,-0.31355830542774593
0.07770216444885851,-0.31241729427815235,-0.3144220579451109
0.078202664949359,-0.41300377197964283,-0.3083933743624542
0.0787031654498595,-0.4755370034277689,-0.31146113809949644
0.07920366595036,-0.49459893992843146,-0.3049666176710958
0.07970416645086051,-0.4611019882398069,-0.30392114471111775
0.080204666951361,-0.38007164688507483,-0.2998858474098287
0.0807051674518616,-0.2654753881633353,-0.30187814768422594
0.081205667952362,-0.12555462394391234,-0.32023276767377656
0.08170616845286251,0.026517479583938543,-0.31817971691757047
0.08220666895336301,0.1811932709789482,-0.3183019344378682
0.0827071694538635,0.3089254068512321,-0.3174087638628614
0.0832076699543641,0.4207021608601978,-0.31060876149491123
0.0837081704548646,0.4784092745877697,-0.32472668846612823
0.08420867095536501,0.4933845610549951,-0.34235991200459653
0.0847091714558655,0.45365088341667326,-0.3289174378145829
0.0852096719563661,0.3876833398597575,-0.32877155180328765
0.0857101724568666,0.2680558020595312,-0.3387368576156363
0.0862106729573671,0.12270972081658095,-0.3250508038738767
0.08671117345786751,-0.03043002072577459,-0.3492308818263419
0.087211673958368,-0.17207853621304883,-0.3426418822155719
0.0877121744588686,-0.3061190998014558,-0.3439985110190974
0.0882126749593691,-0.4184235691359206,-0.3444618808338046
0.0887131754598696,-0.4792172863573163,-0.34494988424556233
0.08921367596037,-0.49253693957180267,-0.3484291256903822
0.0897141764608706,-0.45796886458218683,-0.3542149216702463
0.0902146769613711,-0.37583037279247095,-0.34272593896773174
0.0907151774618716,-0.2672324717484936,-0.35786661601998787
0.09121567796237211,-0.12334212883769086,-0.3620178697919141
0.0917161784628725,0.031964852702137204,-0.34681212893544067
0.0922166789633731,0.18200278605524978,-0.347417219566602
0.0927171794638736,0.31164705961334316,-0.3629152476683206
0.0932176799643741,0.41586092684819065,-0.3682272503067393
0.09371818046487461,0.4771720092571607,-0.36384260915579275
0.0942186809653751,0.49828522838135664,-0.3744227819833302
0.0947191814658756,0.450944702622328,-0.36406074779760245
0.0952196819663761,0.37975980318499836,-0.36312618234399524
0.09572018246687661,0.2660536402699032,-0.3764708605812529
0.09622068296737711,0.12279384028255312,-0.3657213351727283
0.0967211834678776,-0.0296540290413431,-0.3779418588074817
0.0972216839683781,-0.18530459689811563,-0.3746520110714847
0.0977221844688786,-0.3171421810950537,-0.37283487638037766
0.09822268496937911,-0.42012466541767596,-0.3917937423554988
0.0987231854698796,-0.4775260133068544,-0.3844048828970089
0.0992236859703801,-0.49318019885555753,-0.3723408539769925
0.0997241864708806,-0.46194960926458667,-0.3878049865507557
0.10022468697138111,-0.38103138600600467,-0.38821846854033804
0.10072518747188161,-0.261277536749544,-0.3902022553069053
0.1012256879723821,-0.1183525652310309,-0.3805924774625745
0.1017261884728826,0.03568637932700818,-0.39003161662572483
0.1022266889733831,0.1840859672407386,-0.39965069054878355
0.10272718947388361,0.32166191894435814,-0.40132108476843614
0.1032276899743841,0.42081188972345296,-0.3877988996567568
0.1037281904748846,0.4825510319655369,-0.3912262290155302
0.1042286909753851,0.4867001439609459,-0.3906167750732067
0.10472919147588561,0.46083383224638663,-0.40094176627022826
0.10522969197638611,0.37530917114221285,-0.3961065427298165
0.1057301924768866,0.2644126574219161,-0.4101296686842186
0.1062306929773871,0.11992660594331005,-0.4097183224657734
0.1067311934778876,-0.03773360415530074,-0.41184185256661193
0.10723169397838811,-0.18842253030226064,-0.4072026036710493
0.1077321944788886,-0.31654424662300945,-0.40271571459222955
0.1082326949793891,-0.42363846456622894,-0.40623838347797164
0.1087331954798896,-0.4828679032869116,-0.4195442729950603
0.10923369598039011,-0.49119538140941416,-0.4212504901670848
0.10973419648089061,-0.4579791340222953,-0.4188855038712635
0.1102346969813911,-0.3716797034446161,-0.42411227709091276
0.1107351974818916,-0.2580070925890335,-0.4277261653054705
0.1112356979823921,-0.1153525093209936,-0.4207953309969006
0.11173619848289261,0.0378822440070463,-0.4346241284392722
0.1122366989833931,0.1923921051578307,-0.4298101559383325
0.1127371994838936,0.3196624120665386,-0.44219010774822676
0.1132376999843941,0.4201690125149774,-0.4303664490702321
0.11373820048489461,0.4795482934088363,-0.4330778357106765
0.11423870098539511,0.49233877368718343,-0.4383190385239097
0.1147392014858956,0.4562581315429588,-0.43473072740790225
0.1152397019863961,0.3746780757944526,-0.4416642196774906
0.1157402024868966,0.2610935262175455,-0.4493336854935241
0.11624070298739711,0.11239126228434643,-0.4356242627094915
0.11674120348789761,-0.03570601010211919,-0.4428767774955376
0.1172417039883981,-0.18846013525425298,-0.4504890790502056
0.11774220448889859,-0.31500945042999556,-0.46050061409452264
0.11824270498939911,-0.4171254961434826,-0.4376187069654253
0.1187432054898996,-0.477934928426667,-0.44233201304338343
0.11924370599040011,-0.48823599147266655,-0.45952532749847447
0.1197442064909006,-0.4613871953267752,-0.4475908870529111
0.12024470699140109,-0.3752599641083024,-0.4534641884830826
0.12074520749190161,-0.26019980369313206,-0.46962507636595846
0.1212457079924021,-0.11768323846183887,-0.4495903069118621
0.12174620849290262,0.04541417049141791,-0.46273640357510915
0.1222467089934031,0.1905395114369323,-0.46253165183237605
0.1227472094939036,0.32561828616473876,-0.4598157777312689
0.12324770999440411,0.42008869158188555,-0.4543606701879603
0.1237482104949046,0.48599564704805914,-0.4651987461305019
0.12424871099540512,0.49108550395073586,-0.47127229582844754
0.12474921149590561,0.4537040618564712,-0.4673499773182146
0.1252497119964061,0.3721583854380439,-0.4785886009821669
0.12575021249690663,0.25777630102482385,-0.4677369809283579
0.12625071299740712,0.11332036612102084,-0.48525266302371156
0.1267512134979076,-0.03695845632667102,-0.4864711412115087
0.12725171399840812,-0.20261357857007575,-0.4731315126638911
0.1277522144989086,-0.31777665948937295,-0.48561269594911727
0.12825271499940913,-0.42875769857710005,-0.4825946610780512
0.12875321549990962,-0.4826194408848744,-0.48796819733307145
0.1292537160004101,-0.4898625863801209,-0.4764704228624978
0.12975421650091062,-0.45094907997566946,-0.5052461338173218
0.1302547170014111,-0.3721085363601228,-0.4983134798189004
0.13075521750191163,-0.25950440262806795,-0.5022882081993891
0.13125571800241212,-0.10895120426816413,-0.5037435696440735
0.1317562185029126,0.04228693379677989,-0.4865337306141112
0.13225671900341313,0.1924853758007167,-0.4935193874648629
0.13275721950391361,0.3255732211789951,-0.5039213136361821
0.13325772000441413,0.4205969793726689,-0.49908096143015585
0.13375822050491462,0.48133348202680043,-0.4975987659458334
0.1342587210054151,0.4905787118346204,-0.499179303867721
0.13475922150591563,0.4539471619089606,-0.5070513871040551
0.13525972200641612,0.367966037255267,-0.5207267808740326
0.1357602225069166,0.25312141153751644,-0.5121075177952338
0.13626072300741712,0.11342420220527677,-0.5104234108853148
0.1367612235079176,-0.0377058304004844,-0.5141550729838794
0.13726172400841813,-0.1893767214989993,-0.5167706582179821
0.13776222450891862,-0.32577430773127913,-0.5172985774559867
0.1382627250094191,-0.4266605498334598,-0.5258386482796603
0.13876322550991962,-0.47798215652612414,-0.516427318048901
0.1392637260104201,-0.49496136850403816,-0.5169642233387945
0.13976422651092063,-0.46033639450203,-0.5249382517783368
0.14026472701142112,-0.3694403729826275,-0.5281583144232176
0.1407652275119216,-0.2497679783887645,-0.5218574176698271
0.14126572801242213,-0.10935955531381016,-0.5332401430177404
0.14176622851292262,0.040811929148828634,-0.5296984851302114
0.14226672901342313,0.18952194928071023,-0.5372820150005835
0.14276722951392362,0.3239385922348115,-0.5269387241998903
0.1432677300144241,0.4261785599333811,-0.5490946544679549
0.14376823051492463,0.4863049760044247,-0.5336057715671477
0.14426873101542512,0.5005245251566772,-0.5403605490841105
0.1447692315159256,0.45219158221783246,-0.5358669845381067
0.14526973201642612,0.3702851702567659,-0.5472278521750694
0.1457702325169266,0.25192221218202243,-0.548338405435715
0.14627073301742713,0.10194867288210001,-0.5635076866422507
0.14677123351792762,-0.050852094325437996,-0.547228378743078
0.1472717340184281,-0.2004523154562674,-0.5608748413753316
0.14777223451892862,-0.3252623843379217,-0.5457219520207353
0.1482727350194291,-0.4304467663342943,-0.5500622003249499
0.14877323551992963,-0.48529957043758337,-0.5696466781206873
0.14927373602043012,-0.49283287803986126,-0.5558221997322892
0.1497742365209306,-0.45354597573026145,-0.55510507154073
0.15027473702143113,-0.36431403684599245,-0.5700772338787995
0.15077523752193162,-0.24825452372837617,-0.5568185903889215
0.1512757380224321,-0.10574728437911869,-0.5683909660925244
0.15177623852293262,0.049262770199681415,-0.5654196711773144
0.1522767390234331,0.1995264703670472,-0.570016482166142
0.15277723952393363,0.3287751358849347,-0.5681640330859353
0.15327774002443412,0.42874554425868805,-0.569885163410038
