Time,Vin,Vout
-0.0007219442776241064,-0.0006735862490446186,0.001125730914535485
-0.00022144377712360645,0.1507408364998453,0.06158171501274845
0.0002790567233768935,0.2829857417445064,0.22765972074674914
0.0007795572238773936,0.40188160063516015,0.39403270714758615
0.0012800577243778934,0.47254073845038985,0.521277849564533
0.0017805582248783935,0.4995718502806495,0.5910319449496001
0.0022810587253788935,0.46946684801138133,0.610574539117966
0.0027815592258793936,0.4006895468010748,0.5593968048587753
0.0032820597263798932,0.29767022641709184,0.4633514336560519
0.0037825602268803937,0.14519820721696405,0.3185854042039351
0.004283060727380893,0.0014712016567345935,0.13587300283890968
0.004783561227881394,-0.15935368643530623,-0.04261583225711178
0.0052840617283818935,-0.2880353793679651,-0.23055248384615984
0.005784562228882394,-0.4046842912719904,-0.3873444991297152
0.006285062729382894,-0.46740070886018875,-0.5171609654123451
0.006785563229883393,-0.4935631857695483,-0.5906203864697753
0.007286063730383893,-0.47021977483509136,-0.6105212647977803
0.007786564230884394,-0.3999348987341386,-0.5638500214666092
0.008287064731384894,-0.2923224078105056,-0.45927093840248717
0.008787565231885393,-0.1494869266206859,-0.3186671959197847
0.009288065732385893,-0.0003928990774282885,-0.1454976968394288
0.009788566232886393,0.15730306024284513,0.044935302568566454
0.010289066733386894,0.2932638664144984,0.2322654264761269
0.010789567233887394,0.40359084370068055,0.389903566027343
0.011290067734387893,0.4715514441234052,0.5183114684895923
0.011790568234888393,0.49137421084605365,0.5921433126252387
0.012291068735388894,0.4733797356221252,0.6096082974918746
0.012791569235889394,0.4013093979798251,0.5540443883482754
0.013292069736389894,0.28552727042907666,0.4611582634040953
0.013792570236890393,0.14332147457780806,0.3179818371032605
0.014293070737390893,-0.005221264142634839,0.1382557398856949
0.014793571237891394,-0.1579481234711099,-0.047776127198522235
0.015294071738391892,-0.29235521614047993,-0.23283503005146935
0.015794572238892395,-0.3965162589522105,-0.395923885157608
0.016295072739392895,-0.4749130016164604,-0.5272723755504538
0.016795573239893394,-0.49103445254080386,-0.5934164545760955
0.017296073740393894,-0.46775716807927253,-0.6026322116780146
0.017796574240894394,-0.39082953325691966,-0.5567202423826564
0.018297074741394893,-0.2843610481452214,-0.4573801923427341
0.018797575241895393,-0.14643570450910454,-0.31765534349341557
0.019298075742395893,0.008274397703761137,-0.14285024686672482
0.019798576242896392,0.15641782964848286,0.050001702815648336
0.020299076743396892,0.2955882565086086,0.23421661090405566
0.020799577243897395,0.4023683789821762,0.40187053914826476
0.021300077744397895,0.4719986727472399,0.5217614505467995
0.021800578244898394,0.48691804825725804,0.5913468129903252
0.022301078745398894,0.4701645804383113,0.6118461082245541
0.022801579245899393,0.39226398877771873,0.559006034705546
0.023302079746399893,0.285622579826136,0.46414784088357436
0.023802580246900393,0.14237154379502798,0.3118907896730709
0.024303080747400892,-0.004436366991822415,0.13702585522547495
0.024803581247901392,-0.16037429909023856,-0.051355064336605145
0.025304081748401895,-0.2995940766923708,-0.23928214523460928
0.025804582248902395,-0.40365490009725963,-0.394827401664297
0.026305082749402894,-0.4686223342326546,-0.5198419238672309
0.026805583249903394,-0.4941363854213118,-0.5899082974010551
0.027306083750403894,-0.46828998197180016,-0.606724479360318
0.027806584250904393,-0.39293872998093315,-0.5507455337184356
0.028307084751404893,-0.290988779350165,-0.45625027040535004
0.028807585251905393,-0.1422238089752604,-0.3126974250669669
0.029308085752405892,0.009427568700677062,-0.1436964714067639
0.029808586252906395,0.16631797403647494,0.05099610489226055
0.030309086753406895,0.30035226072352367,0.23930466112953538
0.030809587253907394,0.4037151671508349,0.39681305397176714
0.03131008775440789,0.47853448635876755,0.5143511640469718
0.031810588254908394,0.4885714931598745,0.5868850722328226
0.0323110887554089,0.46068692929858307,0.6071544835096603
0.03281158925590939,0.3922104423161311,0.5546819871588674
0.033312089756409896,0.28459198728719476,0.457641424798663
0.03381259025691039,0.14544481738458562,0.3084464845611646
0.034313090757410895,-0.009263737788706695,0.1383157693150243
0.03481359125791139,-0.16363557601958034,-0.05455114528485078
0.035314091758411895,-0.3021638315796404,-0.2412624319490769
0.03581459225891239,-0.40809803695172536,-0.39990888106692696
0.036315092759412894,-0.4695888863610663,-0.526291694062389
0.0368155932599134,-0.49090390576510284,-0.6022452893552834
0.03731609376041389,-0.4670088441534058,-0.6071488533583543
0.037816594260914396,-0.39525159409429533,-0.5572659315162382
0.03831709476141489,-0.2806588230130123,-0.4560553053710083
0.038817595261915395,-0.13638780634349343,-0.31163187673653725
0.03931809576241589,0.01302899980299536,-0.13215735270071713
0.039818596262916395,0.1661125802554429,0.0561503746907902
0.04031909676341689,0.30335622168710635,0.2387259148344624
0.040819597263917394,0.3999686660021841,0.39558668288600135
0.04132009776441789,0.4768183846256555,0.5174703265609606
0.04182059826491839,0.4903105361761595,0.5953258383393567
0.042321098765418896,0.46704672285560567,0.6085819002297308
0.04282159926591939,0.3872003757763105,0.5562030531400438
0.043322099766419896,0.280588629650976,0.4491272463900344
0.04382260026692039,0.13985441068024165,0.3080194505790788
0.044323100767420895,-0.01929580273460762,0.12838271051885472
0.04482360126792139,-0.16876695120796045,-0.05747860604305979
0.045324101768421894,-0.2982472541563717,-0.2422602212720678
0.04582460226892239,-0.4064498926464212,-0.3966925801180649
0.04632510276942289,-0.4691881986133111,-0.5366068176391824
0.046825603269923396,-0.48952435601158983,-0.5857558198634593
0.04732610377042389,-0.46032977016675214,-0.6094519735860704
0.047826604270924396,-0.3891301210451939,-0.5476499591431154
0.04832710477142489,-0.27585611442560065,-0.45468481856406845
0.048827605271925395,-0.13381229993734955,-0.3057151693180016
0.04932810577242589,0.017119814752250828,-0.12860240986728336
0.049828606272926394,0.16193385950865047,0.06459566518886045
0.05032910677342689,0.30219955563805795,0.2441866095507867
0.050829607273927394,0.4099246484442038,0.4030793714561728
0.0513301077744279,0.4683266793236316,0.5308537033390635
0.05183060827492839,0.49230564276799604,0.5961836420068216
0.052331108775428896,0.4683543941834201,0.6092458739970568
0.05283160927592939,0.3866684766963405,0.5474873424134709
0.053332109776429895,0.27742300248741203,0.44885331302667486
0.05383261027693039,0.1371472050530793,0.3045907188829265
0.054333110777430894,-0.015512896915243825,0.1246174054442751
0.05483361127793139,-0.16699602630984606,-0.0612457048487368
0.055334111778431894,-0.3048550778743083,-0.2407774857316155
0.0558346122789324,-0.4119445811726924,-0.4082091602376743
0.05633511277943289,-0.4771799585323552,-0.5314583525124666
0.056835613279933396,-0.49137491939393735,-0.5958721436786648
0.05733611378043389,-0.45800319269581935,-0.5979545110165811
0.057836614280934395,-0.38187710639868166,-0.5540234113167625
0.05833711478143489,-0.2770471536751162,-0.4517353783245411
0.058837615281935395,-0.13650744416616245,-0.2972618356502519
0.05933811578243589,0.01847190761257854,-0.12686689012058952
0.059838616282936394,0.17106860065089727,0.0635876870637865
0.0603391167834369,0.3065983946937483,0.2515376994859992
0.06083961728393739,0.41013574776574097,0.4047890854021943
0.061340117784437896,0.4756017353062921,0.5273279288465448
0.06184061828493839,0.4911578225459481,0.5969906444417571
0.062341118785438895,0.4637783089172214,0.6079288409031393
0.0628416192859394,0.38372969521670547,0.552572270651609
0.06334211978643989,0.27398189936609574,0.4494009123665185
0.06384262028694039,0.138622914971964,0.2896925744902052
0.0643431207874409,-0.022167890721256737,0.12477460581123435
0.0648436212879414,-0.1745824173536454,-0.0662697384770544
0.0653441217884419,-0.30626835813065895,-0.2534267155076791
0.06584462228894239,-0.41703387335788666,-0.4156407922965702
0.06634512278944289,-0.47722639373925113,-0.5203253320626603
0.0668456232899434,-0.4923721915620825,-0.5832697085210322
0.0673461237904439,-0.4635624815175695,-0.6014046621792105
0.06784662429094439,-0.3862089294510057,-0.5540219604615656
0.06834712479144489,-0.2732081324740431,-0.43778768642814625
0.0688476252919454,-0.13236251558275344,-0.2967484864784841
0.0693481257924459,0.01916174147108197,-0.12284552022207815
0.0698486262929464,0.17152287124204393,0.06463334637898356
0.07034912679344689,0.3052682658898069,0.2521946503792014
0.07084962729394739,0.4099320485264526,0.4125736596427385
0.0713501277944479,0.47713029491568665,0.5335178503474044
0.0718506282949484,0.49031559085665,0.5945561580010005
0.07235112879544889,0.46265812659716304,0.6067517015241939
0.07285162929594939,0.38645133923956876,0.5541535032802929
0.0733521297964499,0.27417401930177704,0.43891546174923723
0.0738526302969504,0.12720057726887793,0.2934825074815822
0.0743531307974509,-0.029443560635697277,0.11647318106935872
0.07485363129795139,-0.17522699398539732,-0.07367094274996593
0.07535413179845189,-0.3067001868843699,-0.2544897793465604
0.0758546322989524,-0.40954497983738664,-0.4073508112841653
0.0763551327994529,-0.47697442720618305,-0.5316134512387399
0.07685563329995339,-0.49109301041200293,-0.5944582428125436
0.07735613380045389,-0.4635264469246104,-0.6013067085295102
0.0778566343009544,-0.38924315361569783,-0.5500889277215676
0.0783571348014549,-0.27040866031693733,-0.44549125787307636
0.0788576353019554,-0.13578198736488398,-0.3022406098858328
0.07935813580245589,0.019143641043178526,-0.11428780972634821
0.07985863630295639,0.174541173900616,0.07331344502608364
0.0803591368034569,0.3073932252649432,0.25710666598553966
0.0808596373039574,0.40798338087469893,0.41234865106608504
0.08136013780445789,0.47547236107720264,0.5357770471565226
0.08186063830495839,0.49357705048238726,0.5976230863909393
0.0823611388054589,0.4597461566166088,0.5977716573233472
0.0828616393059594,0.3858033027758754,0.5537597918363498
0.08336213980645989,0.2698019391148846,0.4468512790891811
0.08386264030696039,0.1291029355981822,0.2978671598897064
0.08436314080746089,-0.029404100168847123,0.11635930341775544
0.0848636413079614,-0.17836625334812833,-0.07356801273512385
0.0853641418084619,-0.3155895571622823,-0.261157594493499
0.08586464230896239,-0.4161776109444035,-0.4132951308788434
0.08636514280946289,-0.4815159667123119,-0.537314372792284
0.0868656433099634,-0.48811806680119707,-0.5939052746853211
0.0873661438104639,-0.45619271346181717,-0.6058921669129692
0.08786664431096439,-0.3798194692577541,-0.5512690822750658
0.08836714481146499,-0.27203625741276294,-0.4438746853516682
0.0888676453119654,-0.12621479771651128,-0.28993613065748103
0.0893681458124659,0.0321051813297462,-0.11041009979857525
0.0898686463129664,0.1740048362190345,0.08330585626542758
0.09036914681346689,0.31650870943782317,0.25163201739217117
0.09086964731396749,0.41984001774437285,0.42481890651896387
0.09137014781446799,0.4731750099091463,0.544243455830897
0.0918706483149684,0.4893629438279461,0.5995522741398093
0.09237114881546889,0.46346449708216236,0.6003103243183828
0.09287164931596949,0.38358936104602653,0.5487896884213266
0.09337214981646999,0.26377136771638277,0.43947269223804447
0.0938726503169705,0.12064813450015477,0.28469736961135905
0.0943731508174709,-0.02940958823596635,0.11454551147277538
0.09487365131797139,-0.18292172799058742,-0.07857898463243
0.09537415181847199,-0.316078622233494,-0.25819039201974375
0.09587465231897249,-0.4171291874968651,-0.42106112632845333
0.096375152819473,-0.4806280911809962,-0.5353493803832253
0.09687565331997339,-0.4973241577470323,-0.5885934677521515
0.09737615382047399,-0.455855038800282,-0.6030510536523515
0.09787665432097449,-0.3815994277052109,-0.5500085602692578
0.098377154821475,-0.2632243480786178,-0.4371354876567566
0.0988776553219755,-0.12502664536433417,-0.29540414945339316
0.09937815582247589,0.029745600173281577,-0.10826198466491407
0.09987865632297649,0.17787561019324116,0.08118824431517346
0.10037915682347699,0.318299971579563,0.26933776768415996
0.1008796573239775,0.41194299468219847,0.4154156120964549
0.101380157824478,0.4747585354559327,0.5361043929414663
0.10188065832497849,0.48984998049651246,0.6017376106150297
0.10238115882547899,0.45986116782817754,0.6043976955226953
0.1028816593259795,0.38151780027969306,0.5486434010324671
0.10338215982648,0.26333324837860145,0.44496643809995645
0.1038826603269805,0.12024326571841157,0.2825445971308075
0.10438316082748099,-0.03149443560510452,0.10290279734297793
0.10488366132798149,-0.1822616122884585,-0.08596919423592994
0.105384161828482,-0.31717099530358156,-0.26430860124670674
0.1058846623289825,-0.41462181540551185,-0.4280736533084525
0.10638516282948299,-0.4780442701793799,-0.5397012345714931
0.10688566332998349,-0.4928827745087949,-0.602432936998555
0.107386163830484,-0.4584779011013552,-0.6032888186408878
0.1078866643309845,-0.3801150045515938,-0.5504637582546235
0.108387164831485,-0.26178648536387744,-0.4363699580266512
0.10888766533198549,-0.11375494463985933,-0.2836136430446009
0.10938816583248599,0.030832911901737516,-0.10653879718750299
0.1098886663329865,0.1907024130893812,0.07952963376386155
0.110389166833487,0.31803999255311427,0.2579419987077508
0.11088966733398749,0.41624596495569505,0.41811024702804167
0.11139016783448799,0.48020532430296436,0.5377984925048764
0.1118906683349885,0.4852907764624786,0.5997326817601526
0.112391168835489,0.454250554440489,0.5995139920720834
0.1128916693359895,0.37831911884958713,0.5459983539488399
0.11339216983648999,0.26376908387654047,0.43277207245229604
0.11389267033699049,0.12124772769053747,0.27766643264751034
0.114393170837491,-0.033323511443797596,0.0995686105569823
0.1148936713379915,-0.1867397180874592,-0.08265279543277067
0.11539417183849199,-0.3195277685307156,-0.2652912350110934
0.11589467233899249,-0.41477447982512067,-0.4237569409920596
0.116395172839493,-0.4812854399143526,-0.5406583432983956
0.1168956733399935,-0.48537991564824545,-0.6046320070703429
0.117396173840494,-0.4551297228054538,-0.5964910129257309
0.11789667434099449,-0.3763910143195111,-0.547117853251742
0.11839717484149499,-0.2582051706900568,-0.4371064523224246
0.1188976753419955,-0.11448435466193235,-0.28047992530963667
0.119398175842496,0.03536673633039775,-0.10388653709951548
0.11989867634299649,0.18743702484227587,0.08864280988232104
0.12039917684349699,0.3200308666184428,0.27585728569249485
0.1208996773439975,0.4181780812765069,0.4204230169523278
0.121400177844498,0.4891407367212961,0.5437031657056721
0.1219006783449985,0.4920059760238483,0.6018959145956265
0.12240117884549899,0.4626040708504234,0.6087409538406117
0.12290167934599949,0.37642367201838844,0.5371928770053745
0.1234021798465,0.25843779468692557,0.4366084066276215
0.1239026803470005,0.1111505401840599,0.27710891567061996
0.124403180847501,-0.03997918068714979,0.10027559561846569
0.12490368134800149,-0.18694078654966725,-0.08968063227890821
0.125404181848502,-0.3237242554914262,-0.2706376500870901
0.12590468234900248,-0.41967766748242685,-0.4294157697102845
0.12640518284950297,-0.48064057204441385,-0.5425124431759893
0.12690568335000352,-0.49287798731028803,-0.5968165240721306
0.127406183850504,-0.449028392364829,-0.6042657560919144
0.1279066843510045,-0.3759669739341472,-0.5380648003088923
0.12840718485150499,-0.2564916578272558,-0.43322822502628494
0.12890768535200547,-0.11320638079301544,-0.2762979723799676
0.12940818585250602,0.041890790807362605,-0.09889520826608167
0.1299086863530065,0.1913637207525101,0.09269072043860019
0.130409186853507,0.3242145706248691,0.2762932318141975
0.1309096873540075,0.42131934521478537,0.4238667535373218
0.13141018785450798,0.48426337817523313,0.5441013801065759
0.13191068835500852,0.4939718806840624,0.5981704543173244
0.132411188855509,0.461103066548076,0.603221177743173
0.1329116893560095,0.37565669902908544,0.5463629591971325
0.13341218985651,0.2530574265745032,0.42819500529465043
0.13391269035701048,0.11244683809586,0.28621066390066946
0.13441319085751097,-0.037763722039169854,0.09778152111348201
0.1349136913580115,-0.19181896031222603,-0.09005004900422778
0.135414191858512,-0.3294772299792088,-0.2768934802383324
0.1359146923590125,-0.4222924484331932,-0.4288374002207674
0.13641519285951298,-0.4804850031822246,-0.5438242536141976
0.13691569336001347,-0.48828604170503087,-0.6018499095479987
0.137416193860514,-0.454047605490169,-0.6039817651331191
0.1379166943610145,-0.3678879163785977,-0.549676983419023
0.138417194861515,-0.25735778121846214,-0.42731113529077963
0.13891769536201548,-0.10733116541499493,-0.26808172827765553
0.13941819586251597,0.04303732440099873,-0.09848115567569758
0.13991869636301651,0.19595758774712949,0.09203765716977375
0.140419196863517,0.3213594750400201,0.27780818232243826
0.1409196973640175,0.41691832360293646,0.42626933904087394
0.14142019786451798,0.47831659976742963,0.5383433005986314
0.14192069836501847,0.4901909789394923,0.6027361779695154
0.14242119886551902,0.45520844801681326,0.5981895666405755
0.1429216993660195,0.37165939101503953,0.5449470873675941
0.14342219986652,0.2553284531332971,0.42647561580961546
0.14392270036702048,0.10742317710743347,0.27823844844337847
0.14442320086752097,-0.04647156711416446,0.09630908701897517
0.14492370136802152,-0.1905705809427991,-0.10031147705309476
0.145424201868522,-0.32838528625671387,-0.2721715688679532
0.1459247023690225,-0.41830312589604207,-0.42534521507681733
0.14642520286952299,-0.4766580066420053,-0.5408126583135721
0.14692570337002347,-0.4851036027632899,-0.6030842238803386
0.14742620387052402,-0.4529995695870497,-0.5900100451514588
0.1479267043710245,-0.37622610739658163,-0.538084208748528
0.148427204871525,-0.2493640204086498,-0.42168482615149655
0.1489277053720255,-0.10580851118740732,-0.2751952963311781
0.14942820587252598,0.0442488853801853,-0.0947809602380009
0.14992870637302652,0.1972854736686185,0.10030796729274793
0.150429206873527,0.3283810702550685,0.2800163701599307
0.1509297073740275,0.42358427512658003,0.42438107631151956
0.151430207874528,0.4787436597582114,0.5473468086313168
0.15193070837502848,0.486137077480123,0.6019091774063667
0.15243120887552897,0.45669829265465517,0.5969331925983121
0.1529317093760295,0.369027404757978,0.5392143599216142
0.15343220987653,0.25074620248976703,0.4268960888823052
0.1539327103770305,0.10347842853201202,0.2630236478018593
0.15443321087753098,-0.04148508364748286,0.08623043106461009
0.15493371137803147,-0.1962079074133422,-0.10100543132562356
0.155434211878532,-0.3282356035169911,-0.28859942832997404
0.1559347123790325,-0.43119875044273737,-0.4346288435804704
0.156435212879533,-0.48076685457733126,-0.5486614001543434
0.15693571338003348,-0.4933674127432487,-0.6076413858157668
0.15743621388053397,-0.4503103682026723,-0.5965108512682107
0.15793671438103452,-0.3730668313599094,-0.5393355676391175
0.158437214881535,-0.24741392101881363,-0.42318496597805505
0.1589377153820355,-0.10908239176498577,-0.2608633162113062
0.15943821588253598,0.05163517829899596,-0.08479644807435836
0.15993871638303647,0.1950472300804693,0.10129753305656945
0.16043921688353702,0.32672496235561244,0.28640053452278563
0.1609397173840375,0.4271687199990703,0.43496640811448073
0.161440217884538,0.480649219219388,0.5394475313967858
0.16194071838503848,0.4928908527912976,0.6043555197688626
0.16244121888553897,0.4587528686196241,0.5917202483576278
0.16294171938603952,0.3724311050933184,0.5385264973409187
0.16344221988654,0.24462701836184392,0.4220265023613184
