Time,Vin,Vout
0.0043477083501745565,0.003949928398349487,-0.003913067613972131
0.004372733375199582,0.012332345593194478,-0.0020869549951598033
0.004397758400224607,0.02721575644840864,0.010158336982979233
0.004422783425249632,0.050046036037670834,0.004297286715358004
0.004447808450274656,0.06806019177827576,0.012586373550069687
0.004472833475299656,0.0806464157871481,0.014319938347793541
0.004497858500324656,0.0941601612651933,0.020207572253539727
0.004522883525349656,0.11771033096376293,0.01987865148644804
0.004547908550374757,0.12333557959243541,0.022697575960355106
0.004572933575399757,0.13860035747224278,0.02697621362686494
0.004597958600424757,0.16039566409808406,0.041068805692734175
0.004622983625449757,0.17620772853677927,0.04481725606539804
0.004648008650474857,0.1896349641469664,0.055900213724533535
0.004673033675499857,0.20739621983758041,0.07314236180182272
0.004698058700524857,0.21302311605222446,0.0821342277704019
0.004723083725549857,0.23201433771161808,0.09056040763336558
0.004748108750574956,0.2560765324088794,0.11661342045637986
0.004773133775599956,0.2582535781325492,0.1259846329210283
0.004798158800624956,0.2745074368575982,0.14430066920702714
0.004823183825649956,0.28819774431832795,0.16087957780581816
0.004848208850675056,0.3002479775702859,0.18336855079645936
0.004873233875700056,0.30951181768570146,0.20084815713634638
0.004898258900725056,0.3191172802902488,0.2337585490911792
0.004923283925750056,0.3365065986823332,0.24383176427063433
0.004948308950775157,0.3507550826932724,0.26242025507728334
0.004973333975800157,0.3615151455728833,0.2772808254005338
0.004998359000825157,0.3738725469261887,0.30069201936717677
0.005023384025850157,0.3847950299404242,0.32357947987606295
0.0050484090508752565,0.39112405846512543,0.3434267954370187
0.0050734340759002565,0.39988287082616963,0.3693114308072521
0.0050984591009252565,0.4121685139536118,0.3821625670253097
0.0051234841259502565,0.4283588012331793,0.41113189791225585
0.005148509150975356,0.42746675854922556,0.417481915259428
0.005173534176000356,0.4304408312795047,0.44379855371981347
0.005198559201025356,0.4504468159554055,0.46899804593660466
0.005223584226050356,0.4527883294155138,0.48868584944964333
0.005248609251075457,0.46336007752095293,0.506883214579757
0.005273634276100457,0.4722089730982833,0.5284211349171025
0.005298659301125457,0.4746089890033871,0.5447782415107825
0.005323684326150457,0.4788257239702397,0.5629582095762417
0.005348709351175557,0.48714807271106847,0.588875228900657
0.005373734376200557,0.4870349647621769,0.6109269912444104
0.005398759401225557,0.4973544901665569,0.6172765840498484
0.005423784426250557,0.4952944475923155,0.6240216391976177
0.005448809451275656,0.5052459650607671,0.6459551077975412
0.005473834476300656,0.5103727961307577,0.6715556717344462
0.005498859501325656,0.5049414379117706,0.6730025232514965
0.005523884526350656,0.5064161841463724,0.6929082599134827
0.005548909551375757,0.5074641481482415,0.7053454856423002
0.005573934576400756,0.5129536768282688,0.71594178611602
0.005598959601425757,0.515626584263215,0.7266439784081771
0.005623984626450756,0.5107250698264534,0.7359316788559004
0.005649009651475857,0.5060939442601875,0.748805502430365
0.005674034676500857,0.5135247888017875,0.761819740511252
0.005699059701525857,0.5057366720216526,0.7724824620716896
0.005724084726550857,0.5022793374348513,0.7703149411788043
0.0057491097515759565,0.4997922000952019,0.7794902823112843
0.0057741347766009565,0.49618172583687137,0.7805549574947487
0.0057991598016259565,0.5010129605433993,0.7893715808872578
0.0058241848266509565,0.4886245623766403,0.7886474028704509
0.005849209851676056,0.4900163311948166,0.7905199566392616
0.005874234876701056,0.47654463878747993,0.7969139097212298
0.005899259901726056,0.4737614907697641,0.7943410434799157
0.005924284926751056,0.46838497460657413,0.7997296849812527
0.005949309951776156,0.4587470545366421,0.8041333961890724
0.005974334976801157,0.4529856572807808,0.8001369767739059
0.005999360001826156,0.44368794678446627,0.7957323755948003
0.006024385026851157,0.4337309046187798,0.7887915493529096
0.006049410051876257,0.4344916290581985,0.7928970205162956
0.006074435076901257,0.4208577227620584,0.7851151535320868
0.006099460101926257,0.41209792087492786,0.7791665536188057
0.006124485126951257,0.3999026577557681,0.771990733560554
0.006149510151976356,0.39167531028787284,0.7752946955693212
0.006174535177001356,0.389987329590844,0.7614049500317505
0.006199560202026356,0.368615357028968,0.7555800061327544
0.006224585227051356,0.36228346204163897,0.7460866381966222
0.006249610252076456,0.3491772206013997,0.7354339929565217
0.006274635277101457,0.3376565712408927,0.7315931072084713
0.006299660302126456,0.32324024755719505,0.7100332884372637
0.006324685327151457,0.3120739243694429,0.7113800756269317
0.006349710352176557,0.30048561408433033,0.6905271623514001
0.006374735377201556,0.28899298701492754,0.6812990314841654
0.006399760402226557,0.2706638263263828,0.6652287108577046
0.006424785427251556,0.2615147080805794,0.6485346703100597
0.0064498104522766565,0.2471347983813656,0.6298514103356305
0.0064748354773016565,0.2332320600426282,0.6220650039603669
0.0064998605023266565,0.21610774800628044,0.6029733405657596
0.0065248855273516565,0.2009040476118857,0.5828071813245631
0.006549910552376756,0.1851556741667173,0.5644282502273661
0.006574935577401757,0.1656258118934466,0.5475699377052538
0.006599960602426756,0.15807081927893893,0.5293449851700925
0.006624985627451757,0.1377909072922499,0.5121459315167673
0.006650010652476857,0.12619727592958788,0.49453977689967216
0.006675035677501856,0.1108328103995307,0.45957190295954636
0.006700060702526857,0.096909904403192,0.4441606784455943
0.006725085727551856,0.07880195245600224,0.4322423810578624
0.006750110752576957,0.06038549783740383,0.40573676957343385
0.006775135777601957,0.045047628137783034,0.39240581155092724
0.006800160802626957,0.030523210171069223,0.36767221941944744
0.006825185827651957,0.010458736076147059,0.3520502070117527
0.006850210852677056,-0.00034949917067428983,0.31532664400362337
0.006875235877702056,-0.018529590114179515,0.28622029932241677
0.006900260902727056,-0.03217998493676143,0.27647963086236516
0.006925285927752056,-0.051517205991884925,0.2522194994909533
0.006950310952777157,-0.07081643078878408,0.21719774367976383
0.006975335977802156,-0.08522067339913934,0.20638234275594758
0.007000361002827157,-0.0951822541671152,0.1667466017053264
0.007025386027852156,-0.11174105999230212,0.15041507567067625
0.007050411052877256,-0.12469578408197825,0.13118330167521597
0.007075436077902257,-0.14528927411943132,0.10313132413657113
0.007100461102927256,-0.15894303976338617,0.07592336631859295
0.007125486127952257,-0.1748368735305227,0.0516843151287529
0.0071505111529773565,-0.18874757916120702,0.024418595146609278
0.0071755361780023565,-0.20169141621647743,0.004749723791103333
0.0072005612030273565,-0.2164018697292478,-0.03128889087815897
0.0072255862280523565,-0.22857291774771477,-0.047881172962505596
0.007250611253077457,-0.24642605613881685,-0.07709518343369307
0.007275636278102456,-0.2613596763178322,-0.09740092453200698
0.007300661303127457,-0.28032170749285096,-0.12488698989500914
0.007325686328152456,-0.291685962530352,-0.13930126444318813
0.007350711353177556,-0.3092733390743472,-0.16711165111767404
0.007375736378202557,-0.3137982146697514,-0.2041788383219631
0.007400761403227556,-0.3282450206188569,-0.22999230885928126
0.007425786428252557,-0.3444705299268834,-0.2484383812953261
0.007450811453277657,-0.35397623791424715,-0.2662582104833633
0.007475836478302657,-0.36614554072096106,-0.29409170078735863
0.007500861503327657,-0.36629879297632856,-0.3191513855824059
0.007525886528352657,-0.3808264754236072,-0.33966489235511443
0.007550911553377756,-0.3925180883367589,-0.35738954010508256
0.007575936578402756,-0.4030980651724545,-0.3894336889232106
0.007600961603427756,-0.418420010810306,-0.39729822615893984
0.007625986628452756,-0.4209109720347446,-0.43302901179024955
0.007651011653477856,-0.43248284960319305,-0.45512134346778066
0.007676036678502857,-0.44251381037022086,-0.4665098854713138
0.007701061703527856,-0.4494946285943636,-0.4908799005750758
0.007726086728552857,-0.4558457057025001,-0.5131118600644018
0.007751111753577957,-0.461909510760005,-0.5366550935210344
0.007776136778602956,-0.4708371012237692,-0.5430963246984265
0.007801161803627957,-0.4764569089438602,-0.5680049035429662
0.007826186828652956,-0.48334356718054067,-0.5804475144632845
0.007851211853678056,-0.483957939176786,-0.5947697657615784
0.007876236878703056,-0.4873217638034868,-0.6000691238543548
0.007901261903728057,-0.4939248600658866,-0.6363396668519771
0.007926286928753057,-0.49953086857813106,-0.6489401353139367
0.007951311953778156,-0.502090561063068,-0.6639085582998858
0.007976336978803157,-0.5071041137054872,-0.6760264106594217
0.008001362003828156,-0.5044536267077498,-0.6860612701841061
0.008026387028853157,-0.5107421845243594,-0.6932818479879915
0.008051412053878257,-0.5107484773012023,-0.7145602377668017
0.008076437078903256,-0.5049733369345439,-0.7291797469240076
0.008101462103928257,-0.5095188026816193,-0.7251759239716815
0.008126487128953256,-0.512149063993725,-0.7478480024687946
0.008151512153978357,-0.5114395118437369,-0.749757031518267
0.008176537179003357,-0.5064597854078587,-0.7527089223519065
0.008201562204028356,-0.504648593253529,-0.7677481518379322
0.008226587229053357,-0.5046990459690518,-0.7730084561393
0.008251612254078456,-0.49397024842732995,-0.775601709796197
0.008276637279103456,-0.49952114141713705,-0.7906139938345406
0.008301662304128456,-0.49606512664968994,-0.79361506814403
0.008326687329153457,-0.4858739686564214,-0.7979154131443834
0.008351712354178555,-0.4877910449561134,-0.7940069074631934
0.008376737379203556,-0.48464667180566234,-0.793896098676891
0.008401762404228557,-0.47201783763606225,-0.7985857262408113
0.008426787429253556,-0.4746667473189464,-0.7954040858482235
0.008451812454278656,-0.46002176976828374,-0.8003331492342564
0.008476837479303657,-0.45445108130414397,-0.8031043792989839
0.008501862504328658,-0.44633440147816783,-0.7921513416296622
0.008526887529353657,-0.4397639871715219,-0.7855184821752725
0.008551912554378756,-0.43031785274028783,-0.7903066058511321
0.008576937579403757,-0.4207161883889254,-0.7798552062734317
0.008601962604428757,-0.41309114889009657,-0.7778070337176723
0.008626987629453756,-0.40386237535518954,-0.7790544048173104
0.008652012654478857,-0.3918022321569694,-0.7721403209224653
0.008677037679503856,-0.3813796876057248,-0.7528660085029334
0.008702062704528855,-0.37048001699251776,-0.7585434807720854
0.008727087729553856,-0.36316992942006027,-0.7574199769252767
0.008752112754578958,-0.35089995049777606,-0.7379952074224081
0.008777137779603957,-0.33334562507495874,-0.7198280075551846
0.008802162804628956,-0.32328699152612994,-0.7101411731092165
0.008827187829653957,-0.31816232522848986,-0.7093293370549543
0.008852212854679057,-0.3025198080089371,-0.6822590728578496
0.008877237879704056,-0.28713410505915016,-0.6743556563450759
0.008902262904729057,-0.26849240246756867,-0.6534636658228523
0.008927287929754057,-0.25331781359229505,-0.652400987093071
0.008952312954779156,-0.23932844235403214,-0.6273042833112654
0.008977337979804156,-0.22546335810384305,-0.6077978447332936
0.009002363004829157,-0.21656267447472638,-0.6050027342518759
0.009027388029854156,-0.19876237701668226,-0.5830303935933477
0.009052413054879256,-0.1790423783922648,-0.5697839283560703
0.009077438079904257,-0.17051888104345195,-0.5463509895987357
0.009102463104929256,-0.15936522288886656,-0.5240153431824255
0.009127488129954255,-0.13386091843713843,-0.5098815457489775
0.009152513154979357,-0.12854608869829293,-0.4894702845660832
0.009177538180004358,-0.11167983107683546,-0.46804812718797684
0.009202563205029357,-0.09066524677569136,-0.4480065581983959
0.009227588230054356,-0.07424451584227224,-0.4295106504648047
0.009252613255079457,-0.061379610010521383,-0.400730430769922
0.009277638280104457,-0.04351289466397146,-0.37264660870441035
0.009302663305129456,-0.032081906333008926,-0.36287708048666595
0.009327688330154457,-0.012981619315215109,-0.3401487636920402
0.009352713355179556,-0.004340853453235539,-0.3149293884803656
0.009377738380204555,0.01999313723429782,-0.2896096931772788
0.009402763405229556,0.03359666963489439,-0.2614073497780658
0.009427788430254557,0.04011383052283996,-0.2410880080883839
0.009452813455279657,0.06793524323364195,-0.22207526086645854
0.009477838480304656,0.07779225914652836,-0.19739100261756426
0.009502863505329657,0.09974503214212906,-0.16809106257125175
0.009527888530354658,0.11789465263535198,-0.15055814380518276
0.009552913555379756,0.13213742599391454,-0.12362239766223011
0.009577938580404757,0.14303078898017915,-0.0956215392282926
0.009602963605429757,0.161673108978069,-0.06790982494731733
0.009627988630454757,0.17555088379450376,-0.045037217826009314
0.009653013655479856,0.19192096700009262,-0.013813989298809722
0.009678038680504857,0.20261879573999353,-0.004250474155027597
0.009703063705529856,0.2147292558169473,0.028413335232158193
0.009728088730554856,0.23568142960084337,0.056475761153076676
0.009753113755579957,0.24489713287131312,0.07515368995522878
0.009778138780604956,0.26548429446671384,0.09483684941699985
0.009803163805629955,0.28512617330417267,0.129101519436709
0.009828188830654956,0.28471862380999396,0.14910243558386627
0.009853213855680058,0.3070747854751009,0.17169326794645007
0.009878238880705057,0.31723655216955887,0.21041058640929636
0.009903263905730056,0.32926593999843967,0.23472134783816984
0.009928288930755057,0.34464245520607023,0.24127979616394102
0.009953313955780156,0.3491386322505246,0.27154437919816193
0.009978338980805156,0.36409759864646063,0.30136028647280816
0.010003364005830157,0.3736457739383773,0.3232845924733321
0.010028389030855157,0.3868409069217372,0.33982151933326893
0.010053414055880255,0.3954867512590067,0.36621312810102036
0.010078439080905256,0.405521062326521,0.3863232025162858
0.010103464105930257,0.41556033029102146,0.4179569488367374
0.010128489130955256,0.42497220077845405,0.43044001769364765
0.010153514155980356,0.4376329056578933,0.458610728602164
0.010178539181005357,0.4431334989129769,0.4755416391590411
0.010203564206030358,0.4511014585685351,0.48955499116264395
0.010228589231055357,0.4558778339011815,0.5101563405989238
0.010253614256080457,0.4665137359318236,0.533989079013244
0.010278639281105457,0.4662521844771877,0.5546803712365134
0.010303664306130457,0.4754682234499617,0.5719536632684799
0.010328689331155456,0.4779746858581747,0.5881051256910472
0.010353714356180557,0.4804947334065076,0.6067354440371893
0.010378739381205556,0.4932469612843729,0.6239082319176156
0.010403764406230556,0.5013275165422811,0.6241794700051689
0.010428789431255556,0.4991601617836405,0.6565982566363445
0.010453814456280656,0.5020109945722252,0.6583317063286993
0.010478839481305655,0.5034080637178575,0.6717433859237635
0.010503864506330656,0.5107456940572183,0.6836043575447629
0.010528889531355657,0.506416923114094,0.7090734449910061
0.010553914556380757,0.508935579614192,0.7175981323317552
0.010578939581405756,0.5071728993760904,0.7245786308919006
0.010603964606430757,0.5158005652108395,0.7451538014077317
0.010628989631455758,0.5092988989166329,0.7448376571611159
0.010654014656480856,0.5099180312897093,0.7579730833090615
0.010679039681505857,0.5107081862960602,0.7534193295881092
0.010704064706530857,0.5115807060561686,0.7708715373468173
0.010729089731555857,0.5037275632234531,0.7757387593883784
0.010754114756580956,0.49973996340846355,0.776951553040395
0.010779139781605957,0.5009471827985235,0.7792633658403331
0.010804164806630956,0.49151879237017454,0.7961762933922601
0.010829189831655955,0.49155960922971703,0.7992454340207202
0.010854214856681057,0.47995345592615746,0.8006049873598353
0.010879239881706058,0.4793497862299382,0.7991961132777241
0.010904264906731057,0.47895261063157274,0.8059687289703826
0.010929289931756056,0.4656657972177843,0.8062063663105312
0.010954314956781157,0.4585304075346437,0.7986853400608865
0.010979339981806157,0.4524144280328619,0.8137159933290927
0.011004365006831156,0.44814925267945066,0.7969139030109594
0.011029390031856157,0.43806642551715635,0.7940328163857897
0.011054415056881256,0.4315107614784898,0.7913440697562223
0.011079440081906256,0.41850964264319274,0.7882698668618604
0.011104465106931256,0.4112836343248361,0.785465719477887
0.011129490131956257,0.4033808003679359,0.7703215162043865
0.011154515156981355,0.39181043478482436,0.7623004911187659
0.011179540182006356,0.3772512211522211,0.7543790981007199
0.011204565207031357,0.37043857094100385,0.7552881483536609
0.011229590232056356,0.3519952932793768,0.7480007938388777
0.011254615257081456,0.34744107002616653,0.7336284795042478
0.011279640282106457,0.3357579356311601,0.7272074234165079
0.011304665307131458,0.3269528890182759,0.7150477058061655
0.011329690332156457,0.3024723274864928,0.7003769269850576
0.011354715357181557,0.2929765861251287,0.6938320012380123
0.011379740382206557,0.2840443645037352,0.6673419828993518
0.011404765407231557,0.27254301281112964,0.6618106909031749
0.011429790432256556,0.25877077394760206,0.6478731054200847
0.011454815457281657,0.24192067155133826,0.6250050995192193
0.011479840482306656,0.22986556859174845,0.6024676100120213
0.011504865507331655,0.21256803408343394,0.5987640290069172
0.011529890532356656,0.19551713968943374,0.5866100757784417
0.011554915557381758,0.18435353348575062,0.5645021413584222
0.011579940582406757,0.17060986230436612,0.5467351103739502
0.011604965607431756,0.15744084377505177,0.5292946416448574
0.011629990632456757,0.13600152964078677,0.5129673469298769
0.011655015657481857,0.11716909417128507,0.4812225027588316
0.011680040682506856,0.10598393288126869,0.4535958529724116
0.011705065707531857,0.0850729281473931,0.4437699977368951
0.011730090732556857,0.07840826635753431,0.42669945455112046
0.011755115757581956,0.05984774850565507,0.39784911665984296
0.011780140782606956,0.04327018863532162,0.3851048714434475
0.011805165807631957,0.02735979172980313,0.35353225088826973
0.011830190832656956,0.008684594161230482,0.3419942097224951
0.011855215857682056,-0.010554855021434715,0.32757510218140523
0.011880240882707057,-0.02140328430930829,0.298627750724799
0.011905265907732056,-0.04225784247135357,0.27302773536399044
0.011930290932757055,-0.053677770751435226,0.24071320490033785
0.011955315957782157,-0.06453690016859771,0.21435876529906625
0.011980340982807158,-0.08548513493438148,0.1879553944661926
0.012005366007832157,-0.10249602984742616,0.16922831844137784
0.012030391032857156,-0.1177156169592542,0.14995225121241623
0.012055416057882257,-0.13239815695326834,0.12436334396311488
0.012080441082907257,-0.14661789031512223,0.09558287863288703
0.012105466107932256,-0.15966650417071251,0.07120430676156378
0.012130491132957257,-0.1770639348303872,0.05127259042021016
0.012155516157982356,-0.19310739632579502,0.014739470776548691
0.012180541183007357,-0.20687216050784868,0.007500546106154461
0.012205566208032356,-0.21742410639968482,-0.027803829090003448
0.012230591233057357,-0.23222963900970622,-0.048577682762831004
0.012255616258082457,-0.25421011849232894,-0.09342648690268972
0.012280641283107456,-0.2644137690937089,-0.09971349843494705
0.012305666308132457,-0.27895244828469434,-0.12335240108718776
0.012330691333157456,-0.28739583168768146,-0.15220110130100156
0.012355716358182556,-0.2999265287704624,-0.17254014362399436
0.012380741383207557,-0.31941993861719914,-0.20302237622232827
0.012405766408232556,-0.32755088183268044,-0.22684046880917222
0.012430791433257557,-0.3430601111169036,-0.2500024958272622
