Time,Vin,Vout
-0.009132135200503672,-0.001648089637669943,0.0010939577540318298
-0.008631634700003173,0.1458684330173686,0.004572745109915906
-0.008131134199502673,0.2867069828758601,0.009025144941387361
-0.0076306336990021725,0.3895701202175564,0.015710598205118838
-0.007130133198501672,0.4559628612686066,0.02966176587784189
-0.006629632698001172,0.477792210604439,0.04214465732922789
-0.006129132197500673,0.4518057537705986,0.06050622557052765
-0.005628631697000172,0.38906385767541884,0.07685489026874973
-0.005128131196499673,0.2767165127386503,0.09254680950037687
-0.004627630695999172,0.15160234947518103,0.1056314649150149
-0.0041271301954986725,-0.005497089530559233,0.10829609859145271
-0.003626629694998172,-0.14424678384493989,0.1064433200299856
-0.0031261291944976724,-0.2818970985652479,0.09712957281012911
-0.002625628693997172,-0.38829942942807466,0.08100934151483863
-0.0021251281934966722,-0.4568577185528047,0.058790203772929914
-0.0016246276929961726,-0.4759147959838978,0.03256409053574636
-0.001124127192495673,-0.45683580984734423,0.003999599673731162
-0.0006236266919951716,-0.38620117347752575,-0.02392265935647743
-0.000123126191494672,-0.27666533391887455,-0.046592273119677084
0.00037737430900582764,-0.14567327870154306,-0.06710503878656432
0.0008778748095063273,0.007012336444308605,-0.08240613727289618
0.001378375310006827,0.15355609167616321,-0.08702804165899657
0.0018788758105073283,0.2877860679894815,-0.08661493182606501
0.002379376311007828,0.3857127124591407,-0.07985874700960349
0.0028798768115083275,0.45733128580634547,-0.06460793552158177
0.003380377312008827,0.48108819446944645,-0.04607772575157987
0.0038808778125093285,0.45781399664981615,-0.024724407336182353
0.004381378313009828,0.38890516740942027,-0.004743202292287907
0.004881878813510328,0.2774592026202742,0.00980730241365362
0.005382379314010827,0.14750972624457712,0.024306201389285274
0.005882879814511327,-0.004938081669775447,0.030900063161256184
0.006383380315011828,-0.15406836911358882,0.03136120194581052
0.006883880815512326,-0.2907049760458631,0.024951717700189325
0.007384381316012829,-0.39137973863414444,0.010464682576014768
0.007884881816513329,-0.4605453583929828,-0.00798620095868399
0.008385382317013829,-0.47235715656666927,-0.032073654309747276
0.008885882817514328,-0.45650220840359634,-0.05975842432690661
0.009386383318014828,-0.3903262706829928,-0.08393062893227099
0.009886883818515328,-0.27637391166483294,-0.10800132979671731
0.010387384319015827,-0.1381003470875077,-0.12477882127526853
0.010887884819516327,0.00816279279470357,-0.13724612322397003
0.011388385320016826,0.15180592569710444,-0.14187119795438174
0.011888885820517326,0.2850248101162848,-0.13852164946082002
0.01238938632101783,0.3887287199875421,-0.12960092113063137
0.012889886821518329,0.4543219446204493,-0.11539993587877194
0.013390387322018828,0.4758054090792577,-0.09500810175680977
0.013890887822519328,0.45591527253854164,-0.07292872394152099
0.014391388323019828,0.3836338986151653,-0.0496532416504909
0.014891888823520327,0.27652071553361374,-0.03229772229879478
0.015392389324020827,0.1390992920525701,-0.01556401616706925
0.015892889824521327,0.0007203456944800881,-0.009660803063896078
0.016393390325021826,-0.1526505111026493,-0.007857098596379362
0.01689389082552233,-0.28444839292651874,-0.012733747899500403
0.01739439132602283,-0.3894228816990202,-0.02759616328441431
0.01789489182652333,-0.455753565679949,-0.043803998860930254
0.018395392327023828,-0.481817773375483,-0.06701954190082755
0.018895892827524328,-0.45474425463970714,-0.09058574993215818
0.019396393328024827,-0.38135761997113715,-0.11690268535728221
0.019896893828525327,-0.2731966816297642,-0.1389469736578755
0.020397394329025827,-0.1407759827400112,-0.15212164111215842
0.020897894829526326,0.01021359967948344,-0.16621826990767782
0.02139839533002683,0.15277565740300436,-0.17123508620852157
0.02189889583052733,0.29354005638035874,-0.16585330454406794
0.02239939633102783,0.3932766952590556,-0.15402500026289784
0.022899896831528325,0.4567853827312139,-0.13787309359745303
0.023400397332028828,0.47949745214280204,-0.11720411836818735
0.02390089783252933,0.45245278003604544,-0.09527650924572323
0.024401398333029827,0.37909175081147417,-0.07364263327007402
0.02490189883353033,0.26936767194673794,-0.053941419463462016
0.025402399334030826,0.13916371027217736,-0.03705580599968126
0.02590289983453133,-0.010088154457738903,-0.030194646002102445
0.026403400335031826,-0.1630758074852557,-0.026647754870289603
0.02690390083553233,-0.28745658990888584,-0.03271834978827763
0.027404401336032825,-0.3941335007011282,-0.043616959863752
0.027904901836533328,-0.465006626595954,-0.06424357335990258
0.02840540233703383,-0.48104840289462747,-0.08528256349636448
0.028905902837534327,-0.4529025592211338,-0.10974288477224282
0.02940640333803483,-0.3838662353539023,-0.1333452071011784
0.029906903838535327,-0.2674003941054321,-0.15253400330509695
0.03040740433903583,-0.14227769025071965,-0.1690293734033467
0.030907904839536326,0.009578816646151744,-0.18324928476840271
0.03140840534003683,0.16216281512312508,-0.18287017860230184
0.03190890584053732,0.29077267507126436,-0.1791091385470525
0.032409406341037825,0.39776077639782254,-0.16801902062072943
0.03290990684153833,0.459040593311654,-0.1482260641590118
0.03341040734203883,0.47632768198891706,-0.1290695560947696
0.033910907842539334,0.449001307110552,-0.10601432004390336
0.03441140834303982,0.38047954803332384,-0.08478134745956348
0.034911908843540326,0.2715851676944495,-0.0642331254359007
0.03541240934404083,0.13123371830600794,-0.0508386605492228
0.03591290984454133,-0.015384908901926444,-0.03771305855829194
0.03641341034504182,-0.1626826572795992,-0.03833435705352302
0.036913910845542325,-0.2939165641552503,-0.041894960413983724
0.03741441134604283,-0.3932375887552103,-0.05389896492842286
0.03791491184654333,-0.461628220593583,-0.07288078689117813
0.038415412347043834,-0.48484535648983396,-0.09247379302782181
0.03891591284754432,-0.44892051417448425,-0.11884448824299819
0.039416413348044826,-0.3820319774772027,-0.14051951197696133
0.03991691384854533,-0.26594679454703063,-0.16196054334053359
0.04041741434904583,-0.13808228124141034,-0.17958567169375778
0.04091791484954632,0.01470801459860059,-0.18599666023317837
0.041418415350046825,0.15792687694832555,-0.19230132299758274
0.04191891585054733,0.29505169004798976,-0.18483255960247214
0.04241941635104783,0.3903174608605999,-0.17401521848454699
0.042919916851548334,0.46719397135820107,-0.15533191583021905
0.04342041735204882,0.4799277501824936,-0.13571859389619273
0.04392091785254933,0.45258156293126506,-0.11198129991394601
0.04442141835304983,0.38288857835281986,-0.09065153604529044
0.04492191885355033,0.2632880261677755,-0.06912802300505116
0.04542241935405082,0.1287519297931055,-0.05343119441064892
0.045922919854551325,-0.011211070393252007,-0.044639349905909495
0.04642342035505183,-0.16098744426963074,-0.043114759597979994
0.04692392085555233,-0.2981208507275029,-0.046109356754486984
0.047424421356052834,-0.4009072364237211,-0.06135334036529582
0.047924921856553324,-0.46055979066036024,-0.07787575752394924
0.04842542235705383,-0.48227750152523674,-0.09907948499061112
0.04892592285755433,-0.4535699097809937,-0.12186219399060552
0.04942642335805483,-0.38169893671525795,-0.14588960566305598
0.04992692385855532,-0.26834721418351737,-0.1672711348825637
0.050427424359055825,-0.13101983823273894,-0.18276118861739382
0.05092792485955633,0.020295435237606095,-0.19055131593628435
0.05142842536005683,0.1626013955141714,-0.19535824087608603
0.051928925860557335,0.2947394454416799,-0.19094190654683993
0.052429426361057824,0.3984628881706799,-0.1780116848476994
0.05292992686155833,0.4583869698093208,-0.15832056587061916
0.05343042736205883,0.4820962860958918,-0.1390135820266465
0.05393092786255933,0.44927799819961844,-0.11479669329015967
0.054431428363059836,0.37761187044723604,-0.09220566317581665
0.054931928863560325,0.2652831754767266,-0.07277582496934033
0.05543242936406083,0.13012560269784673,-0.054770444501872975
0.05593292986456133,-0.023925625026660482,-0.0485480668208496
0.056433430365061835,-0.1600562878775821,-0.046147875502673456
0.05693393086556234,-0.29652271057200646,-0.05047636225782029
0.05743443136606283,-0.40063095890638406,-0.061567118805615606
0.05793493186656333,-0.45773107432827137,-0.08160345014667596
0.05843543236706383,-0.486135798467585,-0.10394212871505105
0.058935932867564336,-0.45233016882862276,-0.12812561496097957
0.059436433368064825,-0.3702887746429209,-0.14907821710194674
0.05993693386856533,-0.2625349981655767,-0.16856161513217863
0.06043743436906583,-0.12852524330819376,-0.18489696312542755
0.060937934869566335,0.02234058978672546,-0.19435241756550803
0.06143843537006684,0.1704111705831489,-0.19758891085593883
0.06193893587056733,0.2982905530820096,-0.1900105920611557
0.06243943637106783,0.39967150436752225,-0.17752737730729032
0.06293993687156833,0.46416043874841784,-0.16044217636354288
0.06344043737206884,0.4820647406502824,-0.13999176363619
0.06394093787256933,0.4482367198261428,-0.11706084605707044
0.06444143837306983,0.37558000697128846,-0.09295747348838132
0.06494193887357033,0.26217813260318296,-0.07097888389036855
0.06544243937407083,0.12553664664728656,-0.057904579594801366
0.06594293987457134,-0.023635709459095138,-0.04890183231666346
0.06644344037507183,-0.1692983265088486,-0.04642959519794812
0.06694394087557233,-0.30211661838527454,-0.05399466335543808
0.06744444137607283,-0.4036169829763641,-0.06593153616608807
0.06794494187657334,-0.4601446800612359,-0.08155874268861102
0.06844544237707383,-0.47656031854722897,-0.10372164174572843
0.06894594287757433,-0.4464532651992901,-0.12817795755044645
0.06944644337807483,-0.3737227199859665,-0.1501518232653439
0.06994694387857534,-0.2686023864509586,-0.16997766371800618
0.07044744437907584,-0.12449618300056575,-0.1867590268442486
0.07094794487957633,0.021676435550874364,-0.19637811047520137
0.07144844538007683,0.16970572370228598,-0.1974070044355797
0.07194894588057733,0.30885009853292794,-0.1906976727741297
0.07244944638107784,0.40519769724172666,-0.17901448358063748
0.07294994688157833,0.4600233078700851,-0.16341316131722838
0.07345044738207883,0.4759701130766502,-0.14000512699318934
0.07395094788257933,0.44214791907517326,-0.11613881606926059
0.07445144838307984,0.3736581567164318,-0.0940274476256254
0.07495194888358032,0.26424784789257594,-0.07348559030761172
0.07545244938408083,0.12067856535041731,-0.05853369746279435
0.07595294988458133,-0.027769041879986456,-0.04872815139378032
0.07645345038508183,-0.17410318263207059,-0.047070338109141005
0.07695395088558234,-0.30603932925474575,-0.05251926367463237
0.07745445138608283,-0.40757020745293265,-0.06599258148924265
0.07795495188658333,-0.4645434089119769,-0.08361980650276775
0.07845545238708383,-0.47986540379278586,-0.10480881281734339
0.07895595288758434,-0.44549201230761193,-0.12934445655303356
0.07945645338808482,-0.37016082611064904,-0.1525340618406942
0.07995695388858542,-0.25596780509677364,-0.17273608296985274
0.08045745438908583,-0.12553050937593835,-0.187482408537315
0.08095795488958633,0.025245461224677367,-0.19553264868762796
0.08145845539008684,0.17224932486621375,-0.19837478909910636
0.08195895589058733,0.30236608354011824,-0.1899010977713026
0.08245945639108793,0.40422046269809364,-0.1802052493195062
0.08295995689158843,0.4654747764237257,-0.16206273734391255
0.08346045739208884,0.48197015240681595,-0.1406971656906663
0.08396095789258932,0.4396900415946921,-0.11520387606867569
0.08446145839308992,0.368202604623086,-0.0912439695048212
0.08496195889359043,0.2612922719421616,-0.07392299220080523
0.08546245939409093,0.12239889921118859,-0.05914727064394881
0.08596295989459134,-0.027793308358429945,-0.04951086121857795
0.08646346039509183,-0.17181111097120083,-0.04804772157576399
0.08696396089559243,-0.30676142524407785,-0.05404619965362108
0.08746446139609293,-0.4046448966387997,-0.06739809333287991
0.08796496189659343,-0.46593455251843474,-0.08609217775321681
0.08846546239709382,-0.4837791417216831,-0.10763256680810493
0.08896596289759442,-0.4465866553574833,-0.12869822633896202
0.08946646339809493,-0.37156535030845217,-0.15459363527081366
0.08996696389859543,-0.25800197697796456,-0.17257023717888834
0.09046746439909593,-0.12028866606438637,-0.1852835838510483
0.09096796489959633,0.034069053287796296,-0.19583557300443472
0.09146846540009693,0.17509191927508172,-0.19862671847036495
0.09196896590059743,0.3065480570060223,-0.19165030588007848
0.09246946640109793,0.4056466788101856,-0.18260128232960662
0.09296996690159844,0.4621900639991261,-0.1608007011747384
0.09347046740209893,0.4757539816133877,-0.1381104283569373
0.09397096790259943,0.44366769882780843,-0.11489694770561298
0.09447146840309993,0.3669079480972003,-0.09397281478989579
0.09497196890360043,0.2572417245712017,-0.07324478343350026
0.09547246940410094,0.12085220177598069,-0.05858417834252456
0.09597296990460143,-0.028587829778395076,-0.04938543304738312
0.09647347040510193,-0.1723214705297039,-0.04990217614346683
0.09697397090560243,-0.30489914712743266,-0.05502365483633473
0.09747447140610294,-0.40344371637713733,-0.0677671439638657
0.09797497190660343,-0.46524230764893687,-0.08453309265449029
0.09847547240710393,-0.4808917990530744,-0.10746023557231967
0.09897597290760443,-0.4492398705967082,-0.12961094883080226
0.09947647340810493,-0.37328185392821095,-0.15143970802472717
0.09997697390860544,-0.2528560587093782,-0.17310286826200638
0.10047747440910593,-0.11782408012015276,-0.18632794759403223
0.10097797490960643,0.03458682995980838,-0.19671989837578865
0.10147847541010693,0.17742042347348236,-0.19714103660358784
0.10197897591060744,0.3104886161343918,-0.18937575941234394
0.10247947641110793,0.40862117363044753,-0.18254017321958935
0.10297997691160843,0.47186843834211856,-0.1611246114073231
0.10348047741210893,0.48060147893127264,-0.13660280615791837
0.10398097791260943,0.4436943363505426,-0.11864276090662661
0.10448147841310994,0.36982661260790634,-0.09120347900261326
0.10498197891361043,0.25334042584259,-0.07411246869697179
0.10548247941411093,0.11157705555776547,-0.05891573248143894
0.10598297991461143,-0.03258649869155326,-0.0466012178763053
0.10648348041511194,-0.1795946109841883,-0.05005819713231968
0.10698398091561243,-0.31225279815327855,-0.05449677791234125
0.10748448141611293,-0.4049548004035194,-0.067258244565313
0.10798498191661343,-0.46638765243085833,-0.08518691188119436
0.10848548241711393,-0.4795004774140671,-0.10635744495012181
0.10898598291761444,-0.44754608182532096,-0.13130293998086412
0.10948648341811493,-0.36813784984091774,-0.15250726429516992
0.10998698391861543,-0.24745329578215336,-0.17472527953031536
0.11048748441911593,-0.11732822508887336,-0.18622751716417354
0.11098798491961644,0.03524610992693974,-0.19672823775007553
0.11148848542011693,0.17928955388794665,-0.19496207270598648
0.11198898592061743,0.3112227998807188,-0.19148569510969043
0.11248948642111793,0.40704962257437954,-0.17765534825303828
0.11298998692161843,0.4632514699540648,-0.16202897612267456
0.11349048742211894,0.48124652450855987,-0.13905839555184868
0.11399098792261943,0.4402102292339623,-0.11416327252301951
0.11449148842311993,0.3620505965610194,-0.09312209872547535
0.11499198892362043,0.25371635778292434,-0.07367677781122804
0.11549248942412094,0.11140353026010467,-0.059113135003159824
0.11599298992462144,-0.039445743895782,-0.04851524396457946
0.11649349042512193,-0.1853727475079534,-0.04789287021201308
0.11699399092562242,-0.3047959009838529,-0.0548848757292251
0.11749449142612294,-0.411670201994283,-0.0679176780034114
0.11799499192662342,-0.46401728732132336,-0.08535224235640634
0.11849549242712394,-0.47727586538301625,-0.10831444600450457
0.11899599292762443,-0.44285360637432336,-0.13059836580665668
0.11949649342812492,-0.36450217375525557,-0.15228827778016468
0.11999699392862544,-0.2545001098888293,-0.17354934981940942
0.12049749442912593,-0.11408981086435392,-0.1870843615573266
0.12099799492962644,0.03993493662235965,-0.1972895264170171
0.12149849543012693,0.18698013437189445,-0.1970345513215202
0.12199899593062742,0.3127533264917105,-0.1904996616756748
0.12249949643112794,0.40913573473932097,-0.17965526907121485
0.12299999693162843,0.4642987819929046,-0.15839184106266335
0.12350049743212894,0.47927463912342794,-0.139363010727201
0.12400099793262943,0.4386490005562699,-0.11315486628675166
0.12450149843312992,0.358054969820101,-0.09274785784452308
0.12500199893363043,0.24676100008967405,-0.0717478908342301
0.12550249943413092,0.10774664954568738,-0.05635723684965777
0.1260029999346314,-0.04425603830336399,-0.049215045062996406
0.12650350043513192,-0.1891678675119763,-0.04866124851321963
0.1270040009356324,-0.3110124773052186,-0.05229838693082871
0.12750450143613293,-0.40976516738406354,-0.06674803452247412
0.12800500193663342,-0.46223466484288017,-0.08943196231059149
0.1285055024371339,-0.4838183156097985,-0.10900554722774047
0.12900600293763442,-0.43962014987156206,-0.13302164629551738
0.1295065034381349,-0.3613511975260891,-0.15527530245041038
0.13000700393863543,-0.24383132174810782,-0.17440620144524963
0.13050750443913592,-0.10889123073058068,-0.18940036264861612
0.1310080049396364,0.04207378094639678,-0.19661322805745313
0.13150850544013692,0.18564849901936717,-0.1994630639744842
0.13200900594063741,0.3114833814335521,-0.19089322537692657
0.13250950644113793,0.41063737395137334,-0.1795490089142017
0.13301000694163842,0.464728779754012,-0.16087886485677738
0.1335105074421389,0.4777888450764925,-0.13775079526525197
0.13401100794263943,0.4419894728364305,-0.11548548343362856
0.13451150844313992,0.35989822913384323,-0.09327588201924185
0.1350120089436404,0.24695793013842315,-0.07479753651426735
0.13551250944414092,0.10396010642088883,-0.057823176812394614
0.1360130099446414,-0.040266259636810985,-0.04889407608611861
0.13651351044514193,-0.18811752639978563,-0.0478858643381266
0.13701401094564242,-0.31602947540780235,-0.05267459222940435
0.1375145114461429,-0.4162461202043926,-0.06818894943200814
0.13801501194664342,-0.4676247164723223,-0.08675099062293183
0.1385155124471439,-0.4779871558102105,-0.10951000160088334
0.13901601294764443,-0.4366468331726388,-0.13305702051619217
0.13951651344814492,-0.35938461038578423,-0.1537015567119359
0.1400170139486454,-0.2501688177736974,-0.17105408529131555
0.14051751444914592,-0.10009247643192348,-0.18724081757274683
0.14101801494964641,0.04306853724780979,-0.19650383792740855
0.14151851545014693,0.18948001425717823,-0.1969095454443574
0.14201901595064742,0.31722294400625345,-0.19178415747508235
0.1425195164511479,0.41028909809935354,-0.17779944082564772
0.14302001695164843,0.4671115970483781,-0.16038827967101282
0.14352051745214892,0.481481422137968,-0.13809248144652467
0.1440210179526494,0.4372860726060677,-0.11325478185453747
0.14452151845314992,0.35992671670355275,-0.09075039353027556
0.1450220189536504,0.2380731063006157,-0.0696220318623191
0.14552251945415093,0.10342886878397715,-0.05692181565660554
0.14602301995465142,-0.04492043343453732,-0.04806584455564091
0.1465235204551519,-0.195075064021494,-0.04883345686915881
0.14702402095565242,-0.31683885513778254,-0.056020472144952524
0.1475245214561529,-0.41713223986801196,-0.06778715394136627
0.14802502195665343,-0.4688984741569978,-0.0872816394919934
0.14852552245715392,-0.47955988449405246,-0.10818679831732576
0.1490260229576544,-0.4408320983013023,-0.13302449852937925
0.14952652345815493,-0.3563031819065133,-0.15612011009255186
0.15002702395865541,-0.24205884196527616,-0.17558962512287762
0.1505275244591559,-0.10686509516217615,-0.1880053224651168
0.15102802495965642,0.04075378983809977,-0.1970757131166094
