Time,Vin,Vout
0.004577685462358667,-0.0027752904366753228,-3.780228186440143e-07
0.005078185962859166,0.15293750854274127,0.002118311532372217
0.005578686463359667,0.2944962224596615,0.0021293106221427186
0.0060791869638601665,0.4083103763809615,0.0020982350293807777
0.006579687464360667,0.477178754739805,0.0021417311229980206
0.007080187964861167,0.5045131953181784,0.0021099313437732
0.007580688465361666,0.47801025003839404,0.0020789133390224385
0.008081188965862168,0.40922845754340476,0.0020520583424004767
0.008581689466362667,0.29066506859787145,0.0020787367962882813
0.009082189966863167,0.15220342273443055,0.0021387893136088987
0.009582690467363666,-0.005636794969744857,0.002123456332237271
0.010083190967864166,-0.15918391039351418,0.0020943135837750856
0.010583691468364666,-0.29954897008427883,0.0021119677047732733
0.011084191968865167,-0.40859378043429545,0.002107625286506211
0.011584692469365667,-0.48530232872178447,0.0020739625624313926
0.012085192969866166,-0.5050664784517395,0.0020926287778945986
0.012585693470366666,-0.47756583477579106,0.00209657257659926
0.013086193970867167,-0.40995923631510495,0.0020671963735979996
0.013586694471367667,-0.2975111373448301,0.0021053283330213254
0.014087194971868167,-0.15512808124865218,0.002115019608148562
0.014587695472368666,-0.0013736908770661889,0.002115117951053753
0.015088195972869166,0.15650277832150936,0.0020920874340511803
0.015588696473369667,0.3027103617722158,0.002101131001707901
0.016089196973870165,0.4095869273493044,0.002057912502070717
0.016589697474370668,0.4819170410315503,0.002058241012223229
0.017090197974871164,0.50671897570232,0.0020986751656236423
0.017590698475371667,0.483973706006731,0.002130530370571798
0.018091198975872167,0.40722606068108913,0.00207642469037696
0.018591699476372667,0.29223781300522667,0.0020383958065546015
0.019092199976873166,0.14986239217464692,0.002106795362796146
0.019592700477373666,-0.008325323315626815,0.002122550167962255
0.02009320097787417,-0.15898176786663626,0.0020990996869645084
0.020593701478374665,-0.3085996536189887,0.0021113847695225178
0.02109420197887517,-0.41546893372025323,0.002119388098185238
0.021594702479375668,-0.4839366286927335,0.0021259564240845813
0.022095202979876168,-0.5021448473481814,0.0020988361567361425
0.022595703480376667,-0.47787210663071433,0.002066647075936801
0.023096203980877167,-0.4048281682402679,0.0021036238160110697
0.023596704481377666,-0.2939365583538789,0.0021168992000292273
0.024097204981878166,-0.15441108345258947,0.002039694471625166
0.024597705482378666,0.0038757765888038503,0.002125310793901335
0.025098205982879165,0.15617884667099688,0.0020728602275026627
0.025598706483379665,0.3039715924183299,0.002103348788205573
0.026099206983880168,0.4156405105745794,0.002083384576883277
0.026599707484380668,0.48167178644612535,0.0021314598951852055
0.027100207984881167,0.5000371160496149,0.002096389912815856
0.027600708485381667,0.4716207212593454,0.002098760396560812
0.028101208985882167,0.4007028031062045,0.002131132976436315
0.028601709486382666,0.2912042377970165,0.00207750816393511
0.029102209986883166,0.14421645658081628,0.002101170030681825
0.029602710487383666,-0.004074742403402326,0.0021176371752018542
0.030103210987884165,-0.16023638970917295,0.002078309565491891
0.030603711488384668,-0.3055593929033038,0.002115564158449563
0.031104211988885168,-0.4078359687564768,0.0021145713162462466
0.031604712489385664,-0.48569570892328273,0.0020982756955497707
0.03210521298988617,-0.5065144430761171,0.002107624598410739
0.03260571349038667,-0.47675698034347264,0.002095744716765485
0.033106213990887166,-0.406160127692949,0.002105710093767258
0.03360671449138766,-0.28280684253238936,0.0020991951814942527
0.034107214991888166,-0.15159689147283362,0.0021071370429997798
0.03460771549238867,0.0013776741895603377,0.0020948999693958196
0.03510821599288917,0.16852010605643575,0.002130441788220466
0.03560871649338967,0.3068140999932229,0.0021313655702986257
0.036109216993890164,0.41431154682346943,0.0021345013153978775
0.03660971749439067,0.4869486706392083,0.0020822599394200725
0.03711021799489117,0.5089733482486589,0.0020941131181048895
0.03761071849539167,0.4768917971219076,0.002117500715818146
0.03811121899589216,0.3976052133301407,0.002081217723082768
0.038611719496392666,0.29266915371130714,0.0021116769810609042
0.03911221999689317,0.14652847309019723,0.002104159860011088
0.03961272049739367,-0.013795817732106102,0.0021395281484235078
0.04011322099789416,-0.16298017721445943,0.002145863700830745
0.040613721498394664,-0.3069131745405802,0.002102879860271439
0.04111422199889517,-0.4147492699069174,0.002114787904341042
0.04161472249939567,-0.48198657647789944,0.0020932470246109005
0.042115222999896174,-0.5056196863779879,0.0021156904535595857
0.04261572350039666,-0.4796524892946452,0.002059411226767817
0.043116224000897166,-0.40139568353666494,0.0020877680633447702
0.04361672450139767,-0.287547266168093,0.0021153689077282665
0.04411722500189817,-0.14483793850666424,0.002116658940066632
0.04461772550239866,0.011890867767519275,0.0021135762834569955
0.045118226002899164,0.17128704374753811,0.0020611461303187573
0.04561872650339967,0.3100356884359324,0.0021286943447729693
0.04611922700390017,0.41494538021309263,0.0020921123866166364
0.04661972750440066,0.4788305844911457,0.0021167523060275856
0.04712022800490116,0.5103502480845926,0.0021228527491655947
0.047620728505401666,0.4749826534672065,0.0020729731327489066
0.04812122900590217,0.4044804899896881,0.002112879987244347
0.04862172950640267,0.2838639189828735,0.0021057531822285275
0.04912223000690316,0.14275510034615232,0.0020802728777611005
0.049622730507403665,-0.01376291828601849,0.0020928742344043733
0.05012323100790417,-0.16745297230948544,0.0021204742435954756
0.05062373150840467,-0.31036722844389786,0.002097535411152838
0.05112423200890516,-0.4159196018265533,0.0021108714874712737
0.05162473250940566,-0.47747701917129026,0.0021172654591111863
0.052125233009906166,-0.5076622349572096,0.0021253812588722097
0.05262573351040667,-0.47551629265319967,0.0020761808542919483
0.05312623401090717,-0.39397844202020366,0.0021023412731636017
0.05362673451140766,-0.28220898143093903,0.0021191731340387604
0.054127235011908165,-0.1470355387330518,0.0021079931969162176
0.05462773551240867,0.01811286056408978,0.002069661317952863
0.05512823601290917,0.1768917070773914,0.0021181554238116377
0.05562873651340966,0.3089715222359608,0.002092237579850886
0.05612923701391016,0.4154909685433882,0.002093012181859934
0.056629737514410666,0.4844356465027363,0.002115542188349943
0.05713023801491117,0.509259277511233,0.002084160583623104
0.05763073851541167,0.4707808606718035,0.00209484470530498
0.05813123901591216,0.40051753806886853,0.002083742302266979
0.058631739516412665,0.2868936651500785,0.002104806991474528
0.05913224001691317,0.14116903642785,0.0020682065969251737
0.05963274051741367,-0.014763761684505156,0.002112503695434806
0.06013324101791416,-0.17101233901901874,0.0020816828491421226
0.06063374151841466,-0.313388506354311,0.0021088272660007546
0.061134242018915166,-0.4226464234148545,0.002062459436317773
0.06163474251941567,-0.48415598101261714,0.0020765299164508606
0.06213524301991617,-0.5129131980770619,0.002127708900681723
0.06263574352041666,-0.4714759717131269,0.0020964299317174956
0.06313624402091716,-0.3963237092034306,0.0021214855783845696
0.06363674452141767,-0.278167024711458,0.002105554767980299
0.06413724502191817,-0.1400787948833907,0.002071878330550523
0.06463774552241866,0.012929630915779651,0.002103219320921963
0.06513824602291916,0.17322307433266856,0.0020929384925806563
0.06563874652341967,0.3101038261709589,0.0020968226508534717
0.06613924702392017,0.42320677482784014,0.002092802473110487
0.06663974752442067,0.47911603239551487,0.0020731081279070475
0.06714024802492116,0.5028441488500833,0.0020713088994540854
0.06764074852542167,0.4639665915303541,0.002077844176441139
0.06814124902592217,0.3969091990660576,0.002120763864940561
0.06864174952642266,0.2777394731555609,0.002084651001236388
0.06914225002692316,0.13610558140776988,0.002080819827732684
0.06964275052742366,-0.019100815616276398,0.002086258303301069
0.07014325102792417,-0.16835174421400523,0.002122453967883848
0.07064375152842467,-0.32013092340956484,0.0021270500907051627
0.07114425202892516,-0.4228291093722531,0.0021084182268053244
0.07164475252942566,-0.48448007585656383,0.002110084692576177
0.07214525302992617,-0.5029526848639678,0.0020721778401771767
0.07264575353042667,-0.4714523838230663,0.0021029442810654463
0.07314625403092716,-0.39605958002719477,0.002105167282422234
0.07364675453142766,-0.27498660907671274,0.00208012324534221
0.07414725503192816,-0.13661335965210417,0.002104607332844662
0.07464775553242867,0.012486229987730694,0.00211104321271002
0.07514825603292917,0.17101749469629415,0.0021159010533606214
0.07564875653342966,0.31572084783554405,0.0020936356780451816
0.07614925703393016,0.4200704540550809,0.002127761507584738
0.07664975753443067,0.4877794146570478,0.0020773840060605655
0.07715025803493117,0.5112620223990185,0.002095580153532064
0.07765075853543166,0.4703342609378362,0.0021043386874694315
0.07815125903593216,0.3957600718697099,0.002130952084642715
0.07865175953643266,0.2754591057286816,0.0020960097855460933
0.07915226003693317,0.13589691404919943,0.002132628377175865
0.07965276053743367,-0.0271323905950088,0.0020709103154499127
0.08015326103793416,-0.1818333444948819,0.002110128268935003
0.08065376153843466,-0.3151985680724976,0.0021408740598705153
0.08115426203893517,-0.4223307289573624,0.0020916014390309078
0.08165476253943567,-0.49224347910807026,0.002081550815548415
0.08215526303993616,-0.5086123062997401,0.002072000529666716
0.08265576354043666,-0.47271751919393284,0.0020932619729327954
0.08315626404093716,-0.3931244326193121,0.002120571434176745
0.08365676454143767,-0.276505232333726,0.002128615847687411
0.08415726504193817,-0.1374509558195881,0.0020768869890104456
0.08465776554243866,0.02681814138671481,0.002121909256121133
0.08515826604293916,0.1822361580379393,0.0020981405460763765
0.08565876654343967,0.31517706152761726,0.002110778404336921
0.08615926704394017,0.4237329802437343,0.00211306791857354
0.08665976754444066,0.4818211201301012,0.0020895365286322603
0.08716026804494116,0.5069341508568297,0.002111709652162795
0.08766076854544166,0.4758379392054792,0.0020728243218680084
0.08816126904594217,0.39611168074600694,0.0020995713143004066
0.08866176954644266,0.2718746847084785,0.002092727254773749
0.08916227004694316,0.1309054858634676,0.0020907495361586386
0.08966277054744366,-0.027408199043249277,0.0021167115804811487
0.09016327104794417,-0.18397152220824536,0.0021224147715132764
0.09066377154844467,-0.3210615090958962,0.0020306585168175344
0.09116427204894516,-0.4276831652676458,0.00210035055943868
0.09166477254944566,-0.48669198357444954,0.0020750142824763843
0.09216527304994616,-0.5016232758258916,0.0021400274284155466
0.09266577355044667,-0.46293773664568644,0.0020936670419097014
0.09316627405094716,-0.387321530978534,0.002113811891256566
0.09366677455144776,-0.27125980337518246,0.0020919450343578716
0.09416727505194816,-0.13159219399736488,0.0020801324185628248
0.09466777555244867,0.02799950195447941,0.002101622682430141
0.09516827605294917,0.1829391297946652,0.0020937701765141744
0.09566877655344966,0.32504478417324384,0.0020809371095178632
0.09616927705395026,0.4268575555893591,0.0021234764341770663
0.09666977755445076,0.4885771002012925,0.0020789169653346825
0.09717027805495117,0.5047544742966609,0.0020790688751571138
0.09767077855545166,0.46763230787917404,0.002098951604659886
0.09817127905595226,0.3858104554769631,0.0021188816950892023
0.09867177955645276,0.27227113526795804,0.002119848427091324
0.09917228005695326,0.12479303511539232,0.0021139541191139014
0.09967278055745367,-0.036418973950826106,0.0020882774789722502
0.10017328105795416,-0.18811268521166738,0.00211656581080914
0.10067378155845476,-0.32162512597364706,0.002090708264039085
0.10117428205895526,-0.42556259439953653,0.002099234885392779
0.10167478255945576,-0.48789171816401977,0.0020643431119506954
0.10217528305995616,-0.5071384846000229,0.002092599233353703
0.10267578356045676,-0.4721906313460134,0.002126313756273627
0.10317628406095726,-0.39309269325279045,0.0020722713387486967
0.10367678456145776,-0.2590903043238025,0.002071671700069908
0.10417728506195827,-0.12700202525788493,0.0021076400633688102
0.10467778556245866,0.032004986682928754,0.0020984606816823463
0.10517828606295926,0.1802143880277764,0.0020595850736712436
0.10567878656345976,0.32302065010766706,0.0021109915882855236
0.10617928706396026,0.4291125347341507,0.0020849452619291797
0.10667978756446077,0.48652313391796015,0.002048336349080019
0.10718028806496126,0.5024827774928446,0.002041027062988711
0.10768078856546176,0.4668608932355995,0.002090379874258837
0.10818128906596226,0.38828832305968985,0.0020639793973718013
0.10868178956646277,0.27633615015474916,0.0021465880165691263
0.10918229006696327,0.12088450280311921,0.002115910885701463
0.10968279056746376,-0.028611040933020034,0.002095628784022601
0.11018329106796426,-0.18464052497790137,0.002078172528680105
0.11068379156846476,-0.32548739452664166,0.0020853448350583556
0.11118429206896527,-0.4278367973314473,0.002058540073492859
0.11168479256946576,-0.49144691661419143,0.002108248042473753
0.11218529306996626,-0.5012566915553385,0.0021181260921712864
0.11268579357046676,-0.4683218927307361,0.0021232894744566615
0.11318629407096727,-0.3819538475219776,0.0021222537246699718
0.11368679457146777,-0.26468490895423064,0.00208582458224863
0.11418729507196826,-0.12273066063204799,0.0020930001953202108
0.11468779557246876,0.03307061648656057,0.0021119897281507813
0.11518829607296927,0.18396135190178164,0.00210389946376961
0.11568879657346977,0.32380330318752526,0.0021395282700210233
0.11618929707397026,0.4314053586528874,0.002081648763674533
0.11668979757447076,0.4835611676452641,0.0020929638624639845
0.11719029807497126,0.5059772469676521,0.0021043598316870136
0.11769079857547177,0.4663629283615401,0.0021099756204771276
0.11819129907597227,0.3880518962597072,0.0020918949022945364
0.11869179957647276,0.26437477430939665,0.002074591433140698
0.11919230007697326,0.1188316860388095,0.0020834122279213534
0.11969280057747377,-0.03765618048810574,0.0020804857864599453
0.12019330107797427,-0.19017470535416997,0.0020658792927496267
0.12069380157847476,-0.32381195932097356,0.0020773197410584587
0.12119430207897526,-0.4276473269716925,0.0021082266232455814
0.12169480257947576,-0.4937133351038128,0.0021105268161956715
0.12219530307997627,-0.5036194858288328,0.0020990139117717534
0.12269580358047677,-0.46249257903486457,0.0020832616776321313
0.12319630408097726,-0.37965317037007246,0.0020539732626514494
0.12369680458147776,-0.26365652095016157,0.002122396077982787
0.12419730508197827,-0.11054412031093666,0.002114934103398377
0.12469780558247877,0.03870125647358744,0.0021140176459751377
0.12519830608297927,0.19173365025224587,0.00212751937034178
0.12569880658347976,0.32615204392816155,0.002101607125667998
0.12619930708398028,0.4281627643700571,0.002099442087669257
0.12669980758448077,0.49086297116589483,0.002120754228699611
0.12720030808498128,0.5107714219297126,0.002124822331098891
0.12770080858548177,0.4676261655255613,0.002131353920897608
0.12820130908598226,0.3919927305652018,0.0020878332595562726
0.12870180958648278,0.26727744072627413,0.002080996453542004
0.12920231008698327,0.1144708566130685,0.0020927124739674305
0.12970281058748379,-0.04729659387746182,0.0021153360252418115
0.13020331108798427,-0.19005599160174624,0.0021271324959825
0.13070381158848476,-0.3331213307853496,0.0020843012375443798
0.13120431208898528,-0.42944066144729387,0.0021183226998971127
0.13170481258948577,-0.488599163240923,0.002079121729260614
0.1322053130899863,-0.5047007844876826,0.0020442158011514007
0.13270581359048678,-0.46211329120984196,0.002113786264607199
0.13320631409098727,-0.38592905038159325,0.0020824724358897884
0.13370681459148778,-0.26045503666755115,0.0020711502101132774
0.13420731509198827,-0.11397875410530027,0.0021436288162153734
0.1347078155924888,0.042910014957899686,0.002093072149565024
0.13520831609298928,0.1942390199342156,0.00209791898274284
0.13570881659348977,0.33191888321846696,0.0020777285304232618
0.13620931709399028,0.43399798352160757,0.0020956621160066404
0.13670981759449077,0.4890791639001582,0.002092601713394737
0.1372103180949913,0.5105327636229633,0.0020803326961058004
0.13771081859549178,0.4661911553592924,0.002085853442157914
0.13821131909599227,0.3793865036775176,0.0020544747533846335
0.13871181959649279,0.26345568820064524,0.0020413591893892534
0.13921232009699328,0.10494348590621771,0.002115697554427347
0.13971282059749376,-0.05017269788333364,0.0021036998683533962
0.14021332109799428,-0.1946893217054851,0.0020775961968679765
0.14071382159849477,-0.3317736758776043,0.002117408359835566
0.1412143220989953,-0.4338156131212122,0.0021180706983256123
0.14171482259949578,-0.49129459158425837,0.0020750857925747063
0.14221532309999627,-0.5007377974524374,0.0021065510347368127
0.14271582360049678,-0.4661102671214837,0.002094932672558304
0.14321632410099727,-0.3829560767975294,0.0020894939586540437
0.1437168246014978,-0.26060775853375956,0.0021175322571963047
0.14421732510199828,-0.11139212373208789,0.002131472878251546
0.14471782560249877,0.04854960312166483,0.0020809770052919833
0.14521832610299928,0.19726561786195954,0.0020899231559289937
0.14571882660349977,0.3304624237415266,0.002113449457146973
0.1462193271040003,0.43469958626183136,0.0021041706568192117
0.14671982760450078,0.4904162056601907,0.002085659613825521
0.14722032810500127,0.501786822028794,0.002133530306759598
0.14772082860550179,0.4629339891727245,0.0021014288315867134
0.14822132910600228,0.37992994095260635,0.002088555283770208
0.14872182960650276,0.2603671009324875,0.002101056320729695
0.14922233010700328,0.11057936732310143,0.0020882962264091153
0.14972283060750377,-0.05022975011339237,0.0020828346782703695
0.1502233311080043,-0.19709907917590655,0.0020896531656269314
0.15072383160850478,-0.3346419832102686,0.002081732300300208
0.15122433210900527,-0.42902500886556155,0.0020721650494330804
0.15172483260950578,-0.488210276592949,0.002062041589078741
0.15222533311000627,-0.501700593259036,0.0020869446590915325
0.1527258336105068,-0.46243388968026977,0.0021040293998620457
0.15322633411100728,-0.37980727301838535,0.00203166582595364
0.15372683461150777,-0.2576003724725365,0.0020953326903487366
0.15422733511200828,-0.10791820347149747,0.002111155650529605
0.15472783561250877,0.04992636811459993,0.002092802856939089
0.1552283361130093,0.19986312930310757,0.002116638097771472
0.15572883661350978,0.3295440605667347,0.0021117311419677084
0.15622933711401027,0.43132902336449064,0.00212743795835421
0.1567298376145108,0.4981424028067689,0.0021050693343587657
0.15723033811501128,0.5013236875265785,0.0020774764741681054
0.15773083861551176,0.4669433202274318,0.002097849744460014
0.15823133911601228,0.3730462055682548,0.0021037293302246293
0.15873183961651277,0.2559931424767758,0.002110576088104969
0.1592323401170133,0.10870784270761362,0.0021253488599810373
0.15973284061751378,-0.04646642693422387,0.0021100776725116875
0.16023334111801427,-0.20244177320485782,0.002113948211239626
0.16073384161851478,-0.3361405179090998,0.0020949380815661906
0.16123434211901527,-0.4323294126029916,0.0020687543667316133
0.1617348426195158,-0.4933702060583156,0.0021095906970553325
0.16223534312001628,-0.5078298801674938,0.002093815765004098
0.16273584362051677,-0.4656283587133557,0.002092719047312266
0.16323634412101728,-0.37595759616195906,0.002083524946397773
