Time,Vin,Vout
-0.0019012702424915304,-0.00558947802841999,-0.016767844714041958
-0.0014007697419910303,0.15110142984941188,-0.0036098550709602758
-0.0009002692414905305,0.29208396288717925,-0.00023268267458541138
-0.0003997687409900304,0.3974205098229423,0.002906916963844756
0.00010073175951046945,0.47241400512809845,0.008862975201105293
0.0006012322600109695,0.49924664015730513,0.008095955695749842
0.0011017327605114696,0.4730259199692103,-0.00030597199490197264
0.0016022332610119696,0.40126163395637493,-0.006520127697749723
0.0021027337615124693,0.2904154517656962,-0.003799859062201705
0.0026032342620129698,0.15155792794876138,0.005263646005406662
0.0031037347625134694,-0.002350630863206594,-0.00349548261243579
0.00360423526301397,-0.14968062051911563,-0.0024787585010385632
0.0041047357635144695,-0.29539973729110114,-0.004557844105780056
0.00460523626401497,-0.40270438069947667,-0.016781931425292003
0.00510573676451547,-0.472340112251794,-0.02190677134175295
0.005606237265015969,-0.49672922503042694,-0.018256519854800327
0.006106737765516469,-0.4712307324254842,-0.023400677074420673
0.00660723826601697,-0.3980108726185997,-0.05150248668238773
0.00710773876651747,-0.2887493294714381,-0.052289648052625703
0.0076082392670179695,-0.15548719867262176,-0.06248899981175531
0.00810873976751847,-0.0010561562003927705,-0.06173714993244512
0.008609240268018969,0.15384783920041517,-0.07053279088229597
0.00910974076851947,0.2936019999588173,-0.07513507447153614
0.00961024126901997,0.40477890364974806,-0.0801611158209979
0.01011074176952047,0.47520754623053696,-0.06690717317747935
0.010611242270020969,0.498974813202021,-0.07616878728987289
0.01111174277052147,0.4733588243606539,-0.07383188378415503
0.01161224327102197,0.4014746295322718,-0.06376150821205659
0.01211274377152247,0.2898418458694035,-0.06981664378861398
0.01261324427202297,0.14989138007348987,-0.07390107692977117
0.013113744772523469,0.00149107548257877,-0.07298275332078887
0.01361424527302397,-0.1564872145610225,-0.0746965969852382
0.014114745773524468,-0.2964882667382722,-0.08638493932144085
0.014615246274024971,-0.4024221045377094,-0.08006707084391607
0.015115746774525471,-0.474148089881205,-0.09643249767254372
0.01561624727502597,-0.494527389641226,-0.09990256499364925
0.01611674777552647,-0.4678466967544354,-0.09803793929226068
0.01661724827602697,-0.3958907729752773,-0.12101580570061184
0.01711774877652747,-0.28652377616084695,-0.1380398889994981
0.01761824927702797,-0.14289809017387584,-0.13341689496904277
0.01811874977752847,0.007985739778408737,-0.13108587058788346
0.01861925027802897,0.16253932220726114,-0.13686971306360915
0.019119750778529468,0.29812189705001785,-0.14574392714946932
0.01962025127902997,0.40551648093098547,-0.15038536147349021
0.02012075177953047,0.47798430412735965,-0.14266045236797592
0.02062125228003097,0.4991155429414924,-0.14715310306644852
0.02112175278053147,0.4742019091945699,-0.14160090652916002
0.02162225328103197,0.39738494092456744,-0.13951646703946888
0.02212275378153247,0.28498481111303436,-0.14002170260079352
0.02262325428203297,0.14551807678000755,-0.14164492586266042
0.02312375478253347,-0.009292298829650332,-0.13919123421720314
0.023624255283033968,-0.1557487327974999,-0.1462419894430532
0.02412475578353447,-0.30026483891705297,-0.1436490641072419
0.02462525628403497,-0.4045597083798386,-0.14775770474904149
0.02512575678453547,-0.47854823737940955,-0.1610930806735864
0.02562625728503597,-0.5010469857918344,-0.1625351604499912
0.02612675778553647,-0.4703997676489373,-0.17555798526587965
0.02662725828603697,-0.3967600828760326,-0.18625924590326992
0.02712775878653747,-0.28535731177948087,-0.1929221978925016
0.02762825928703797,-0.1414746112602408,-0.1905811945301228
0.028128759787538468,0.006661243837153849,-0.1996891717416273
0.02862926028803897,0.16604805904155223,-0.20758287634611988
0.02912976078853947,0.302513241375803,-0.2026981527474636
0.02963026128903997,0.40994859292531766,-0.20470691288209053
0.030130761789540467,0.47190612744717075,-0.20819355190368855
0.03063126229004097,0.4937981909098948,-0.21087289683712715
0.031131762790541473,0.4644788105525102,-0.20523911879971046
0.03163226329104197,0.39561905000610503,-0.2012878950908749
0.03213276379154247,0.283547270297233,-0.2048668317865601
0.03263326429204297,0.14198285664478116,-0.20786003598173747
0.03313376479254347,-0.010448879438735232,-0.1942367914454361
0.03363426529304397,-0.1636628440004075,-0.19924973956926484
0.03413476579354447,-0.30112167310526233,-0.20331305697739274
0.03463526629404497,-0.4082103017302646,-0.20822524459684952
0.03513576679454547,-0.4787059159311765,-0.21630391841973673
0.03563626729504597,-0.4947903409982033,-0.2332584848777708
0.03613676779554647,-0.4618027983774661,-0.23062361980738677
0.03663726829604697,-0.39551427043508275,-0.2321956804841518
0.03713776879654747,-0.28048891289438493,-0.24093658717651067
0.03763826929704797,-0.13769832807172147,-0.2511811090511815
0.03813876979754847,0.01636018234935714,-0.2510559155990883
0.03863927029804897,0.16788152320235342,-0.26977548015518804
0.03913977079854947,0.30429213767140006,-0.2558103042363294
0.03964027129904997,0.4067282159497687,-0.25612639668156884
0.040140771799550466,0.4789927499024868,-0.261639308066612
0.04064127230005097,0.4968697381022321,-0.252965511983993
0.04114177280055147,0.4680526169131285,-0.2551700131864942
0.04164227330105197,0.3943977885396756,-0.25528160296288793
0.04214277380155247,0.2791741041216209,-0.24816942210067713
0.04264327430205297,0.14221134383874579,-0.2530523264389182
0.04314377480255347,-0.014674674137051586,-0.25102527673911634
0.04364427530305397,-0.1666807865852335,-0.24856263498659423
0.04414477580355447,-0.3033709535782269,-0.2543434708759926
0.044645276304054966,-0.40983199741668364,-0.2607937524438243
0.04514577680455547,-0.48085607766902894,-0.26643715472631113
0.04564627730505597,-0.494172959861389,-0.2537587770132831
0.04614677780555647,-0.46502694042528975,-0.2697658608111787
0.04664727830605697,-0.3928634563162327,-0.292967135210664
0.04714777880655747,-0.27725905629526604,-0.2903964029495024
0.04764827930705797,-0.1428699383066912,-0.2885171931955283
0.04814877980755847,0.011951237109819868,-0.3096235855051454
0.04864928030805897,0.16477849468687308,-0.30844920712617885
0.049149780808559466,0.3058291323548756,-0.30176958279734417
0.04965028130905997,0.40842026251880786,-0.3051195319861973
0.05015078180956047,0.47835656155964973,-0.3054471358448403
0.05065128231006097,0.49556070376031436,-0.30219153211521077
0.05115178281056147,0.46590479595734047,-0.3013645119928774
0.05165228331106197,0.3879736226541367,-0.2917797229052799
0.05215278381156247,0.27401943588452926,-0.29204086297167
0.05265328431206297,0.13514602246081775,-0.2928992848504489
0.05315378481256347,-0.01791517545230476,-0.2968310143699295
0.05365428531306397,-0.17401850176615563,-0.30175440995996666
0.05415478581356447,-0.3085861907658141,-0.2979464169403346
0.05465528631406497,-0.40908125128247624,-0.31068837923629045
0.05515578681456547,-0.474609533927671,-0.3143938708408241
0.05565628731506597,-0.49948281526210303,-0.322071145440042
0.05615678781556647,-0.46636254776615865,-0.3212718108507224
0.05665728831606697,-0.3990794646983842,-0.3236732561917771
0.05715778881656747,-0.27914726012665403,-0.33055514469004416
0.05765828931706797,-0.13336351417947073,-0.3432984506008534
0.05815878981756847,0.025314945937090574,-0.3450094589157284
0.05865929031806897,0.16667941815786147,-0.3474332141905242
0.05915979081856947,0.30388100678667856,-0.3463075647759997
0.05966029131906997,0.41009328913744003,-0.35389661009101847
0.06016079181957047,0.47581062748966896,-0.344574367897231
0.06066129232007097,0.49700741830126466,-0.3443286545767886
0.06116179282057147,0.4654549354596129,-0.34198146942719077
0.061662293321071975,0.38933385451565,-0.33748193521467346
0.062162793821572464,0.27491103514523224,-0.3418927165029983
0.06266329432207296,0.1297052736524941,-0.3400567380444141
0.06316379482257348,-0.017472519521114928,-0.34451879606566593
0.06366429532307397,-0.16928380883442135,-0.3395747264196668
0.06416479582357448,-0.3093517044042441,-0.3365427827378774
0.06466529632407497,-0.41804425011725127,-0.3426156269672432
0.06516579682457546,-0.4813135814716878,-0.35993346717733654
0.06566629732507598,-0.5002716465404647,-0.35333124094268265
0.06616679782557647,-0.4624665913120395,-0.36421680105649934
0.06666729832607696,-0.3935307667216101,-0.36522333668194673
0.06716779882657747,-0.27381663738421974,-0.3775495699327838
0.06766829932707796,-0.13210645215310826,-0.37482001232612105
0.06816879982757848,0.026353215661828643,-0.38272263510550447
0.06866930032807897,0.1744479313946101,-0.37892692309525006
0.06916980082857946,0.3100597896725191,-0.3895857417190682
0.06967030132907998,0.4190674613953438,-0.37670791065123205
0.07017080182958046,0.4765230105241205,-0.371705874252019
0.07067130233008098,0.49837547356702827,-0.3795373173291718
0.07117180283058147,0.46667894606252286,-0.37540252672649754
0.07167230333108196,0.3875905212061553,-0.3762717505685842
0.07217280383158248,0.27283854564536436,-0.37090933666669185
0.07267330433208297,0.134017623407479,-0.3745083215887352
0.07317380483258348,-0.025682368828401202,-0.3726714294388529
0.07367430533308397,-0.17640873609540844,-0.36104972863496226
0.07417480583358446,-0.30859306321974145,-0.3711777268675856
0.07467530633408498,-0.41833852313754366,-0.376086555864772
0.07517580683458547,-0.47242926987357525,-0.371941161844369
0.07567630733508596,-0.4992609933446161,-0.3772006631314934
0.07617680783558647,-0.4557255558024845,-0.3911371998970968
0.07667730833608696,-0.3928623151465387,-0.39291753937075236
0.07717780883658748,-0.26657460851491477,-0.40212742227301224
0.07767830933708797,-0.13775878242269884,-0.4099063287822249
0.07817880983758846,0.028437744679605942,-0.4172136478418004
0.07867931033808898,0.17827126087676237,-0.41843380264435476
0.07917981083858947,0.31724605201432476,-0.4183773750118812
0.07968031133908998,0.4134895741748918,-0.40745202468235153
0.08018081183959047,0.48399645029684046,-0.4181261836526069
0.08068131234009096,0.4954099982556398,-0.41379459736040547
0.08118181284059148,0.465404416250546,-0.4051316584417937
0.08168231334109197,0.38631719945039744,-0.3978923204848811
0.08218281384159246,0.273752255593501,-0.40801319564952887
0.08268331434209297,0.12894720972364068,-0.40454007251082785
0.08318381484259346,-0.025482230730953195,-0.398506044412132
0.08368431534309398,-0.17198189630746608,-0.40726264142293594
0.08418481584359447,-0.3156909025310383,-0.3911117825632655
0.08468531634409496,-0.41904947483646215,-0.4064516733142889
0.08518581684459547,-0.48042968564271854,-0.4190068053999232
0.08568631734509596,-0.4983291444180998,-0.41047457312046437
0.08618681784559648,-0.4663897941818623,-0.41737981643013294
0.08668731834609697,-0.3821705609340144,-0.42672321153156245
0.08718781884659757,-0.2704300561379583,-0.42961006824970005
0.08768831934709798,-0.12653322368538866,-0.43901663651829664
0.08818881984759847,0.027700326669341052,-0.44990428156002715
0.08868932034809898,0.18568693047091359,-0.4456900122005205
0.08918982084859947,0.3165190509252103,-0.44843321801360403
0.08969032134910007,0.41381126904515103,-0.45091287683569614
0.09019082184960056,0.48404709685127917,-0.4449067127279229
0.09069132235010097,0.4939594950021826,-0.43515520402945834
0.09119182285060146,0.4720141674940261,-0.4301970663135316
0.09169232335110206,0.3842286092320175,-0.4342900481379271
0.09219282385160257,0.26862622761195076,-0.42578744688661646
0.09269332435210306,0.12462029812308015,-0.4206089894899094
0.09319382485260347,-0.03455897383354128,-0.4333394319660273
0.09369432535310396,-0.18239896682427917,-0.4220028580629112
0.09419482585360456,-0.3154179311965067,-0.4215091345336619
0.09469532635410507,-0.42505100585611294,-0.4302433315531013
0.09519582685460556,-0.4812851515847846,-0.45314644304749646
0.09569632735510597,-0.49884521385481617,-0.44728009587516576
0.09619682785560657,-0.4617993816420847,-0.44477866611895905
0.09669732835610706,-0.38514836072155323,-0.448352466276922
0.09719782885660758,-0.2651506429168099,-0.45401829753050776
0.09769832935710807,-0.12141172211275685,-0.46619415401793024
0.09819882985760847,0.03254154263442166,-0.46478112785083986
0.09869933035810907,0.18360957573003261,-0.48274191941727035
0.09919983085860956,0.31674624291945036,-0.4766061787401818
0.09970033135911008,0.41913233574298203,-0.4781572718081842
0.10020083185961057,0.48345681130206436,-0.4631585194799985
0.10070133236011106,0.4978756408698803,-0.4582807336117641
0.10120183286061157,0.46374122811829127,-0.45446447418818686
0.10170233336111206,0.38371552789925606,-0.4478448346285279
0.10220283386161258,0.26572346555415643,-0.45025233935664283
0.10270333436211307,0.12036441940301448,-0.45776118778927083
0.10320383486261356,-0.03034841681048315,-0.448363206639947
0.10370433536311408,-0.18021505328637488,-0.454491251546288
0.10420483586361456,-0.30948441690223766,-0.45267857864534533
0.10470533636411508,-0.42014923038401836,-0.4558598974839631
0.10520583686461557,-0.4815751524538985,-0.4538721657837878
0.10570633736511606,-0.5005721238171339,-0.473683176274729
0.10620683786561658,-0.45428670838903207,-0.462819060465683
0.10670733836611707,-0.3847192985472008,-0.47825747374917876
0.10720783886661758,-0.26435281764691626,-0.48262610379546556
0.10770833936711807,-0.12051534244860389,-0.47355779855679786
0.10820883986761856,0.034304652436367856,-0.48520545747106564
0.10870934036811908,0.18631429928281176,-0.4869256733707104
0.10920984086861957,0.32000365946249715,-0.49911055745473815
0.10971034136912006,0.41466418855820114,-0.48365189341735776
0.11021084186962057,0.48242647806811295,-0.47984510003384595
0.11071134237012106,0.4975516782938093,-0.48034094026027246
0.11121184287062158,0.4578995883221362,-0.4764684068515414
0.11171234337112207,0.38133395578632534,-0.4772056600137517
0.11221284387162256,0.2596179655850646,-0.47149436764232827
0.11271334437212308,0.11995752280978539,-0.4682967387918122
0.11321384487262356,-0.03392190917950473,-0.47802025533824816
0.11371434537312408,-0.18420072795848705,-0.4830018574073077
0.11421484587362457,-0.3162264313831397,-0.4717258236362751
0.11471534637412506,-0.4169064185541003,-0.47161103830717854
0.11521584687462558,-0.48243265956066916,-0.48256366582198035
0.11571634737512607,-0.5009992670382071,-0.4778688567154792
0.11621684787562658,-0.45206197994496217,-0.4948818778534321
0.11671734837612707,-0.3800906990656677,-0.498406803084789
0.11721784887662756,-0.26408228696327607,-0.4996816390055493
0.11771834937712808,-0.11821700625699044,-0.5025374117570371
0.11821884987762857,0.037755033501000394,-0.5064054967821366
0.11871935037812906,0.19007211171354238,-0.5013407263235511
0.11921985087862957,0.32629099102055537,-0.5059037043292266
0.11972035137913006,0.4160686642231062,-0.5121452788492475
0.12022085187963058,0.48055538653103563,-0.5000039526426912
0.12072135238013107,0.4936411942517441,-0.49692738177219814
0.12122185288063156,0.4575949639374434,-0.5012993825431893
0.12172235338113208,0.37768455922943905,-0.49602775459794574
0.12222285388163256,0.25491537678744997,-0.48983186081123725
0.12272335438213308,0.11579907192864382,-0.49202059538104753
0.12322385488263357,-0.03194197490267719,-0.491893422077269
0.12372435538313406,-0.1915555625072689,-0.48321439562132956
0.12422485588363455,-0.320806144341357,-0.48996414243118047
0.12472535638413507,-0.42507196557061255,-0.4842906793737251
0.12522585688463556,-0.4802461860594789,-0.5019858546867894
0.12572635738513607,-0.493770887689082,-0.5012821112821176
0.12622685788563656,-0.4542105324171342,-0.5082396125374953
0.12672735838613705,-0.3840598743591016,-0.5185354867276601
0.12722785888663757,-0.2528659493998883,-0.5261060076938604
0.12772835938713806,-0.12065146179990303,-0.5215709281941477
0.12822885988763857,0.0426435609812014,-0.5260791991671443
0.12872936038813906,0.18684219464289908,-0.5313868218994
0.12922986088863955,0.3253887312807322,-0.5267577611079881
0.12973036138914007,0.41955021589496416,-0.5178601628131546
0.13023086188964056,0.48199984709972643,-0.5202650834159013
0.13073136239014108,0.4943288777791457,-0.5191002403561222
0.13123186289064157,0.46021441509975836,-0.52323185047421
0.13173236339114205,0.3758530846953417,-0.521979100284921
0.13223286389164257,0.2573336046600238,-0.505377963028096
0.13273336439214306,0.11352231429725008,-0.5085586373282426
0.13323386489264355,-0.043575011951997686,-0.4910535023627823
0.13373436539314407,-0.19468401868607818,-0.499597336684915
0.13423486589364456,-0.33083423929222555,-0.5006965384284802
0.13473536639414507,-0.42471508662062896,-0.5070016832138835
0.13523586689464556,-0.4792977086889194,-0.5033514646358156
0.13573636739514605,-0.4947444460819628,-0.5150175731923479
0.13623686789564657,-0.45927520834836055,-0.5277835644239685
0.13673736839614706,-0.37838053707202407,-0.530259468489948
0.13723786889664757,-0.2564938288393016,-0.536681639186201
0.13773836939714806,-0.10891931108012015,-0.5355859362106021
0.13823886989764855,0.0452828973249315,-0.5482476288667603
0.13873937039814907,0.19649298589122305,-0.5329427296276946
0.13923987089864956,0.3305576677987992,-0.53979312365433
0.13974037139915008,0.42141093332155005,-0.5424878894619827
0.14024087189965057,0.4830911283514587,-0.5337825510280642
0.14074137240015105,0.49920827511796645,-0.5382851260141285
0.14124187290065157,0.4587682340231887,-0.5303906110378384
0.14174237340115206,0.3735169916126889,-0.5217402949782665
0.14224287390165255,0.2529290860660447,-0.5245986998704374
0.14274337440215307,0.10930448383512702,-0.5233954551102151
0.14324387490265356,-0.045400976713043016,-0.516213812060721
0.14374437540315407,-0.20160312760278928,-0.5057678998124653
0.14424487590365456,-0.32280664085938005,-0.5169904040366013
0.14474537640415505,-0.4259037305309655,-0.5187587220314499
0.14524587690465557,-0.4812201495181037,-0.5240569831974129
0.14574637740515606,-0.4932812852018185,-0.5358654815640166
0.14624687790565657,-0.45217085717458777,-0.53814582235723
0.14674737840615706,-0.3723388941183553,-0.5407580232965654
0.14724787890665755,-0.25468748388329115,-0.5478383112255875
0.14774837940715807,-0.1045888511535389,-0.5556936512058341
0.14824887990765856,0.04944422441301719,-0.5487461556273873
0.14874938040815908,0.20043719948415242,-0.5566446832673784
0.14924988090865957,0.32760917505105996,-0.545803967209305
0.14975038140916005,0.42912599550395475,-0.5620439666673279
0.15025088190966057,0.4843722053132129,-0.555506261425763
0.15075138241016106,0.4925663634535506,-0.5423504313616162
0.15125188291066155,0.45433725200218045,-0.5449688434420517
0.15175238341116207,0.369615881310832,-0.539931234454789
0.15225288391166256,0.25089377203052726,-0.5386077625659621
0.15275338441216307,0.10533011653997745,-0.5341395843443398
0.15325388491266356,-0.05048561364874686,-0.5212632710287349
0.15375438541316405,-0.19972266565648295,-0.5249918614645412
0.15425488591366457,-0.33676835346894163,-0.5384133957350143
0.15475538641416506,-0.4245399618774308,-0.5363914375037364
0.15525588691466558,-0.4823701230380992,-0.5400475514851901
0.15575638741516606,-0.4938467124869939,-0.5468128006690581
0.15625688791566655,-0.4573665900626385,-0.5468812618604434
0.15675738841616707,-0.36733170861036313,-0.5565743097581419
0.15725788891666756,-0.2518380123868301,-0.5515088468506314
0.15775838941716805,-0.10148993907131966,-0.5695196455940565
0.15825888991766857,0.0521618936201125,-0.5601289095802269
0.15875939041816906,0.19793395818928128,-0.5691770349454582
0.15925989091866957,0.3259215572275541,-0.560849708672721
0.15976039141917006,0.43121682362700264,-0.5735879260287895
