Time,Vin,Vout
-0.004201127823776783,0.0003899124797191745,-0.0009544456183929629
-0.0037006273232762826,0.15741507187344853,0.07183571041270424
-0.0032001268227757826,0.2992785193666993,0.2681572333482738
-0.002699626322275283,0.4224595307239143,0.4885278862586702
-0.002199125821774783,0.4936197017696127,0.6443030987018774
-0.0016986253212742828,0.5209815509253103,0.7372588698860035
-0.0011981248207737828,0.49117811152301294,0.7583502490984166
-0.0006976243202732827,0.4230052340353404,0.6962525725973444
-0.00019712381977278308,0.3049543242909725,0.5733692590383213
0.0003033766807277174,0.15894175718957662,0.3969638882939232
0.000803877181228217,-0.0020390140213054756,0.17523303459153672
0.0013043776817287175,-0.1600318609474198,-0.059999953939422104
0.0018048781822292172,-0.3060387102932457,-0.2810595498700549
0.0023053786827297177,-0.41754712472003164,-0.49855305405612715
0.0028058791832302173,-0.4938324458189362,-0.6406420517657293
0.003306379683730717,-0.5152755282377071,-0.7326406677538727
0.0038068801842312166,-0.49059694334021914,-0.7576812797241343
0.004307380684731718,-0.41405089573516096,-0.6952461764281616
0.0048078811852322175,-0.30814473234590517,-0.5737645274502032
0.005308381685732717,-0.1561742842054252,-0.39311673550745807
0.005808882186233217,0.0064985916960240055,-0.1655701839468267
0.006309382686733716,0.16550895862991408,0.06640745369109533
0.006809883187234218,0.3075194595754507,0.29908888509461845
0.007310383687734717,0.42181803840801946,0.488570517822469
0.007810884188235217,0.5041624399392965,0.6492454329052476
0.008311384688735716,0.5190197471521774,0.7276696150887474
0.008811885189236219,0.49098676792422774,0.7561665577810571
0.009312385689736719,0.41823899931114833,0.6934117709135593
0.009812886190237218,0.302266049974723,0.5746224121935747
0.010313386690737718,0.15464435090831075,0.3825547507717296
0.010813887191238217,-0.007992603367413946,0.16139082589398404
0.011314387691738717,-0.16415050703996226,-0.0575740410011201
0.011814888192239217,-0.308505202230717,-0.2968243101720239
0.01231538869273972,-0.42598464650545964,-0.4948859926134581
0.01281588919324022,-0.49943691375827814,-0.6552782465362396
0.013316389693740719,-0.5205697455274731,-0.7384383800979217
0.013816890194241219,-0.4932415435009256,-0.745939603575547
0.014317390694741718,-0.4203336006136652,-0.7003557926102493
0.014817891195242218,-0.3015642940539008,-0.5661296295714582
0.015318391695742718,-0.15736096101888153,-0.37801107455024835
0.015818892196243217,0.0018741758979300821,-0.16353573104914806
0.016319392696743717,0.16498817176402042,0.06420630462473491
0.016819893197244216,0.3123233554494434,0.3009331053494899
0.01732039369774472,0.4244393117075924,0.4990266802477197
0.01782089419824522,0.5006986504165077,0.6537984965278703
0.01832139469874572,0.517909376176505,0.7362957881651605
0.01882189519924622,0.48828686176978137,0.7541873264975245
0.019322395699746718,0.4115074242058195,0.6952301757599982
0.019822896200247218,0.29533276612888903,0.5651064065832135
0.020323396700747717,0.15592876532698197,0.3889819229273977
0.020823897201248217,-0.0077564409312136096,0.15904745662725114
0.021324397701748717,-0.16668098518495564,-0.07709868625440927
0.02182489820224922,-0.31523911148851314,-0.29849592096359057
0.02232539870274972,-0.4219177161947035,-0.49684049081726206
0.02282589920325022,-0.4910685981672824,-0.6459388525875507
0.02332639970375072,-0.5146741644726449,-0.7418928410284011
0.023826900204251218,-0.4844967895086628,-0.7482202817372747
0.024327400704751718,-0.4117890632503797,-0.700328718021025
0.024827901205252217,-0.3030823208556701,-0.5643221175617432
0.025328401705752717,-0.15297063310817777,-0.38145793372448034
0.025828902206253217,0.005151753711715443,-0.1560438336972663
0.02632940270675372,0.17438924672115405,0.07707641559920872
0.02682990320725422,0.31134389594230516,0.30182937113098757
0.02733040370775472,0.42709155695749407,0.498333740952294
0.027830904208255215,0.49764364330659283,0.6552848729065563
0.02833140470875572,0.5171280627481204,0.7329875697804993
0.02883190520925622,0.49335944178956237,0.7537289961267821
0.029332405709756718,0.41321528255102363,0.6889757857841936
0.02983290621025722,0.2999829194052237,0.5633160844885873
0.030333406710757717,0.15667649981952742,0.37877133086018216
0.03083390721125822,-0.012844420020563923,0.14889356468382525
0.031334407711758716,-0.17208383855889314,-0.07097024397172588
0.03183490821225922,-0.3127465757208983,-0.3152963124773953
0.032335408712759715,-0.4260405729520149,-0.4995976771336818
0.03283590921326022,-0.4963190006846079,-0.6515404063163588
0.03333640971376072,-0.5145468397256573,-0.7389661530477165
0.03383691021426122,-0.4884167516447509,-0.7506251371808835
0.03433741071476172,-0.40837610787727263,-0.6923002912692305
0.03483791121526222,-0.2952653426334608,-0.5616198279710438
0.03533841171576272,-0.15127365776553306,-0.3850091424910849
0.035838912216263216,0.010960034481196711,-0.15280536527472788
0.03633941271676372,0.17028320098130503,0.08575816909683592
0.036839913217264215,0.3152990198499099,0.3055848574541059
0.03734041371776472,0.4298313393839304,0.508142197410566
0.037840914218265215,0.49574155205183495,0.6531494992473513
0.03834141471876572,0.5143154977775705,0.7322499526671608
0.03884191521926622,0.4897446046563208,0.7489469166101066
0.03934241571976672,0.4073357123917833,0.6948446470739977
0.03984291622026722,0.28729197332313317,0.558714475665852
0.040343416720767716,0.1472740720797828,0.37046666628152686
0.04084391722126822,-0.011336311184251857,0.15650607459265345
0.041344417721768716,-0.17482464963423505,-0.08776958953494554
0.04184491822226922,-0.3173897956659386,-0.30531864798656294
0.042345418722769715,-0.4293855618575899,-0.5044783005273022
0.04284591922327022,-0.4989966062279984,-0.6550069839548753
0.04334641972377072,-0.5099988650848898,-0.7403888632602038
0.04384692022427122,-0.48633400761807066,-0.749736024652407
0.04434742072477172,-0.40348949484192337,-0.6905677764150446
0.044847921225272216,-0.2885087795574889,-0.5636025966240163
0.04534842172577272,-0.14748722426769903,-0.3792791665599776
0.045848922226273216,0.016080546501818827,-0.1549153713031948
0.04634942272677372,0.17240451803935772,0.08272650699470306
0.046849923227274215,0.3222310266082618,0.30941394607629513
0.04735042372777472,0.4260317141136941,0.5135072572317586
0.04785092422827522,0.4976803611767714,0.6522699458110615
0.04835142472877572,0.5193575248507805,0.7418959054874303
0.04885192522927622,0.4850267250207842,0.7511337294253471
0.04935242572977672,0.4061501089052363,0.6846175355973829
0.04985292623027722,0.28746403964222295,0.5616624983021151
0.050353426730777716,0.1405903477432199,0.3742794679711006
0.05085392723127822,-0.018046884396189792,0.1457713985800786
0.051354427731778715,-0.17547425105043743,-0.0825557446407873
0.05185492823227922,-0.3244604878818826,-0.31682796001387675
0.05235542873277972,-0.4317461032672761,-0.5133398157367245
0.05285592923328022,-0.4956090549986651,-0.6649606539505392
0.05335642973378072,-0.5180679138964783,-0.7458123992001282
0.05385693023428122,-0.48511004456414936,-0.7527156543354229
0.05435743073478172,-0.4129219175759094,-0.6833808449887057
0.054857931235282216,-0.28741097308556823,-0.5425695713888683
0.05535843173578272,-0.13905174764213532,-0.37478245310672365
0.055858932236283215,0.016655281256324782,-0.14621934128117467
0.05635943273678372,0.18118487636855077,0.09592260839881826
0.05685993323728422,0.3213680037201007,0.3224539297758674
0.05736043373778472,0.4321023937744052,0.517494860891816
0.05786093423828522,0.5005384014774676,0.6637606370892698
0.05836143473878572,0.5157875917186917,0.7424722896852077
0.05886193523928622,0.488802705038418,0.7543733447477908
0.05936243573978672,0.40270011237477765,0.6894852338956109
0.05986293624028721,0.28833173973449866,0.5569573051671912
0.060363436740787715,0.14110213650524206,0.36627435500159455
0.06086393724128822,-0.017060448260702202,0.1478465791386371
0.06136443774178872,-0.176034665367194,-0.08715593252302692
0.061864938242289225,-0.32176325507453896,-0.3293960306239618
0.062365438742789714,-0.4318951473953208,-0.5134078608051532
0.06286593924329022,-0.4941528789649801,-0.6618370260026679
0.06336643974379072,-0.5152826588337444,-0.738312527010941
0.06386694024429122,-0.488561628415562,-0.7470298726460002
0.06436744074479171,-0.40407336884419165,-0.6811460821939321
0.06486794124529222,-0.2851408010323884,-0.5527916700462008
0.06536844174579272,-0.133133083702607,-0.36880594181463416
0.06586894224629322,0.023199772929196522,-0.1397686528130899
0.06636944274679372,0.1782450477514514,0.09094834764063188
0.06686994324729421,0.32268349763316173,0.3267720520792863
0.06737044374779472,0.43424259015494715,0.5151843567357745
0.06787094424829522,0.49436369683561127,0.6611934838963034
0.06837144474879572,0.5195713911994141,0.7384380852529169
0.06887194524929621,0.4858030257592295,0.7455215875307419
0.06937244574979672,0.4061720023533746,0.6919911449761775
0.06987294625029722,0.2811477121327502,0.5530061948507431
0.07037344675079772,0.13949374754058086,0.3597126103174664
0.07087394725129822,-0.02287780891366329,0.149339157868253
0.07137444775179871,-0.1801794020014735,-0.09587463179788705
0.07187494825229922,-0.32363458012471935,-0.31280144895942275
0.07237544875279972,-0.42696960748007196,-0.5138264229536408
0.07287594925330022,-0.49543635205197784,-0.6633581893336842
0.07337644975380071,-0.5153275310466681,-0.7422587605801167
0.07387695025430122,-0.4832055574781049,-0.7507912456164816
0.07437745075480172,-0.40673333137607437,-0.6822624745688464
0.07487795125530222,-0.2895908259447261,-0.552081784722668
0.07537845175580273,-0.1317043201552248,-0.3590465635456576
0.07587895225630321,0.025160934484496977,-0.1353900834114767
0.07637945275680372,0.1857206009893469,0.09868906796071439
0.07687995325730422,0.3331220197726393,0.330402643027763
0.07738045375780472,0.43113257517128273,0.5194383872214452
0.07788095425830521,0.49958513111951175,0.6681734295202483
0.07838145475880572,0.5168187859382637,0.7341297221940539
0.07888195525930622,0.4802259167282114,0.7475077032368308
0.07938245575980672,0.40553747585792016,0.6892551814505177
0.07988295626030721,0.28277782122419626,0.5523952177043421
0.08038345676080771,0.13272012932363755,0.35862328787261094
0.08088395726130822,-0.025686083429816917,0.13361739453281332
0.08138445776180872,-0.18262676352566384,-0.09934038854310305
0.08188495826230922,-0.32715026223295707,-0.32591447757405595
0.08238545876280971,-0.4284663162567258,-0.5146186259451468
0.08288595926331022,-0.4984470669241724,-0.6599641065269316
0.08338645976381072,-0.5122872092878086,-0.7429627188940533
0.08388696026431122,-0.48885749706890474,-0.751751103623072
0.08438746076481171,-0.4050306494397914,-0.6816633179667374
0.08488796126531231,-0.2788781919051253,-0.5500190846188915
0.08538846176581272,-0.13116064574912206,-0.3613040032779466
0.08588896226631322,0.02807928117305819,-0.1294320443671261
0.08638946276681372,0.19287598330676864,0.10441034793778346
0.08688996326731421,0.3268506959544917,0.3250311420588666
0.08739046376781481,0.4345657987389153,0.5276499503013893
0.08789096426831532,0.49769475254029727,0.6685614067792027
0.08839146476881572,0.516668517886239,0.7409271800247775
0.08889196526931621,0.4932064656161174,0.7531258229716807
0.08939246576981681,0.40211146214799715,0.680066606069945
0.08989296627031731,0.27653506083654605,0.5460616538431535
0.09039346677081782,0.13138329653925046,0.35669831628166926
0.09089396727131822,-0.026872502882578725,0.13273906112207726
0.09139446777181871,-0.1921357956900207,-0.11500489534023788
0.09189496827231931,-0.3262144422802922,-0.32633363391606107
0.09239546877281982,-0.43896548719194894,-0.5274023201069787
0.09289596927332032,-0.5000441521523292,-0.6714530394693784
0.09339646977382071,-0.5157778399027844,-0.7462220041731901
0.09389697027432131,-0.4873439254365816,-0.7475116676581719
0.09439747077482182,-0.40041035362209493,-0.6741081259553069
0.09489797127532232,-0.27901661606406275,-0.5405105290053842
0.09539847177582282,-0.13108044238842667,-0.355036151263581
0.09589897227632321,0.029673195487185885,-0.13487388002891543
0.09639947277682381,0.18092582289119188,0.11616242774305316
0.09689997327732432,0.3406019212848564,0.3359084050626179
0.09740047377782482,0.440480385659671,0.5238900396286544
0.09790097427832532,0.5021016722305534,0.6722511035060057
0.09840147477882581,0.5245791597062643,0.7424293349901052
0.09890197527932632,0.47886019937190166,0.7499093034401546
0.09940247577982682,0.39689246160461156,0.6746507051751337
0.09990297628032732,0.2776281958001391,0.5380974213691055
0.10040347678082782,0.126638390051572,0.35249638753038764
0.10090397728132831,-0.03140579324833956,0.12797873349761885
0.10140447778182882,-0.1880294498374595,-0.11326322141656113
0.10190497828232932,-0.33052646508632016,-0.33995757997834564
0.10240547878282982,-0.44184258378644947,-0.5351810611334177
0.10290597928333031,-0.5014540899416284,-0.666895970990745
0.10340647978383082,-0.5196753660057348,-0.7381046377827918
0.10390698028433132,-0.48071379698562494,-0.7471806463356084
0.10440748078483182,-0.4001992701959713,-0.6743622722362603
0.10490798128533232,-0.27776676801751454,-0.532815672450979
0.10540848178583281,-0.12490909492311997,-0.36011296601324966
0.10590898228633332,0.037625960871449274,-0.11891342408182652
0.10640948278683382,0.1917595473511961,0.11171857548700082
0.10690998328733432,0.33403736589486716,0.33878006468807603
0.10741048378783481,0.44604072449750737,0.5269611628184091
0.10791098428833532,0.5018694844620266,0.6718156536112286
0.10841148478883582,0.5204512216222753,0.7427900781440018
0.10891198528933632,0.4786652401401021,0.7418435915260849
0.10941248578983682,0.3980434437588198,0.6726749847507312
0.10991298629033731,0.2794363153915804,0.5413919814178199
0.11041348679083782,0.12099963014050698,0.34182784252783877
0.11091398729133832,-0.032003826245665924,0.12940017311864294
0.11141448779183882,-0.1868582125972433,-0.11559321527019274
0.11191498829233931,-0.33250817746013134,-0.3442368393105091
0.11241548879283982,-0.4386042820497088,-0.5219610559242546
0.11291598929334032,-0.5052847154650475,-0.6663809481592078
0.11341648979384082,-0.5205365009221893,-0.7472144975440225
0.11391699029434132,-0.4827411888731117,-0.7466731890269561
0.11441749079484181,-0.3968737452694916,-0.6817752515111635
0.11491799129534232,-0.27497561813015864,-0.5387031595135959
0.11541849179584282,-0.12449204275465266,-0.34509569646201793
0.11591899229634332,0.03931760616819453,-0.11196004503188363
0.11641949279684381,0.19507309754502808,0.11403836360578015
0.11691999329734432,0.3311867709522977,0.34725573196808834
0.11742049379784482,0.4453656929004729,0.5347167742967092
0.11792099429834532,0.49619857662495437,0.6733954825568436
0.11842149479884582,0.5173705993474976,0.7495981649239121
0.11892199529934631,0.4794059238391786,0.7475435600500631
0.11942249579984682,0.3938840174207629,0.6740718870688142
0.11992299630034732,0.2645717315217429,0.5343934797380431
0.12042349680084782,0.12450079526834636,0.3472829233358552
0.12092399730134833,-0.04483198806130372,0.12338428842578172
0.12142449780184882,-0.20178716920110598,-0.11585626828548813
0.1219249983023493,-0.33152253542871196,-0.35039668775334026
0.12242549880284982,-0.4439129719760298,-0.5465942869781724
0.12292599930335031,-0.504728059509132,-0.6780090892425048
0.12342649980385083,-0.5168314235453695,-0.7461565299507599
0.12392700030435132,-0.47424822511938747,-0.7382757548204542
0.1244275008048518,-0.3947542239593875,-0.6676983972736734
0.12492800130535232,-0.2688642909117427,-0.5239055033087866
0.1254285018058528,-0.1226845917311378,-0.34352386549891933
0.12592900230635332,0.0429480661299467,-0.10748772838102234
0.1264295028068538,0.20173103717978208,0.13437344764927311
0.1269300033073543,0.3375340045570441,0.34584918239964374
0.1274305038078548,0.44896117440122313,0.5314309364171192
0.1279310043083553,0.5019696519592797,0.6712269397654507
0.12843150480885582,0.5159466489590797,0.7445134786276839
0.1289320053093563,0.48245598025080494,0.7519928554478189
0.1294325058098568,0.39263508499827227,0.6570943943607083
0.1299330063103573,0.26797575968515625,0.5357477927836811
0.1304335068108578,0.11133793008874715,0.33831920109661223
0.1309340073113583,-0.04064618307792017,0.1204462719181647
0.1314345078118588,-0.19540169284831116,-0.12872370994294563
0.1319350083123593,-0.3420786750726816,-0.3578687668746303
0.13243550881285981,-0.44396309883132085,-0.5454867687979028
0.1329360093133603,-0.5043101026047238,-0.6745669248787258
0.1334365098138608,-0.5164878326609457,-0.7579975234803188
0.1339370103143613,-0.483592584938278,-0.7455028583799844
0.1344375108148618,-0.3905086230381866,-0.6673934570417765
0.13493801131536232,-0.2669173514618765,-0.5371087088101597
0.1354385118158628,-0.11157835140333348,-0.33894433290673087
0.1359390123163633,0.04379036360272902,-0.11149805530814173
0.1364395128168638,0.20364682492821073,0.1286848254523206
0.1369400133173643,0.33919856280965655,0.3503941910807143
0.13744051381786482,0.44536535208092987,0.5410573421302968
0.1379410143183653,0.5000765358050452,0.6753005167353768
0.1384415148188658,0.5169136865370797,0.7439113976484337
0.1389420153193663,0.4761479062581263,0.735733742897759
0.1394425158198668,0.38974924799639993,0.6627969310170279
0.1399430163203673,0.26572096881400126,0.5235800773161706
0.1404435168208678,0.114575009204,0.3378685763518612
0.1409440173213683,-0.049063668393391616,0.12249031132307407
0.14144451782186881,-0.20368236887477356,-0.1309830874945015
0.1419450183223693,-0.33979206957106817,-0.3492518979680846
0.1424455188228698,-0.4476577297818726,-0.5350712380809816
0.1429460193233703,-0.5065341433344185,-0.6804070980838245
0.1434465198238708,-0.51826863147786,-0.7479867358696917
0.14394702032437132,-0.47662372585732404,-0.7350001244721698
0.1444475208248718,-0.3874395452146035,-0.6667137304271344
0.1449480213253723,-0.26539270760824707,-0.5263226754868925
0.1454485218258728,-0.11260303541282378,-0.33088565816843035
0.1459490223263733,0.046663954874000414,-0.10360164348926214
0.14644952282687382,0.2059319723120809,0.12942621055723502
0.1469500233273743,0.3377886512182593,0.35606460484567287
0.1474505238278748,0.4447768724549573,0.5410967825577352
0.1479510243283753,0.5033757826293285,0.6760782523948698
0.1484515248288758,0.5182678212473351,0.7432708739281901
0.1489520253293763,0.4707174120555351,0.7518880961939568
0.1494525258298768,0.3876745079337047,0.6751755995633875
0.1499530263303773,0.2592925952023459,0.5258615298707386
0.15045352683087782,0.10947799373703104,0.3313087867779466
0.1509540273313783,-0.05602221356537648,0.09975372094230793
0.1514545278318788,-0.21136210124622015,-0.13481364746913804
0.1519550283323793,-0.3464246841398413,-0.3592200869299882
0.1524555288328798,-0.4515468285641805,-0.5468399708742915
0.15295602933338032,-0.5053210540691994,-0.6813547177796306
0.1534565298338808,-0.5135577031877098,-0.7485715612912032
0.1539570303343813,-0.4732339239694564,-0.7512588916756422
0.1544575308348818,-0.38823110366504676,-0.6649113422684273
0.1549580313353823,-0.2648894228370797,-0.5311483874401107
0.1554585318358828,-0.10536304685649268,-0.3231610115771329
0.1559590323363833,0.05298300202279224,-0.10414701704349105
0.1564595328368838,0.20513441259986578,0.1346291108612425
0.1569600333373843,0.3438679115708499,0.35688488432536386
0.1574605338378848,0.44737894404048417,0.5529287948227477
0.1579610343383853,0.5060621455848642,0.6791969643383248
0.1584615348388858,0.5175858347492648,0.7494054652699303
0.1589620353393863,0.4752469713339015,0.7426563619284093
0.15946253583988682,0.3852746816691975,0.6594153989364564
