Time,Vin,Vout
-0.006588665990077831,7.100375017730164e-05,-0.0044343961612361435
-0.006088165489577331,0.1413009309342626,0.08798925557151609
-0.005587664989076831,0.2844308306089645,0.30441173986549686
-0.005087164488576331,0.38330389892386085,0.4531253463594025
-0.004586663988075831,0.45774610859388776,0.4781122600820422
-0.004086163487575331,0.4774957132783572,0.4969068569559539
-0.003585662987074831,0.4607256869322082,0.4923173652871322
-0.003085162486574331,0.38371068092058586,0.5003207972421895
-0.0025846619860738313,0.27940588106392117,0.48627891276419616
-0.002084161485573331,0.1458497969474014,0.43596652215406134
-0.0015836609850728312,-0.009339378857880928,0.17846209543222044
-0.0010831604845723307,-0.14894785827092347,-0.0854426365484378
-0.0005826599840718311,-0.2809936192985028,-0.3153410593979952
-8.21594835713306e-05,-0.386020719584207,-0.4602712502698945
0.00041834101692916903,-0.45460883956351905,-0.48157269505532985
0.0009188415174296687,-0.4751978678254462,-0.489409871675015
0.0014193420179301683,-0.453393483355512,-0.4836057318770881
0.0019198425184306697,-0.3860405584117539,-0.494531043912468
0.0024203430189311693,-0.27941385768291654,-0.4874736659703365
0.002920843519431669,-0.14262105814550308,-0.4373830172763593
0.0034213440199321685,0.0012885966419136701,-0.1821259166266434
0.003921844520432668,0.15497351287557493,0.09264542521400423
0.0044223450209331695,0.2835411792404264,0.3222284501187789
0.004922845521433669,0.38583212363050057,0.46714559736764955
0.005423346021934169,0.4569430025895883,0.4862599698378424
0.005923846522434668,0.4715706452204056,0.48858675504684446
0.00642434702293517,0.45262188788348945,0.5016789108839631
0.006924847523435669,0.3804525331311927,0.485827772331239
0.007425348023936169,0.27867388274092725,0.4835391153457239
0.007925848524436669,0.14265203124040993,0.4329207260680354
0.008426349024937168,0.000627778601546336,0.16441686470811076
0.00892684952543767,-0.1535260203301904,-0.0987716453038273
0.009427350025938168,-0.2844017861425463,-0.3164622036956898
0.00992785052643867,-0.3896128634629802,-0.45354533792800594
0.01042835102693917,-0.46141873170721454,-0.49075626768288705
0.01092885152743967,-0.476127723662575,-0.49307642973678684
0.01142935202794017,-0.45257698891635595,-0.4898493769263311
0.01192985252844067,-0.38753437406826113,-0.49057087700109275
0.012430353028941169,-0.2756310229089458,-0.48032746153403105
0.012930853529441668,-0.1470709173974713,-0.43166208285677726
0.013431354029942168,0.005543175032637561,-0.17274342918934202
0.013931854530442668,0.15313434780698476,0.10045603206987684
0.014432355030943167,0.28349755431762164,0.32772161259774124
0.01493285553144367,0.38934649548648137,0.45665238582844925
0.01543335603194417,0.45738747137939695,0.49009511596215655
0.015933856532444668,0.4724939724243531,0.4888996930246636
0.01643435703294517,0.45359268532016633,0.4949929288434577
0.016934857533445667,0.3799222658361513,0.4902040740628775
0.01743535803394617,0.2767669526178179,0.4854135117844767
0.017935858534446666,0.14127270071580103,0.4294825274496221
0.01843635903494717,-0.011844515826710764,0.1648449728759255
0.018936859535447666,-0.15746988899914338,-0.09885390923823517
0.01943736003594817,-0.28754159878007063,-0.33043925264296564
0.019937860536448672,-0.3935728545731595,-0.46718988189622546
0.020438361036949168,-0.452835306406249,-0.48965356971449714
0.02093886153744967,-0.47530496722697885,-0.48514968982314177
0.021439362037950167,-0.4578538384700277,-0.4935326099952539
0.02193986253845067,-0.37845369639274373,-0.49183523427564424
0.022440363038951167,-0.27204517566173,-0.4810764655570074
0.02294086353945167,-0.1388729860491499,-0.4261829219173385
0.023441364039952166,0.00979572928572593,-0.1706652785685283
0.02394186454045267,0.1565939817715806,0.09441651703335475
0.024442365040953172,0.29352254169806863,0.33385036008819985
0.024942865541453668,0.39167978640998236,0.45954497376031966
0.025443366041954164,0.4504986535659778,0.48976072461041137
0.025943866542454667,0.4756271860046958,0.4897030619255119
0.02644436704295517,0.45493015100422274,0.4956526593931182
0.026944867543455667,0.3780220699605005,0.4910408931558236
0.02744536804395617,0.2720522338426136,0.4836798475554561
0.027945868544456666,0.13947405373471364,0.43305908325449055
0.02844636904495717,-0.013514958127369388,0.16122964157595013
0.028946869545457665,-0.1561818113220558,-0.1107290699442374
0.02944737004595817,-0.29184159156096984,-0.3289503617961649
0.029947870546458664,-0.39000557839630046,-0.4581576757532413
0.030448371046959168,-0.45338752113030656,-0.4848577744359148
0.03094887154745967,-0.47924595116688745,-0.5001958020274558
0.03144937204796017,-0.45169704086577045,-0.48728948724063786
0.03194987254846067,-0.37700496217104806,-0.4951774559988595
0.032450373048961166,-0.26720137078341544,-0.4799426100522307
0.03295087354946167,-0.13550046978069183,-0.43157714833614863
0.033451374049962165,0.015373612473549758,-0.15699603050021999
0.03395187455046267,0.16148894746005568,0.10424158806303337
0.034452375050963165,0.2880966461438121,0.3388736684053223
0.03495287555146367,0.3927238940268979,0.4610708952210992
0.035453376051964164,0.4614207091446857,0.4912793782719536
0.03595387655246467,0.4775824818774128,0.4919952572960766
0.03645437705296517,0.45210166988001926,0.4934102237108062
0.036954877553465666,0.3780498010533941,0.48682385886109975
0.03745537805396617,0.2786470725699443,0.48131968994107144
0.037955878554466665,0.13690714065947432,0.4178418616806395
0.03845637905496717,-0.01725257630837105,0.16649246494855713
0.038956879555467665,-0.16223427915291389,-0.10954071680290395
0.03945738005596817,-0.28831833888853725,-0.33155225829704055
0.039957880556468664,-0.3998107262440204,-0.45909725882052194
0.04045838105696917,-0.4567694455077934,-0.4827829773719985
0.04095888155746967,-0.4726378778882136,-0.49508246315994126
0.041459382057970166,-0.44776849800686463,-0.49382641731490945
0.04195988255847067,-0.38081815309809486,-0.4943397054454247
0.042460383058971166,-0.27094613882744584,-0.4840828683435306
0.04296088355947167,-0.1346141282676501,-0.42141665537314177
0.043461384059972165,0.017117042549476953,-0.1523986659093431
0.04396188456047267,0.15872268470531636,0.11414741557121459
0.044462385060973164,0.2941203089667946,0.33327350916498305
0.04496288556147367,0.3872019861923254,0.45670182244509033
0.04546338606197417,0.45974299727569795,0.4805382114750698
0.045963886562474666,0.4766326899217424,0.4918624250145834
0.04646438706297517,0.44543531628124905,0.49215099005698054
0.046964887563475666,0.3755921576750935,0.4932126604626107
0.04746538806397617,0.2698672219050035,0.4787868432798739
0.047965888564476665,0.13336839571021436,0.4206158484934562
0.04846638906497717,-0.01663849791525434,0.1493249065087487
0.048966889565477664,-0.1629457239109811,-0.11934745414830297
0.04946739006597817,-0.28737157797849394,-0.3398167779254593
0.04996789056647867,-0.39732109986000197,-0.46768300763165127
0.05046839106697917,-0.45606123649661684,-0.4897788620047387
0.05096889156747967,-0.47524165475826524,-0.4879598017762277
0.051469392067980166,-0.4470512150462602,-0.4889216374020348
0.05196989256848067,-0.37441544018681644,-0.48797256114937576
0.052470393068981165,-0.268522155802742,-0.48140946257442063
0.05297089356948167,-0.1298830862194123,-0.4114670834783406
0.053471394069982164,0.02170984511542441,-0.14958732178707473
0.05397189457048267,0.1588815933064383,0.12049583561841216
0.05447239507098317,0.2973410505923755,0.345834575269798
0.05497289557148367,0.39274369693769867,0.4616438840220835
0.05547339607198417,0.4631112024597482,0.4816734956051031
0.055973896572484666,0.475688762479695,0.4952523135783402
0.05647439707298517,0.44715148599494176,0.4916521619953726
0.05697489757348567,0.3724860103766909,0.4960260745354944
0.05747539807398616,0.2616351484921084,0.4862095872310527
0.057975898574486665,0.12920778551769144,0.4171713083537761
0.05847639907498717,-0.018638954993096393,0.14627378437795224
0.05897689957548767,-0.16397452485514324,-0.12581693403704375
0.059477400075988174,-0.30001053634739355,-0.3424972042036667
0.05997790057648866,-0.40048614276886674,-0.46624874420474194
0.060478401076989166,-0.46496418838791803,-0.4833874833961496
0.06097890157748967,-0.4813997836516176,-0.4902635698022254
0.06147940207799017,-0.4484747473511959,-0.49076105719553575
0.06197990257849066,-0.37902045511275617,-0.4935684137931502
0.062480403078991165,-0.2591716013667275,-0.47365016151521105
0.06298090357949167,-0.12843020031836216,-0.42119489506287033
0.06348140407999217,0.02134852836549651,-0.14233690211564673
0.06398190458049267,0.16753883493407834,0.12537964993083656
0.06448240508099316,0.29313908481298434,0.34637838243878805
0.06498290558149367,0.40355554417189077,0.4628044584776511
0.06548340608199417,0.45733598180525364,0.4836240525550873
0.06598390658249467,0.4749790528344711,0.49340365318276264
0.06648440708299516,0.4458689146331065,0.49277906730586907
0.06698490758349566,0.3659907620774328,0.4837352346736003
0.06748540808399617,0.25953211431468,0.4829739087446696
0.06798590858449667,0.12936014603685334,0.41121930380375477
0.06848640908499717,-0.025119152154112277,0.14544397856368824
0.06898690958549766,-0.16672122008771334,-0.12124951544032
0.06948741008599817,-0.29309931844250126,-0.34820064509791104
0.06998791058649867,-0.4008907874764485,-0.46726894923109336
0.07048841108699917,-0.462079544677016,-0.4886870597821746
0.07098891158749966,-0.47583374191183275,-0.4923620311859436
0.07148941208800016,-0.44321914835576337,-0.4910278326804227
0.07198991258850067,-0.3764891305014084,-0.4956916786070722
0.07249041308900117,-0.2565340117172498,-0.4823561132705239
0.07299091358950167,-0.12459667491129665,-0.40987689627674123
0.07349141409000216,0.020585186784836156,-0.13047751451797818
0.07399191459050267,0.17162636511263452,0.1335593221705711
0.07449241509100317,0.2998439903986379,0.3484612304595535
0.07499291559150367,0.40463841556304136,0.4728240250622933
0.07549341609200416,0.4616835473598398,0.48875090819808065
0.07599391659250467,0.4712446648802685,0.49020243930446694
0.07649441709300517,0.4505234470200654,0.49106554448386236
0.07699491759350567,0.37167770179226917,0.49245572325570836
0.07749541809400616,0.2602035753652153,0.47869610910077603
0.07799591859450666,0.1273229611935319,0.4180316229297427
0.07849641909500717,-0.026483497267440842,0.13539832163673768
0.07899691959550767,-0.16814895669770405,-0.12105118781441378
0.07949742009600817,-0.29860104969751694,-0.34660985486123996
0.07999792059650866,-0.3994240013544208,-0.4673214812422088
0.08049842109700917,-0.4603029747605178,-0.49012397523648665
0.08099892159750967,-0.4707916427142239,-0.49627441060927313
0.08149942209801017,-0.4489777081617648,-0.49658507731645574
0.08199992259851066,-0.36849763993673784,-0.4924067879800582
0.08250042309901126,-0.25943879680254467,-0.48482550275592473
0.08300092359951167,-0.1223877806021035,-0.4041007542759693
0.08350142410001217,0.02687045838849373,-0.1377608090965549
0.08400192460051267,0.17155101203187653,0.13048776616606353
0.08450242510101316,0.3036255711960569,0.34977038401686167
0.08500292560151376,0.40495193748873304,0.4708404609620489
0.08550342610201427,0.46233783192569167,0.4883238170481096
0.08600392660251467,0.4777032700528993,0.4817044490253202
0.08650442710301516,0.44565689436347766,0.48267134374793225
0.08700492760351576,0.3734265044609538,0.4871180511333746
0.08750542810401626,0.25466807436783523,0.47938336036633583
0.08800592860451677,0.1212755993054236,0.4142546947553583
0.08850642910501717,-0.024650429397464434,0.13133294069941928
0.08900692960551766,-0.17705736699512062,-0.1338615000757683
0.08950743010601826,-0.30341674606786156,-0.3712587401350458
0.09000793060651877,-0.40184418591942045,-0.46267329258322953
0.09050843110701927,-0.4599605612418571,-0.48120913134119375
0.09100893160751966,-0.4762128563186534,-0.4890154959693291
0.09150943210802026,-0.4434656417978915,-0.4990676392517522
0.09200993260852076,-0.37264845167763805,-0.49878048807031083
0.09251043310902127,-0.2519498125206296,-0.48814865891445397
0.09301093360952177,-0.11492627943929813,-0.4078020110479909
0.09351143411002216,0.025859390640309433,-0.12931491943617768
0.09401193461052276,0.1760415746323553,0.13813067452231728
0.09451243511102327,0.3033801662014059,0.35135528075493927
0.09501293561152377,0.4083649425354066,0.46356901668467365
0.09551343611202427,0.4648718550290144,0.4860796380339811
0.09601393661252476,0.48057524150995534,0.49372084723998877
0.09651443711302526,0.45019111354539265,0.4869682530081236
0.09701493761352577,0.36685382323330923,0.48913291238238576
0.09751543811402627,0.2559796294435494,0.47709589417580806
0.09801593861452677,0.11608550537802276,0.409387274409202
0.09851643911502726,-0.032150289104185284,0.12450862732347039
0.09901693961552777,-0.1753583944979727,-0.14291875663395084
0.09951744011602827,-0.30381537865484903,-0.3653390628606845
0.10001794061652877,-0.40348312796844615,-0.4663171748421509
0.10051844111702926,-0.4620959307901778,-0.48836805151872137
0.10101894161752976,-0.47620203802828415,-0.499229862454856
0.10151944211803027,-0.43792493461222515,-0.49252466333363415
0.10201994261853077,-0.36492977639885366,-0.4906438549592856
0.10252044311903127,-0.25450772301092317,-0.47767877173480755
0.10302094361953176,-0.11491918881305667,-0.4016908636885452
0.10352144412003227,0.034035516810459104,-0.12245558731070594
0.10402194462053277,0.17735676906387057,0.14456816159194116
0.10452244512103327,0.30917789482766367,0.3605623285790435
0.10502294562153376,0.40389058483368107,0.47074321933854263
0.10552344612203426,0.46341730962566036,0.48712808606811864
0.10602394662253477,0.4719597586446925,0.4944545821215631
0.10652444712303527,0.4383491082914137,0.4885642690901742
0.10702494762353577,0.3632597707813337,0.49194170285945577
0.10752544812403626,0.2501682552414289,0.4780553458110762
0.10802594862453677,0.1140407913766079,0.3972511423063135
0.10852644912503727,-0.03515778001977058,0.11780264123290587
0.10902694962553777,-0.17605011250546443,-0.14143841350970138
0.10952745012603826,-0.308037802181078,-0.35979045850753305
0.11002795062653876,-0.4020559759018059,-0.4669744320381876
0.11052845112703927,-0.46805949252229856,-0.47949816871659023
0.11102895162753977,-0.47134293917594267,-0.48542701681220807
0.11152945212804027,-0.44494564747643855,-0.4951960110220703
0.11202995262854076,-0.365441811279153,-0.4896901949869503
0.11253045312904127,-0.2550586620005234,-0.48198294967301597
0.11303095362954177,-0.10961377944875593,-0.3959782736599778
0.11353145413004227,0.033622101106418445,-0.11299614530423106
0.11403195463054276,0.1823218298775325,0.1453078341835013
0.11453245513104326,0.30528157959449664,0.367036229828891
0.11503295563154377,0.409038124498443,0.46997496449795273
0.11553345613204427,0.4528710396650727,0.48984996311554696
0.11603395663254477,0.476491950070583,0.4889342163965516
0.11653445713304526,0.43407390579115646,0.48913711068333143
0.11703495763354577,0.3651937151439669,0.4928831418494699
0.11753545813404627,0.24895529680174677,0.48160922470748396
0.11803595863454677,0.11144022880696619,0.3946672759970172
0.11853645913504728,-0.03844306619753495,0.10236754530362818
0.11903695963554776,-0.17764679951680715,-0.14408280743438268
0.11953746013604825,-0.3103757205190756,-0.3670396434651444
0.12003796063654877,-0.4060980393915271,-0.4687026589862466
0.12053846113704926,-0.4608641890696717,-0.4876995057238801
0.12103896163754978,-0.4774595383248041,-0.49293987307376647
0.12153946213805027,-0.44392331616344405,-0.49375313147066513
0.12203996263855076,-0.36735372192619603,-0.49310595250981665
0.12254046313905127,-0.24914203219546224,-0.47712552224990695
0.12304096363955176,-0.10893600212449353,-0.39575291756529446
0.12354146414005228,0.03472948159934506,-0.11241287737301575
0.12404196464055277,0.18456419107261726,0.14871795983042133
0.12454246514105326,0.31270060743062217,0.3604705279375951
0.1250429656415538,0.40167687437704824,0.4660212902694487
0.12554346614205428,0.46664545902604526,0.4872366353303581
0.1260439666425548,0.47061397382053766,0.4914526633463769
0.12654446714305528,0.43613448786409437,0.488997861058743
0.12704496764355577,0.36413277067950944,0.4948446259200391
0.1275454681440563,0.2449763968006712,0.4776841540087803
0.12804596864455678,0.11087573098225778,0.39709405691427946
0.12854646914505727,-0.03383973195229091,0.10452151275896752
0.12904696964555779,-0.18734954256533434,-0.1485908255450157
0.12954747014605827,-0.31189322094007393,-0.3594193992072203
0.1300479706465588,-0.4098735276344161,-0.47625659015242455
0.13054847114705928,-0.4662914514005113,-0.48724537530843065
0.13104897164755977,-0.47053683560546555,-0.4888193231204151
0.1315494721480603,-0.4357687151898208,-0.4951429327855491
0.13204997264856078,-0.36017151327355407,-0.4911047770746823
0.1325504731490613,-0.24285088703667523,-0.48251113871013696
0.13305097364956178,-0.10531795837186664,-0.3944387325670702
0.13355147415006227,0.040790626513574,-0.09913495172370203
0.1340519746505628,0.18603674337325798,0.15984520616384765
0.13455247515106328,0.3122026660109628,0.37771512840520766
0.1350529756515638,0.4100382333694958,0.46679150252386264
0.13555347615206428,0.46334993539492847,0.49634287900011875
0.13605397665256477,0.4724529568540921,0.4966981631836256
0.1365544771530653,0.43578758404005613,0.49353584662045724
0.13705497765356578,0.3556394384659056,0.48903897904368765
0.13755547815406627,0.2383410284716202,0.4849268001198871
0.13805597865456679,0.10287327463853017,0.3843205015714231
0.13855647915506727,-0.04763723856608366,0.09492808180160933
0.1390569796555678,-0.18927465109950684,-0.1626485368338973
0.13955748015606828,-0.3175996163552701,-0.3768000431837423
0.14005798065656877,-0.406458401681596,-0.47402257402182
0.1405584811570693,-0.4666933568321915,-0.48160826048848976
0.14105898165756978,-0.47505334803716465,-0.4952580755354177
0.1415594821580703,-0.4360130093838662,-0.49990276141875667
0.14205998265857078,-0.35894300463002643,-0.4960435705423506
0.14256048315907127,-0.2444271731391379,-0.47443231845640793
0.1430609836595718,-0.10048596434080377,-0.3919918313496835
0.14356148416007228,0.046192694954720566,-0.09847895499821371
0.1440619846605728,0.19050380691418503,0.1662773233133104
0.14456248516107328,0.31545752529476845,0.3718175640382047
0.14506298566157377,0.4136030235393696,0.46064257303843786
0.1455634861620743,0.4600838932969674,0.4948197746463106
0.14606398666257478,0.47665685729935003,0.4972045413417954
0.14656448716307527,0.43862627584551533,0.48564051149830745
0.14706498766357579,0.35872574602592133,0.48747340415985313
0.14756548816407628,0.24502702063787263,0.481517299073185
0.1480659886645768,0.10273356017007577,0.3909384347331669
0.14856648916507728,-0.04115138609345417,0.09363174393527374
0.14906698966557777,-0.18859302335694125,-0.16654937356950048
0.1495674901660783,-0.315970017829121,-0.3809185154760638
0.15006799066657878,-0.41106590312265756,-0.4627346477737236
0.1505684911670793,-0.4673586781231143,-0.48440931302372414
0.15106899166757978,-0.4781865203540925,-0.48526339480824354
0.15156949216808027,-0.43069439394243264,-0.486106891872101
0.1520699926685808,-0.3581318451566789,-0.48719647780226677
0.15257049316908128,-0.24077070209003743,-0.4807904608563068
0.15307099366958177,-0.10228739253306375,-0.38223773322399374
0.15357149417008228,0.0522630827896668,-0.08956198861060005
0.15407199467058277,0.19258440966445142,0.1711053462809384
0.1545724951710833,0.3159099091537338,0.38182230791539173
0.15507299567158378,0.41459646337614053,0.46915202425147445
0.15557349617208427,0.46756711680255253,0.4875856183475207
0.15607399667258479,0.4799864104792932,0.4878990936578262
