Time,Vin,Vout
0.005081096843627427,-0.007610396809950054,-0.0005593633571962354
0.0055815973441279264,0.1545627922191916,0.006199205246129098
0.006082097844628427,0.2963333294980844,0.00850647927106391
0.006582598345128927,0.3992291147315123,0.01687446401336695
0.007083098845629427,0.47736855442592896,0.02798140602826819
0.007583599346129927,0.49853496629729277,0.04260771226290144
0.008084099846630426,0.4784339977047418,0.06226961166948116
0.008584600347130926,0.4011828624730171,0.0798463414547065
0.009085100847631426,0.29507420643536125,0.09017509722689072
0.009585601348131927,0.1503533427886174,0.10396929991684849
0.010086101848632427,-0.001629459014163784,0.11164909809570386
0.010586602349132928,-0.1611478004740618,0.10808824056823807
0.011087102849633428,-0.29573667456671654,0.09610546682457197
0.011587603350133927,-0.4056903076450463,0.08104004612828256
0.012088103850634427,-0.48454626682971036,0.06095958838330314
0.012588604351134926,-0.4995443269446861,0.03163309350868085
0.013089104851635426,-0.47633364373060466,0.004624045191257626
0.013589605352135927,-0.3986319266853827,-0.02399018398595271
0.014090105852636427,-0.29225397798298797,-0.04651233468291921
0.014590606353136927,-0.14973308416146347,-0.06731077393205169
0.015091106853637426,0.002133383150961382,-0.08037075701527512
0.015591607354137926,0.15479218117656013,-0.08838694537441771
0.016092107854638427,0.29836671379980445,-0.08660120532942087
0.016592608355138927,0.4117729742704983,-0.07761642067828785
0.017093108855639427,0.47562000231394913,-0.06559854005736765
0.017593609356139926,0.499910424988703,-0.0452402811712359
0.01809410985664043,0.4717985215060707,-0.027282488623165776
0.018594610357140925,0.40290156169696884,-0.0032595547817248355
0.01909511085764143,0.2880995880254814,0.009373463824884397
0.019595611358141925,0.146478023212446,0.02344428758219708
0.020096111858642428,-0.0032074862110453056,0.03105104564757745
0.020596612359142927,-0.16314193027911222,0.03127067475649013
0.021097112859643427,-0.2956504042664301,0.026113851222961993
0.02159761336014393,-0.40775236899580825,0.010004156453817708
0.022098113860644426,-0.4760637924185586,-0.009570563652047035
0.02259861436114493,-0.5016070227599098,-0.03250294650928766
0.023099114861645426,-0.4722536135601681,-0.0579900635975256
0.02359961536214593,-0.3991578026913567,-0.08280651057409584
0.024100115862646425,-0.2910234773844632,-0.10724554041672532
0.024600616363146928,-0.14931198913849097,-0.1264989834022081
0.025101116863647424,0.003269551574855154,-0.14122095726371822
0.025601617364147927,0.16148076852184548,-0.14379071174990254
0.026102117864648423,0.2950347243097038,-0.13940566601519366
0.026602618365148926,0.40716971198007496,-0.13010249377712604
0.02710311886564943,0.4797236313956463,-0.11450043372792348
0.027603619366149926,0.49823391436567704,-0.09342961000043654
0.02810411986665043,0.47265379739104735,-0.07468974539950722
0.028604620367150925,0.40047629176224137,-0.05084475715748749
0.029105120867651428,0.2826537361487921,-0.031493962253330995
0.029605621368151924,0.15002341451831763,-0.017060866038643742
0.030106121868652427,-0.006290162328752396,-0.007976921342552587
0.030606622369152924,-0.1608881878755064,-0.006444414923498282
0.031107122869653427,-0.2989041591225687,-0.011267470012742836
0.03160762337015393,-0.41089792681444065,-0.025101343811674098
0.032108123870654426,-0.4763190025300981,-0.04200486144966529
0.03260862437115493,-0.49722378355456925,-0.0652446905522368
0.033109124871655425,-0.4697122990227645,-0.09107303339423335
0.03360962537215593,-0.4008869765358417,-0.11695336327509628
0.034110125872656424,-0.2885938115614958,-0.13991274471997675
0.03461062637315693,-0.1441805462596409,-0.15667117145601125
0.035111126873657424,0.007220153547613154,-0.1674422188824868
0.03561162737415793,0.16274381886428255,-0.17122510367750451
0.03611212787465843,0.3074128579324778,-0.1674044718172916
0.036612628375158926,0.40534006534390743,-0.15393475853809763
0.03711312887565942,0.47826635919192295,-0.14238051309307306
0.037613629376159925,0.49472746247597943,-0.1201514702112396
0.03811412987666043,0.46505709513325905,-0.09589745271919624
0.038614630377160925,0.39943797643416057,-0.07201511346550568
0.03911513087766143,0.2838952015025263,-0.052626070998032466
0.039615631378161924,0.14707941922059414,-0.04068231513327219
0.04011613187866243,-0.01837192572274409,-0.02947519940799176
0.04061663237916292,-0.16864605369649524,-0.027303330441225012
0.041117132879663426,-0.303133621638671,-0.03211634229378837
0.04161763338016392,-0.4115698727824659,-0.046208788929703974
0.042118133880664425,-0.4760470245337721,-0.06223843837143628
0.04261863438116493,-0.4988061169832772,-0.08517680061466162
0.043119134881665425,-0.47056876933902997,-0.11042693218389349
0.04361963538216593,-0.40070998409431324,-0.13536273275194557
0.044120135882666424,-0.2807712693872143,-0.15595905842255023
0.04462063638316693,-0.1397565906968908,-0.1736548228206423
0.04512113688366742,0.01914809526085477,-0.18195898425932822
0.045621637384167926,0.16970076118484514,-0.1849190540435881
0.04612213788466842,0.305753673640427,-0.18275328184766884
0.046622638385168926,0.407925345212003,-0.16904503355673067
0.04712313888566942,0.4777798218517405,-0.1515338428377065
0.047623639386169925,0.4992940259535694,-0.13039016152862773
0.04812413988667043,0.4725799795733467,-0.10482146178986675
0.048624640387170924,0.39970375259586727,-0.08654733336457769
0.04912514088767143,0.28084133078319823,-0.06220417716790953
0.04962564138817192,0.14037388371053444,-0.04623865048438465
0.050126141888672426,-0.013674865909188103,-0.038311122069437216
0.05062664238917292,-0.16542406032248824,-0.037589949763647594
0.051127142889673426,-0.30308551129606576,-0.04244718399638407
0.05162764339017392,-0.4121780983801265,-0.05412734729840391
0.052128143890674425,-0.4767406405137547,-0.07040827322313609
0.05262864439117493,-0.49203178005970855,-0.09546166234337275
0.053129144891675424,-0.47338855305120464,-0.11821056999157259
0.05362964539217593,-0.3936216821388717,-0.14268137393497543
0.05413014589267642,-0.28463214139426696,-0.16303593434811878
0.054630646393176927,-0.1432769984065556,-0.18135218670932496
0.05513114689367742,0.011294903514275943,-0.18857988905002257
0.055631647394177926,0.16594102628998217,-0.1900734731683284
0.05613214789467842,0.30756178759141717,-0.18693563897302856
0.056632648395178925,0.4081208758763287,-0.17451613569993757
0.05713314889567943,0.4788916526678019,-0.1598669587151374
0.057633649396179924,0.5019778741794625,-0.136466880052892
0.05813414989668043,0.46693715794632795,-0.11362185423076857
0.058634650397180924,0.39230635655313467,-0.09088163697950764
0.05913515089768143,0.2831396117743175,-0.06923888843660586
0.05963565139818192,0.13276917800663263,-0.05544449506788849
0.060136151898682426,-0.0186449114300728,-0.043814273943810045
0.06063665239918292,-0.17219564235882936,-0.04247992005214903
0.061137152899683425,-0.30933387114393407,-0.04836907236873328
0.06163765340018393,-0.4102306626080837,-0.059574097105768054
0.062138153900684424,-0.4811964412673898,-0.07988902039265625
0.06263865440118493,-0.4979409941911734,-0.10078384507861216
0.06313915490168542,-0.4603056744391106,-0.12357351006679729
0.06363965540218593,-0.3964163267238221,-0.14825085187832096
0.06414015590268643,-0.2853788752419784,-0.16772077255113851
0.06464065640318693,-0.14023562568041686,-0.1853953451036475
0.06514115690368742,0.020489208379274433,-0.19265781987453837
0.06564165740418793,0.17062397077463498,-0.19826630654914712
0.06614215790468843,0.30749924424336517,-0.1919914160200202
0.06664265840518893,0.4115200042385543,-0.1771986024712264
0.06714315890568943,0.48042675844643984,-0.15942863225890472
0.06764365940618992,0.49598496670246367,-0.13867582681885535
0.06814415990669043,0.46865952525459303,-0.11624759877154907
0.06864466040719093,0.39595430603783144,-0.09333780705360879
0.06914516090769142,0.2779818472992148,-0.07248266789400622
0.06964566140819192,0.13260632468273692,-0.058798535796920404
0.07014616190869243,-0.020752793999860852,-0.04960972168429403
0.07064666240919293,-0.1665262691271977,-0.04696886262404776
0.07114716290969343,-0.31330106846023126,-0.050861643886091226
0.07164766341019392,-0.4160803944511683,-0.06353531009587302
0.07214816391069442,-0.4742078165882278,-0.08003007539929807
0.07264866441119493,-0.5003834766860475,-0.1040034622536793
0.07314916491169543,-0.4655850209757587,-0.12550579127212946
0.07364966541219592,-0.38935344096208924,-0.1510894154687604
0.07415016591269642,-0.2790868007734498,-0.17073189255361487
0.07465066641319693,-0.133945959210345,-0.18710006312539834
0.07515116691369743,0.020715169671027264,-0.19483789213088878
0.07565166741419793,0.1731436216475168,-0.19742606512958463
0.07615216791469842,0.31244398960036945,-0.1923153651321069
0.07665266841519892,0.41931035885820045,-0.18067503508467325
0.07715316891569943,0.4786875125333183,-0.1613923346300013
0.07765366941619993,0.49931562559632287,-0.1391459573627047
0.07815416991670042,0.4628792767412988,-0.1181729759130094
0.07865467041720092,0.38488728204522615,-0.09341404666190248
0.07915517091770143,0.2785788932257031,-0.07380202787659214
0.07965567141820193,0.13496440132113618,-0.059331156049511134
0.08015617191870243,-0.028309530555226208,-0.049280702777650426
0.08065667241920292,-0.18119845023289846,-0.048164667955155754
0.08115717291970342,-0.30403717483093196,-0.05029395814722743
0.08165767342020393,-0.4154767612491488,-0.06494567340157646
0.08215817392070443,-0.4779526826662051,-0.0845292945524825
0.08265867442120492,-0.4972999973537532,-0.10414597838527269
0.08315917492170542,-0.46579083260378706,-0.12922592382493836
0.08365967542220593,-0.3923797282552824,-0.14922424713748508
0.08416017592270643,-0.2679855617135843,-0.17327778025123639
0.08466067642320693,-0.12926002000377956,-0.18733450910822072
0.08516117692370742,0.026558993770428228,-0.1969380505610762
0.08566167742420792,0.177135298823786,-0.19746704497873516
0.08616217792470843,0.31588615217730537,-0.19370255529985936
0.08666267842520893,0.4162400694413891,-0.18293725012922094
0.08716317892570942,0.4798430109382785,-0.16277580776371442
0.08766367942620992,0.5072785582902775,-0.13987544762273518
0.08816417992671043,0.4687927305848383,-0.11658892318003557
0.08866468042721093,0.38948589863668726,-0.09491830838572392
0.08916518092771142,0.2632766489278157,-0.07280874410795767
0.08966568142821192,0.13042372077109995,-0.058314802133578
0.09016618192871242,-0.028448028015373755,-0.04925619883297741
0.09066668242921293,-0.18354851032217553,-0.0476436234014304
0.09116718292971343,-0.31611673297205034,-0.052395266003339214
0.09166768343021392,-0.41990305947622636,-0.0649004496995603
0.09216818393071442,-0.4792050738060324,-0.08415893257080428
0.09266868443121493,-0.4964726252978263,-0.1049686233481322
0.09316918493171543,-0.46354785716617497,-0.13229929020845718
0.09366968543221592,-0.3828453732245415,-0.1535511988411094
0.09417018593271652,-0.2666672200689305,-0.1749302592278996
0.09467068643321692,-0.12990097061288733,-0.18721445104456316
0.09517118693371743,0.029195045646812957,-0.19758073681314103
0.09567168743421793,0.18314748201356998,-0.19988986849631962
0.09617218793471842,0.3177372525246986,-0.19311916602603058
0.09667268843521902,0.41862363319743084,-0.18183011010818922
0.09717318893571952,0.4853153497301511,-0.16045983047271745
0.09767368943621993,0.4973090243543114,-0.14080805960963802
0.09817418993672042,0.4678824555462949,-0.1170261290256388
0.09867469043722102,0.38459419130359335,-0.09504665650188744
0.09917519093772152,0.2722439887426643,-0.07168009045795208
0.09967569143822202,0.1206105236850287,-0.05957011497856828
0.10017619193872243,-0.03174680526920324,-0.049248147241156226
0.10067669243922292,-0.1817357597218202,-0.04592694622888573
0.10117719293972352,-0.31664238215452817,-0.055716846681983574
0.10167769344022402,-0.4181125757443844,-0.06548665237726882
0.10217819394072453,-0.4768855135769437,-0.08323131478392445
0.10267869444122492,-0.49814324408284794,-0.10587143248542366
0.10317919494172552,-0.46406350051005085,-0.12877682383469163
0.10367969544222602,-0.38590623015564746,-0.15406487834070115
0.10418019594272653,-0.26735518794301466,-0.17133531376244435
0.10468069644322703,-0.13089048739839676,-0.18816003111767554
0.10518119694372742,0.036383312536887556,-0.1962483542357291
0.10568169744422802,0.1861189339330963,-0.19925274988541122
0.10618219794472852,0.3154299873490856,-0.19226689201601155
0.10668269844522903,0.4190221419580317,-0.18006838136504985
0.10718319894572953,0.4826877502655128,-0.16164297641292136
0.10768369944623002,0.49514436238484444,-0.14114580295517626
0.10818419994673052,0.4637009647881974,-0.11642109849477424
0.10868470044723103,0.38294579478905777,-0.09381063784791074
0.10918520094773153,0.27008879828986543,-0.06965688319661514
0.10968570144823203,0.12221548091184581,-0.05957827850232716
0.11018620194873252,-0.03850859880418424,-0.0505414039250526
0.11068670244923302,-0.18768875033857332,-0.048046591192618955
0.11118720294973353,-0.31751654273088314,-0.05302787663060629
0.11168770345023403,-0.4221771843174827,-0.06671034639339518
0.11218820395073452,-0.4830189612986768,-0.08484233898944307
0.11268870445123502,-0.5021307669547211,-0.10829866791318792
0.11318920495173553,-0.46284817517310317,-0.13267901999024181
0.11368970545223603,-0.37802993474039076,-0.15361888502264903
0.11419020595273653,-0.26732358897811964,-0.17586663131186744
0.11469070645323702,-0.12097770191491324,-0.19021409575905363
0.11519120695373752,0.04145459979715782,-0.19917793770105138
0.11569170745423803,0.1880759289242636,-0.20034568181242388
0.11619220795473853,0.3169446367027343,-0.19443473691314436
0.11669270845523902,0.42325038431027684,-0.1808216263403862
0.11719320895573952,0.4863629039815303,-0.16267686855253488
0.11769370945624003,0.5024693894676695,-0.14097616339804325
0.11819420995674053,0.4556028978081561,-0.11813360878624884
0.11869471045724103,0.38127804585614794,-0.09363163414699764
0.11919521095774152,0.26520174330878726,-0.07380194383786993
0.11969571145824202,0.11837499927998917,-0.05757442794412851
0.12019621195874253,-0.0413096183112694,-0.049857392520760144
0.12069671245924303,-0.19518991525014245,-0.04914484804863104
0.12119721295974352,-0.3225895742890044,-0.054820232956798734
0.12169771346024402,-0.4204799575279712,-0.06761657707370083
0.12219821396074453,-0.487303493155538,-0.08607494182759858
0.12269871446124503,-0.49845473973407095,-0.10849331513136425
0.12319921496174553,-0.46120990931170885,-0.13185525965785816
0.12369971546224602,-0.3863137240153468,-0.15199285280083177
0.12420021596274652,-0.2568178430786523,-0.1726642556431339
0.12470071646324703,-0.1165649573623667,-0.19017142420459865
0.12520121696374753,0.03527998152636116,-0.19854736249766716
0.12570171746424802,0.1949854265002413,-0.19987017575546648
0.12620221796474854,0.3245605523536006,-0.1935010850325838
0.12670271846524903,0.4296902303090143,-0.1812359035393563
0.12720321896574954,0.490127734525581,-0.15966890115312327
0.12770371946625003,0.49261804218106026,-0.1407083426720288
0.12820421996675052,0.4604994473124358,-0.11533047598517648
0.12870472046725104,0.3821614392326353,-0.09241170403859739
0.12920522096775153,0.264782762796104,-0.0731275371599512
0.12970572146825204,0.1199822383893661,-0.05971132589371404
0.13020622196875253,-0.03950264265550256,-0.04997721804660755
0.13070672246925302,-0.19914879306216615,-0.048297093935788946
0.1312072229697535,-0.3187652950766876,-0.0559863703829126
0.13170772347025403,-0.4221245218772601,-0.06885271938081025
0.13220822397075452,-0.4887411209788192,-0.08648215394347844
0.13270872447125504,-0.5001145931158132,-0.10927883607926245
0.13320922497175552,-0.46037814826532003,-0.1327136842628931
0.133709725472256,-0.37688041349109824,-0.15515601910500385
0.13421022597275653,-0.25908759678776344,-0.17585913957914567
0.13471072647325702,-0.11927413208890042,-0.1890380011904815
0.13521122697375754,0.03887849969691566,-0.20012639283903866
0.13571172747425803,0.18921179831025542,-0.20059030954562007
0.13621222797475852,0.3206154933162323,-0.19329753067287547
0.13671272847525903,0.4348870026818958,-0.1838738573398101
0.13721322897575952,0.4878171933423916,-0.15890216260227133
0.13771372947626004,0.4935060993847212,-0.13966365879191991
0.13821422997676053,0.4615149080548316,-0.1161033613480769
0.13871473047726102,0.3737388686776728,-0.0937355372534707
0.13921523097776153,0.2593301861001624,-0.07344595382579866
0.13971573147826202,0.11543074783873553,-0.057900720492146056
0.1402162319787625,-0.046723740480167836,-0.047695454866216576
0.14071673247926303,-0.19454363203167008,-0.04820138301480072
0.14121723297976352,-0.32762984663153066,-0.05420825975109628
0.14171773348026404,-0.42306982815100946,-0.06970104116408825
0.14221823398076452,-0.48728238699975424,-0.08814001281377246
0.142718734481265,-0.4985995892509985,-0.1106201166853724
0.14321923498176553,-0.45329054381436146,-0.13306109503938068
0.14371973548226602,-0.37552230440922013,-0.15503649956675342
0.14422023598276654,-0.25858593251809764,-0.17548183338467696
0.14472073648326703,-0.1136642713461195,-0.1904534877872506
0.14522123698376752,0.04392717227642554,-0.19767256507444625
0.14572173748426803,0.2004497021457853,-0.19958966469350314
0.14622223798476852,0.32410487764959894,-0.19312534231842257
0.14672273848526904,0.4284822483371616,-0.17909409736884596
0.14722323898576953,0.485464297398713,-0.1608091202974554
0.14772373948627002,0.49757154861865255,-0.14026930816079358
0.14822423998677053,0.45554803676354605,-0.11509996152026468
0.14872474048727102,0.37919896329219654,-0.09265239482060539
0.1492252409877715,0.25307369711570865,-0.07355770185300117
0.14972574148827203,0.1131646243373781,-0.059381328346126826
0.15022624198877252,-0.046079698416458696,-0.048466102528983555
0.15072674248927304,-0.1941313453636826,-0.049459167617678074
0.15122724298977352,-0.3273206360565688,-0.0540019726801585
0.15172774349027401,-0.43269605465469935,-0.06858957205090173
0.15222824399077453,-0.48338342346540375,-0.0877976470577434
0.15272874449127502,-0.5027014645132114,-0.10657709640972886
0.15322924499177554,-0.45861555513153096,-0.1338329486712958
0.15372974549227603,-0.37435671577602253,-0.15452222944137314
0.15423024599277652,-0.25555031588901306,-0.17522526643357383
0.15473074649327703,-0.10932236190245247,-0.19194410433191125
0.15523124699377752,0.04803107816066188,-0.19765403397751266
0.15573174749427804,0.19648480726825293,-0.20018779041359147
0.15623224799477853,0.33723827691962593,-0.19452601828716756
0.15673274849527902,0.4301928121055029,-0.1773044881674779
0.15723324899577953,0.4852998176969909,-0.16081334506458128
0.15773374949628002,0.49328934172989725,-0.13713677285406206
0.1582342499967805,0.4580922614239111,-0.11557378518663869
0.15873475049728103,0.3732357361187744,-0.09110205888189624
0.15923525099778152,0.2518979538610313,-0.07210220979944842
0.15973575149828204,0.10523847990652568,-0.057621017910347655
0.16023625199878253,-0.04754875158021076,-0.04872759622770781
0.16073675249928301,-0.19812985452821777,-0.04789531617041246
0.16123725299978353,-0.3303089761454734,-0.0565617590650492
0.16173775350028402,-0.42376327494022015,-0.06824345985568916
0.16223825400078454,-0.48646200102456233,-0.08764569145566571
0.16273875450128503,-0.49542273586417807,-0.10844343839930275
0.16323925500178552,-0.45871343605431447,-0.13386845871045108
0.16373975550228603,-0.3729947623617633,-0.15805697708002295
0.16424025600278652,-0.24915615688020099,-0.17775432250554546
0.164740756503287,-0.10231081393308283,-0.19253591224002115
0.16524125700378753,0.04478330371702615,-0.19870136312770845
