Time,Vin,Vout
0.0022229878761854845,-0.0010036002160971347,-0.003246106891472781
0.0027234883766859845,0.1432139489951736,0.07375166655933478
0.0032239888771864846,0.28241001445567754,0.2522628632099136
0.003724489377686984,0.3861155792454833,0.4365135671723598
0.004224989878187485,0.4634023618808274,0.5774343685181861
0.004725490378687984,0.4786259822133112,0.6474065626099328
0.005225990879188484,0.4553312309417881,0.6644488709187708
0.0057264913796889845,0.3876562948203234,0.6146144420441094
0.006226991880189484,0.28079241016815587,0.5051073308955735
0.006727492380689985,0.14657204737111915,0.33186626133629565
0.007227992881190484,-0.0037534032727520694,0.15203987421060672
0.007728493381690985,-0.1494961326192963,-0.06379946261593963
0.008228993882191483,-0.2832734720800313,-0.2587559746374714
0.008729494382691985,-0.39172500522560416,-0.4310903671357623
0.009229994883192484,-0.46441231305284975,-0.5663279414641301
0.009730495383692984,-0.48599553596229694,-0.6479227638713267
0.010230995884193484,-0.4586432492242722,-0.6619575354279947
0.010731496384693985,-0.38708393780501227,-0.6130785974404613
0.011231996885194485,-0.2845885184612868,-0.5006604810203326
0.011732497385694984,-0.14826531345554092,-0.3370266514209866
0.012232997886195484,0.00034259360637923505,-0.14230638827859798
0.012733498386695984,0.15173111501540512,0.06275460451995452
0.013233998887196485,0.2924271227696467,0.26401330269758616
0.013734499387696985,0.3912757050517337,0.4374715114258766
0.014234999888197484,0.460168992574838,0.5759832844512046
0.014735500388697984,0.48253752838050074,0.6456654846701995
0.015236000889198485,0.46085042979544855,0.6625329814073638
0.015736501389698985,0.38782799207558816,0.6202858666180154
0.016237001890199484,0.27932841568538147,0.4957172960104534
0.016737502390699984,0.14599469176613145,0.3448819261193111
0.017238002891200484,-0.010894483767155924,0.15037995799953327
0.017738503391700987,-0.1541802649114681,-0.06605842924744043
0.018239003892201483,-0.287158201686656,-0.25884109534376426
0.018739504392701986,-0.3934167753457525,-0.4435970875848819
0.019240004893202486,-0.4639305556895536,-0.57456907208498
0.019740505393702985,-0.48339338205001936,-0.6420535229053784
0.020241005894203485,-0.45454381082629625,-0.6637722030796459
0.020741506394703985,-0.39306270272803095,-0.6126268526177361
0.021242006895204484,-0.2797760297396784,-0.49594846939590165
0.021742507395704984,-0.14054738860111624,-0.33209339798807685
0.022243007896205483,0.004297115867956636,-0.14212816771539255
0.022743508396705983,0.14672142414361491,0.07068652510500606
0.023244008897206483,0.2866703642855364,0.26935330859674683
0.023744509397706986,0.39087835190569686,0.45020800701543096
0.024245009898207485,0.45938655907575926,0.5698603683234971
0.024745510398707985,0.48166478876375557,0.6554154334008748
0.025246010899208485,0.45689783475226414,0.662979591931341
0.025746511399708984,0.3913528768976528,0.6136297174001358
0.026247011900209484,0.27109027671972863,0.4959915817772705
0.026747512400709984,0.14145278426641247,0.33449112418147614
0.027248012901210483,-0.0042413834948137365,0.1373713020354572
0.027748513401710983,-0.1585523997118802,-0.06964932341074996
0.028249013902211486,-0.28842781843065246,-0.27161417809927
0.028749514402711986,-0.3945746978046209,-0.4418647629815266
0.029250014903212485,-0.45939869030028485,-0.5740245310093594
0.029750515403712985,-0.4752015908878191,-0.641692352048703
0.030251015904213484,-0.45276811257287974,-0.665259182694236
0.030751516404713984,-0.38216340108973024,-0.6066525440988271
0.03125201690521448,-0.27837060885302145,-0.4918540363733406
0.03175251740571498,-0.139692827989819,-0.3355928071845398
0.032253017906215486,0.006051021847536863,-0.1451430310547351
0.03275351840671599,0.15416333957313486,0.06502318887644422
0.033254018907216486,0.294591202601882,0.2754008787365602
0.03375451940771698,0.3967143535254204,0.4468671230365109
0.034255019908217485,0.4606374201788442,0.5802707917384224
0.03475552040871799,0.4810250316244036,0.6536033568204827
0.03525602090921849,0.456663019010441,0.6709929367352195
0.03575652140971898,0.37907098055461946,0.6097367122136426
0.036257021910219484,0.273958193923521,0.4995333885788839
0.03675752241071999,0.1361105980294244,0.33461061459079905
0.03725802291122049,-0.011761673482380022,0.13624392203238853
0.03775852341172098,-0.1586426920795505,-0.07198641463021818
0.03825902391222148,-0.29299728254747387,-0.2786506259491559
0.038759524412721985,-0.3927755830884602,-0.447002651902364
0.03926002491322249,-0.4633787704049633,-0.5740769850134058
0.03976052541372299,-0.4784213279547383,-0.6509247716039603
0.04026102591422348,-0.45263365023406743,-0.6539794034452457
0.040761526414723984,-0.37933312333740343,-0.6107718419098298
0.04126202691522449,-0.27539944300806307,-0.4873789453302217
0.04176252741572499,-0.1329675068011171,-0.33130518509419676
0.04226302791622548,0.010404491661412303,-0.13543426088743402
0.04276352841672598,0.16232008296032172,0.0727700567873642
0.043264028917226485,0.29341265821643003,0.2829786627577498
0.04376452941772699,0.3952762108265309,0.4442649032781933
0.04426502991822748,0.4614489210930879,0.5809352257088931
0.04476553041872798,0.4778912695668511,0.6544907652578439
0.045266030919228484,0.45162648422452994,0.6550613283295136
0.04576653141972899,0.38251323216040356,0.6129750061950615
0.04626703192022949,0.26802672152301416,0.4881336640817999
0.04676753242072998,0.13915948666551667,0.3249074429736645
0.04726803292123048,-0.017702254513579048,0.1419770760531578
0.047768533421730985,-0.16074519199549123,-0.07325274726450474
0.04826903392223149,-0.2969921193257395,-0.27999685363923327
0.04876953442273198,-0.40017649821579004,-0.44533684820330144
0.04927003492323248,-0.462275081788628,-0.5850520659056655
0.049770535423732984,-0.47901101038453525,-0.6451128703877699
0.05027103592423349,-0.4441583804346527,-0.6567901173729443
0.05077153642473399,-0.37318991358760795,-0.6039976430910494
0.05127203692523448,-0.27928252570428114,-0.493941553710998
0.05177253742573498,-0.14069090892765593,-0.3237414929699483
0.052273037926235486,0.009891195732715774,-0.12513132956687037
0.05277353842673599,0.1638961561287183,0.07587753897915077
0.05327403892723648,0.2983826089516163,0.27613836793219154
0.05377453942773698,0.396941366102849,0.44279821069137276
0.054275039928237484,0.45951795061057266,0.584149879689727
0.05477554042873799,0.4818990256211746,0.647892215859247
0.05527604092923849,0.45313908262293656,0.6579591556035272
0.05577654142973898,0.3798037443673036,0.6053159010717004
0.05627704193023948,0.27025690320261575,0.4870903888838935
0.056777542430739986,0.13543988123365788,0.3231737817682436
0.05727804293124049,-0.02117135061839964,0.13369161391965523
0.05777854343174098,-0.16814144055555882,-0.08349264793278025
0.05827904393224148,-0.2978178553424246,-0.28012552053711687
0.058779544432741984,-0.39611944555243256,-0.4563552609034386
0.05928004493324249,-0.4619638691562986,-0.5846906677768607
0.05978054543374299,-0.4823149217512033,-0.6494145156627807
0.06028104593424348,-0.448436533381882,-0.6566393925882319
0.06078154643474398,-0.3813828776476509,-0.6047592253792033
0.061282046935244486,-0.26473276811182345,-0.48748621972375816
0.06178254743574499,-0.13128115276581348,-0.3235867725307529
0.06228304793624548,0.01589998167249919,-0.12736816121690028
0.06278354843674598,0.1631140589821447,0.08116866997795122
0.06328404893724648,0.30209668113650195,0.28513103113213756
0.06378454943774699,0.3977149011260358,0.4588049321401062
0.06428504993824749,0.4630556521362872,0.5836099694060681
0.06478555043874798,0.48079868968725664,0.6578904280720984
0.06528605093924848,0.4501947952550959,0.6598789890789141
0.06578655143974899,0.38187642653068626,0.6013738315462903
0.06628705194024948,0.2680418535324596,0.48933595838706284
0.06678755244074998,0.13369683292737766,0.31438539594981446
0.06728805294125048,-0.024607834819307225,0.1226756291016385
0.06778855344175098,-0.1634953335261514,-0.08999256002227295
0.06828905394225149,-0.30679091491610894,-0.2838611542264664
0.06878955444275198,-0.40020355067085883,-0.45848178802647416
0.06929005494325248,-0.46473906271027376,-0.582883730912599
0.06979055544375298,-0.47933311339501466,-0.6600346057656619
0.07029105594425349,-0.45857156739962235,-0.6590165669505706
0.07079155644475398,-0.38069133528065613,-0.5992061651647751
0.07129205694525448,-0.26054833594209675,-0.47485753813520853
0.07179255744575498,-0.12760013011347024,-0.323396898021637
0.07229305794625548,0.01777252883555587,-0.12105035045553005
0.07279355844675599,0.1668668947484645,0.08574823679109629
0.07329405894725648,0.3009750139937069,0.2913693507173452
0.07379455944775698,0.4008493187783871,0.4595909846370964
0.07429505994825748,0.4622748788965048,0.5857074872648614
0.07479556044875799,0.4806472702666841,0.655635268787825
0.07529606094925848,0.442790461949723,0.6560155804421482
0.07579656144975898,0.377077646683323,0.5983509531723549
0.07629706195025948,0.2573794304973237,0.48483406512198524
0.07679756245075998,0.125934160956244,0.3112409329000422
0.07729806295126049,-0.019240717030398147,0.12253287736313598
0.07779856345176098,-0.17326748849463905,-0.07903093944046807
0.07829906395226148,-0.29760804086373044,-0.2870127748493777
0.07879956445276198,-0.3998110970879049,-0.45758242323766524
0.07930006495326249,-0.46051511927417804,-0.5887824235670583
0.07980056545376298,-0.4753510427185452,-0.6540721864944027
0.08030106595426348,-0.45173759193091667,-0.6582273816509385
0.08080156645476398,-0.379241438674245,-0.5977978712514697
0.08130206695526448,-0.26232890623024524,-0.4805606898783429
0.08180256745576499,-0.12693723444796087,-0.30681167368479534
0.08230306795626548,0.02741289421029934,-0.12031609805937173
0.08280356845676598,0.16806489748857098,0.09074258876461203
0.08330406895726648,0.30283205710894834,0.2916565847558386
0.08380456945776699,0.40276270513803797,0.45754439886616904
0.08430506995826748,0.4661320997605477,0.5847234762616258
0.08480557045876798,0.4799482165102423,0.652092495896908
0.08530607095926848,0.4464139981754627,0.6632768124491608
0.08580657145976898,0.3741666570662035,0.5978166552418683
0.08630707196026947,0.25711257408480176,0.4844567363787078
0.08680757246076998,0.11701581559314352,0.3131334505886961
0.08730807296127048,-0.026639244739145803,0.12096814495614096
0.08780857346177098,-0.17214447130570149,-0.0938903611453072
0.08830907396227149,-0.2994322899132948,-0.28545277406622377
0.08880957446277198,-0.4061790345774972,-0.45124899366093824
0.08931007496327248,-0.4628675099901399,-0.5873988339081094
0.08981057546377298,-0.4829880829213911,-0.6456316975344969
0.09031107596427349,-0.4551305888027962,-0.6598658013708848
0.09081157646477397,-0.3757427711142785,-0.5973074502307585
0.09131207696527457,-0.2672952774386978,-0.47572421443724366
0.09181257746577498,-0.12096788424212976,-0.30680695803697006
0.09231307796627548,0.0271897817186649,-0.1193881201582226
0.09281357846677599,0.17360986477998794,0.09212724759306838
0.09331407896727648,0.3018119559311103,0.29627262478703104
0.09381457946777708,0.40970947543697345,0.46514344758137766
0.09431507996827758,0.4662252098419441,0.5880777196733937
0.09481558046877799,0.48406818598250595,0.6547651094152115
0.09531608096927847,0.4476480057617998,0.6580098105932837
0.09581658146977907,0.36978107811685484,0.5983837956018373
0.09631708197027958,0.2590220118088295,0.4792830104496743
0.09681758247078008,0.11894863668205959,0.3036452189163838
0.09731808297128049,-0.02984079808003103,0.1159919200551735
0.09781858347178098,-0.17893519775094494,-0.09902350999888496
0.09831908397228158,-0.30048635123490874,-0.2914571473496249
0.09881958447278208,-0.40076642425171416,-0.4681243544350117
0.09932008497328258,-0.46648795958338013,-0.5857025047589304
0.09982058547378297,-0.48256186682221924,-0.6542978782073197
0.10032108597428357,-0.4449908000335243,-0.6549422723292101
0.10082158647478408,-0.3702519897769763,-0.5936850960999663
0.10132208697528458,-0.2577919353154367,-0.47526681311603475
0.10182258747578508,-0.11614199710972628,-0.3118330248529697
0.10232308797628548,0.03232557740292855,-0.11106328372089308
0.10282358847678608,0.172825977128372,0.09884356959144959
0.10332408897728658,0.3031794932648639,0.2958940034536734
0.10382458947778708,0.4083265512781759,0.4651845602171296
0.10432508997828759,0.46504589713792444,0.5805170165319506
0.10482559047878807,0.48502435534185073,0.6549481660935778
0.10532609097928858,0.44729946188022135,0.6646892202864995
0.10582659147978908,0.3686047786329365,0.598086222218423
0.10632709198028958,0.25389911004171,0.47590363340692554
0.10682759248079009,0.11604366344489836,0.30779556773150557
0.10732809298129058,-0.031710475941163364,0.1162916862247342
0.10782859348179108,-0.17655082218285617,-0.09551789191125784
0.10832909398229158,-0.3105250623251256,-0.30338316739820126
0.10882959448279209,-0.40746929048742236,-0.46611093687983246
0.10933009498329258,-0.471382338270145,-0.5848151597195607
0.10983059548379308,-0.4899700463010843,-0.6577192286300979
0.11033109598429358,-0.44555445664659943,-0.6595866678484656
0.11083159648479408,-0.3659708281106253,-0.591564003413934
0.11133209698529459,-0.2556922091297753,-0.4695068334099992
0.11183259748579508,-0.11356857510258508,-0.311820034383381
0.11233309798629558,0.033024198639456506,-0.10701261622579573
0.11283359848679608,0.18826463251100478,0.10147193092176908
0.11333409898729659,0.30487884945615873,0.3002611140792438
0.11383459948779708,0.4089470999178234,0.4723646980961097
0.11433509998829758,0.46652509985735036,0.5993380691720818
0.11483560048879808,0.47640899404628057,0.6619146725772269
0.11533610098929858,0.44839807410907134,0.6495841485438107
0.11583660148979909,0.373128014703596,0.5908270478704606
0.11633710199029958,0.25931661968946446,0.46951120216604997
0.11683760249080008,0.1124930002544398,0.30353173242440784
0.11733810299130058,-0.03636835518160059,0.10595276236720061
0.11783860349180109,-0.18382684293226842,-0.10640650665828899
0.11833910399230158,-0.3018716887890486,-0.2990794195415887
0.11883960449280208,-0.4105468455634374,-0.47675797390896285
0.11934010499330258,-0.4665880097059907,-0.5939551596092626
0.11984060549380308,-0.4828438312612323,-0.6585224566446425
0.12034110599430359,-0.4499838218562719,-0.6515828394221098
0.12084160649480408,-0.36801257824777944,-0.588994536777127
0.12134210699530458,-0.25607950761677356,-0.4687627801004929
0.12184260749580508,-0.11390927209039674,-0.3027884051492364
0.12234310799630559,0.038309606590005874,-0.10212335709996845
0.12284360849680608,0.18385260410162751,0.11351911942516914
0.12334410899730658,0.3150927692612984,0.3035270086098682
0.12384460949780708,0.41121642328008506,0.4722674603563822
0.12434510999830758,0.4685207292305019,0.6017816682906182
0.12484561049880809,0.47740500698256316,0.6668785355811002
0.1253461109993086,0.4491274359551289,0.6536042618139228
0.12584661149980908,0.36198032923663526,0.5871361177479909
0.1263471120003096,0.25504142352910986,0.464235478056884
0.1268476125008101,0.11074515467537038,0.297586147833267
0.1273481130013106,-0.03519924974568697,0.0955464664551141
0.1278486135018111,-0.1819192624994604,-0.10573925872337316
0.12834911400231158,-0.31152388995272495,-0.30507589432967863
0.1288496145028121,-0.40802431827765634,-0.4721629617621424
0.1293501150033126,-0.4717974926513341,-0.5874982585709859
0.1298506155038131,-0.4852991042312985,-0.6582011060022409
0.1303511160043136,-0.44717535969330563,-0.6513733963949371
0.13085161650481408,-0.3667976309219695,-0.5988968471371484
0.1313521170053146,-0.2485090666292057,-0.4665155048732084
0.1318526175058151,-0.10894098422636099,-0.29948960610497327
0.1323531180063156,0.0399660817871169,-0.10416027084765143
0.1328536185068161,0.18054878727197082,0.1091634900146977
0.13335411900731658,0.3171747964409135,0.31417634457356536
0.1338546195078171,0.4138575074089812,0.4762860330123728
0.1343551200083176,0.4668593474981333,0.5925891068127148
0.1348556205088181,0.4822943038531169,0.658873513442911
0.1353561210093186,0.44822780668144596,0.6608204732601847
0.1358566215098191,0.36793396692315034,0.5932330713639641
0.1363571220103196,0.24857138403573076,0.4728044772619488
0.1368576225108201,0.1156012134844527,0.293943158720772
0.13735812301132058,-0.04413464455383652,0.09380981046792489
0.1378586235118211,-0.1824386184102841,-0.11201220889524696
0.1383591240123216,-0.31143083810458205,-0.3097555054205457
0.1388596245128221,-0.408372128234083,-0.4768537555435528
0.1393601250133226,-0.46682896504182586,-0.5913898805808571
0.13986062551382308,-0.4771537156997235,-0.6602804593147642
0.1403611260143236,-0.44350716748748137,-0.6550957673974532
0.1408616265148241,-0.36389765333827423,-0.5864028220701518
0.1413621270153246,-0.247125834231111,-0.467743534591536
0.1418626275158251,-0.10265867896075494,-0.2949774241864754
0.14236312801632559,0.036315719748934064,-0.09731805823126992
0.1428636285168261,0.18817541655219316,0.1111420469087849
0.1433641290173266,0.32323987273211174,0.31191662825286937
0.1438646295178271,0.41040081250509924,0.47273967400350986
0.1443651300183276,0.46495644607740355,0.600136004063928
0.1448656305188281,0.47921282334574283,0.6661216246527852
0.1453661310193286,0.4463108023957184,0.651169803523286
0.1458666315198291,0.35980553900866985,0.5856468045124861
0.14636713202032958,0.2404707930577471,0.46361150977493876
0.1468676325208301,0.09782653593676535,0.28633907755290067
0.1473681330213306,-0.04790203866379832,0.09512105605246343
0.1478686335218311,-0.19299753953573393,-0.11589944716809926
0.1483691340223316,-0.31065795671410185,-0.3154620772456958
0.14886963452283208,-0.41622288243278965,-0.4821811378563239
0.1493701350233326,-0.466658083915165,-0.601119980051201
0.1498706355238331,-0.4924983429574694,-0.6634888280311764
0.1503711360243336,-0.4392009189809807,-0.6612866936337891
0.1508716365248341,-0.3645859889273216,-0.5857784514717939
0.15137213702533459,-0.24916088371722758,-0.45273147008431514
0.1518726375258351,-0.10932600235424844,-0.29219005710243423
0.1523731380263356,0.04423189552114582,-0.08773216485419706
0.1528736385268361,0.19630354504306077,0.11937034839956014
0.1533741390273366,0.31512539703196313,0.3214829126644061
0.1538746395278371,0.41690216966686894,0.4784214819956557
0.1543751400283376,0.4680406486741377,0.5924883720282089
0.1548756405288381,0.48304263286336085,0.6591044943810449
0.15537614102933858,0.43676710709933736,0.6490248314452909
0.1558766415298391,0.3660623988578645,0.5879508083599143
0.1563771420303396,0.24350121553125964,0.4607958645000866
0.1568776425308401,0.10616827895879184,0.2863517764731741
0.1573781430313406,-0.048728276578502955,0.08801260471944908
0.15787864353184108,-0.1987975018662814,-0.12063564757841802
0.1583791440323416,-0.3125935232411207,-0.31496656108362775
0.1588796445328421,-0.41517839434755405,-0.49323017097517347
0.1593801450333426,-0.4748494781140276,-0.596217469278054
0.1598806455338431,-0.4809279498902384,-0.6619835354979986
0.16038114603434359,-0.44097600534250553,-0.6549709111661745
0.1608816465348441,-0.3619166428485,-0.5888020915070014
0.1613821470353446,-0.24773169870666373,-0.4507460872706607
0.16188264753584508,-0.10391557508559884,-0.28572184121454997
0.1623831480363456,0.04864859249859543,-0.08967034869941261
0.1628836485368461,0.19454310304110392,0.12156375825482528
0.1633841490373466,0.3278498502322978,0.3210800051720657
0.1638846495378471,0.41675293546983355,0.4838750309143679
0.16438515003834758,0.46906340826005527,0.593928726686843
0.1648856505388481,0.4826555005593314,0.6681550183098399
0.1653861510393486,0.43595726781054833,0.6558267727032911
0.1658866515398491,0.36443856817043696,0.5847274390514102
