Time,Vin,Vout
-0.006729698849027448,0.0017880934278352253,-0.0010348825150696785
-0.006229198348526949,0.15226654253379623,0.11783629392455447
-0.005728697848026448,0.2786426837665915,0.352878671924436
-0.0052281973475259485,0.387172500540396,0.5585926553375535
-0.004727696847025448,0.44837822758112167,0.7181063163402741
-0.004227196346524948,0.4728426945965902,0.7935225455637057
-0.0037266958460244483,0.46045799714002106,0.7980505496935971
-0.0032261953455239483,0.38551669231306296,0.7234640832161755
-0.0027256948450234486,0.28045748745448745,0.5819449267083482
-0.002225194344522948,0.14585709166003616,0.3692268803189914
-0.0017246938440224485,-0.004470924547108096,0.13918474300595907
-0.001224193343521948,-0.15291632944405284,-0.10588635749409815
-0.0007236928430214484,-0.2879059582350244,-0.35017266570426936
-0.0002231923425209479,-0.3864178113438788,-0.559128715084566
0.00027730815797955173,-0.45720604913358687,-0.7172669074300974
0.0007778086584800514,-0.47620537600797574,-0.8037507243227044
0.001278309158980551,-0.4580183902313606,-0.7985483889650175
0.0017788096594810524,-0.3829713961193046,-0.7160611966067123
0.002279310159981552,-0.26896399440878976,-0.5787157801838189
0.0027798106604820516,-0.1386531702298062,-0.3762561343615393
0.0032803111609825512,0.0038258026410027328,-0.1310580402049613
0.003780811661483051,0.15168930714022957,0.12191379411334415
0.004281312161983552,0.28498401870752654,0.36220617504665065
0.004781812662484052,0.3870456537574104,0.5598375351915151
0.0052823131629845515,0.4546741068118782,0.722635522930334
0.005782813663485051,0.4730260228833414,0.7901474328024334
0.0062833141639855525,0.45212611410164,0.7994112426960968
0.006783814664486052,0.38566757107263594,0.7249182857223935
0.007284315164986552,0.2802666011628961,0.57649363739646
0.007784815665487051,0.14738731338495178,0.373290442264394
0.008285316165987551,1.3549190473537838e-05,0.13506605723042825
0.008785816666488052,-0.15443138924302652,-0.11471270571860895
0.00928631716698855,-0.28392180768118014,-0.3674943426532044
0.009786817667489053,-0.3883247348599056,-0.5687811565693885
0.010287318167989553,-0.4596926026367061,-0.7221940457280254
0.010787818668490053,-0.4785704480718701,-0.8016823831828477
0.011288319168990552,-0.4513887129846646,-0.7974410118895329
0.011788819669491052,-0.380571648063002,-0.7272145879710395
0.012289320169991551,-0.2728811588900682,-0.5740783154275885
0.012789820670492051,-0.14860627699466128,-0.36610487841596634
0.01329032117099255,0.0073471539379468195,-0.13061112012913725
0.01379082167149305,0.1594970816462224,0.11886360114492701
0.01429132217199355,0.286624563442397,0.3687505048287194
0.014791822672494053,0.39009933751534337,0.5770791170342923
0.015292323172994553,0.4583424334195427,0.709012439868696
0.015792823673495052,0.4827360915854024,0.7984790985681172
0.016293324173995552,0.4500985482850234,0.8102733871527652
0.01679382467449605,0.3846159782342932,0.7260061434089322
0.01729432517499655,0.2736883069344766,0.5668650477162959
0.01779482567549705,0.13856911871680633,0.36260763549419056
0.01829532617599755,-0.010277850823033702,0.13650711433821092
0.01879582667649805,-0.15535351987813456,-0.12247288476603478
0.019296327176998553,-0.2794216672261145,-0.3714669318255588
0.019796827677499053,-0.3859595382287153,-0.5641930168241579
0.020297328177999552,-0.46309253399030736,-0.7213096803324527
0.020797828678500052,-0.4767569155466072,-0.7951515652670632
0.021298329179000552,-0.4524639431518279,-0.7951435042429889
0.02179882967950105,-0.37932425126851793,-0.7100869802066715
0.02229933018000155,-0.2664892661410131,-0.5665432166875731
0.02279983068050205,-0.13695612284225098,-0.36296035700064083
0.02330033118100255,0.005493471473029843,-0.12198454652132078
0.023800831681503053,0.1575263535122448,0.13082935180562985
0.024301332182003553,0.2874397064240786,0.3750411718052051
0.024801832682504053,0.3997995486098925,0.5706682808457386
0.02530233318300455,0.45838104993443773,0.7308389252413663
0.025802833683505052,0.47740919783339275,0.8026367941521947
0.026303334184005555,0.4490126862480089,0.7879764395200743
0.02680383468450605,0.3872240410067038,0.7208410122809603
0.027304335185006554,0.27129653150722377,0.5767261646749254
0.02780483568550705,0.13793521980815973,0.3569432471614061
0.028305336186007553,-0.011937206979923294,0.12247381062062758
0.02880583668650805,-0.16097497805587022,-0.13387755996621606
0.029306337187008553,-0.29123821302420305,-0.36586192692414565
0.02980683768750905,-0.3963358848663647,-0.5821722601358662
0.030307338188009552,-0.45536775137215935,-0.7290484659563615
0.030807838688510055,-0.4745969118891769,-0.7987016951758483
0.03130833918901055,-0.4576236034709886,-0.8003256538042436
0.03180883968951105,-0.3743253866950603,-0.7236258522680662
0.032309340190011554,-0.26826951327659976,-0.561693281351443
0.03280984069051206,-0.1386300550556549,-0.357543170478192
0.033310341191012546,0.01445612277808299,-0.11692087306562432
0.03381084169151305,0.1580147713836771,0.13056598164150823
0.03431134219201355,0.2873324281635789,0.37886919703282346
0.034811842692514056,0.39762841181894115,0.5860509990741067
0.035312343193014545,0.4601502728904629,0.7229076877901371
0.03581284369351505,0.47676707739094704,0.8080926397006132
0.03631334419401555,0.4519364890013144,0.7958031167542683
0.036813844694516054,0.38063464983058676,0.7096446851934509
0.03731434519501656,0.26777082850846057,0.5696239238168985
0.037814845695517046,0.1354639489347511,0.3589365454714701
0.03831534619601755,-0.010414591530386985,0.10598550082825722
0.03881584669651805,-0.16138608849571429,-0.13708827634476106
0.039316347197018556,-0.29358462105424626,-0.3711178197588206
0.039816847697519045,-0.3880360586102308,-0.5779819721531771
0.04031734819801955,-0.4588330965718535,-0.7275412746659535
0.04081784869852005,-0.4809587717434093,-0.7974877581349326
0.041318349199020554,-0.4494690132138478,-0.7932736555646861
0.04181884969952106,-0.38016880420985094,-0.7145783271448706
0.04231935020002155,-0.2727343241744741,-0.5598312147905656
0.04281985070052205,-0.1302708827930854,-0.34589318390778456
0.04332035120102255,0.01660928033341821,-0.10640932882816596
0.043820851701523056,0.1587799359260518,0.1332188303600528
0.044321352202023545,0.288262308453024,0.38782311220361215
0.04482185270252405,0.3940268472544984,0.5826274135460187
0.04532235320302455,0.45760189120833333,0.7226340272246434
0.045822853703525054,0.4788825821347598,0.7996984036348989
0.04632335420402556,0.457731076775722,0.806484428315349
0.04682385470452605,0.37868520538365513,0.7153844079224001
0.04732435520502655,0.26205765526289737,0.5564423224164677
0.04782485570552705,0.13167206810541304,0.3428748850110665
0.048325356206027556,-0.015878503436750558,0.1078487958632607
0.048825856706528045,-0.1677194950483891,-0.14713488336613473
0.04932635720702855,-0.2971457618832659,-0.37948818319222566
0.04982685770752905,-0.39819754924397194,-0.5796848961964519
0.050327358208029555,-0.4573379259215008,-0.7367240245927668
0.05082785870853006,-0.47592669104294055,-0.80402995400964
0.05132835920903055,-0.45312895793386804,-0.7904085078185215
0.05182885970953105,-0.3806233024935583,-0.7218307112970808
0.05232936021003155,-0.2624047477364664,-0.5602166569094391
0.052829860710532056,-0.12851229103397235,-0.35144351334052465
0.053330361211032545,0.019497720401858404,-0.09701584071241119
0.05383086171153305,0.1638599194287648,0.140977178188332
0.05433136221203355,0.3009130744760628,0.3846497221305774
0.054831862712534055,0.39320850431253906,0.5815120178918882
0.05533236321303456,0.4607327807948222,0.7272353073683578
0.05583286371353505,0.47676628433153273,0.8057871946764529
0.05633336421403555,0.4460063496462508,0.7957611400494057
0.05683386471453605,0.3769038851102951,0.7242480961498697
0.05733436521503654,0.2640231148520827,0.5544322572623744
0.057834865715537045,0.12920849477195628,0.3553177760173325
0.05833536621603755,-0.015001223672922049,0.10537124906694968
0.05883586671653805,-0.1672182124753191,-0.14740591484604737
0.059336367217038555,-0.29890113160346415,-0.3909217081058702
0.059836867717539044,-0.3989802867527482,-0.5844509273609269
0.06033736821803955,-0.46050503677249144,-0.728368348976079
0.06083786871854005,-0.4764022474546831,-0.8011884382543829
0.06133836921904055,-0.44340467680380174,-0.7956372323278668
0.06183886971954104,-0.3712086173630076,-0.7085848401053374
0.062339370220041546,-0.2662779906206569,-0.5558654154670396
0.06283987072054205,-0.12871269215661532,-0.34182213293445285
0.06334037122104255,0.02484850102524032,-0.11027786962480357
0.06384087172154305,0.16826680388302448,0.15418115337095264
0.06434137222204354,0.2974546740922824,0.3885245795927892
0.06484187272254405,0.3954421517577918,0.5834201528634498
0.06534237322304455,0.4602451519015927,0.726331031030326
0.06584287372354505,0.4786978177723232,0.810851366536979
0.06634337422404554,0.4473207480951222,0.7850764876294428
0.06684387472454605,0.3742684617773785,0.7149664994990651
0.06734437522504655,0.26479533905987257,0.5562898130721013
0.06784487572554705,0.13121606218423965,0.35266854775668655
0.06834537622604756,-0.025607577006539668,0.10214683669088687
0.06884587672654804,-0.1728123031185828,-0.14966497188979608
0.06934637722704855,-0.3032486364894651,-0.39112627063439
0.06984687772754905,-0.40246798187971766,-0.5882820420073379
0.07034737822804955,-0.4594377079041022,-0.731170908889585
0.07084787872855004,-0.4769115907956896,-0.8015584487993492
0.07134837922905055,-0.4471759076051478,-0.7860643791397371
0.07184887972955105,-0.37148145934132853,-0.718991086297453
0.07234938023005155,-0.25737383879565606,-0.561176531214136
0.07284988073055206,-0.12305546690908885,-0.33971417588254627
0.07335038123105254,0.023024973896430764,-0.09555547384382143
0.07385088173155305,0.17207366589506418,0.15934773749490688
0.07435138223205355,0.3024918813637415,0.391971942035569
0.07485188273255405,0.40134444785008366,0.5943658011109675
0.07535238323305454,0.45701139451287276,0.7269270973422599
0.07585288373355505,0.4812384648794359,0.8046023295181628
0.07635338423405555,0.44386841101239877,0.7992080915183594
0.07685388473455605,0.3687946749470571,0.7081756795753554
0.07735438523505654,0.2664148142286612,0.5436390664313379
0.07785488573555704,0.12880995414780758,0.34535040015440277
0.07835538623605755,-0.02775154982364894,0.09238030064733627
0.07885588673655805,-0.17020424628910624,-0.15017033724415715
0.07935638723705855,-0.3050534158598377,-0.38853041358799595
0.07985688773755904,-0.4032193273558513,-0.5913746848175986
0.08035738823805955,-0.4657262410253596,-0.7366099336006747
0.08085788873856005,-0.4787023373187416,-0.8105142672168877
0.08135838923906055,-0.4458494770279178,-0.795510768679329
0.08185888973956104,-0.36879682579570255,-0.6991036804092987
0.08235939024006164,-0.2521060974433123,-0.5408353711820968
0.08285989074056205,-0.1180595956124953,-0.33200659082285633
0.08336039124106255,0.029928181780799753,-0.09454638303815437
0.08386089174156305,0.17284853047815965,0.16009003076833092
0.08436139224206354,0.30080331296185464,0.4007970847114965
0.08486189274256414,0.4033054255341206,0.5907360842653049
0.08536239324306465,0.4621821206360723,0.7250236163631593
0.08586289374356505,0.47797500104720975,0.8037404893283597
0.08636339424406554,0.44595386799722364,0.7951235234455295
0.08686389474456614,0.36824773909715247,0.6933850540791036
0.08736439524506665,0.25783766185499796,0.5472384783211218
0.08786489574556715,0.11989739406517243,0.33826201736006356
0.08836539624606755,-0.028602921051171456,0.09330646440145993
0.08886589674656804,-0.1720575321499812,-0.16008328846447023
0.08936639724706864,-0.3049021303610296,-0.395387047486012
0.08986689774756915,-0.40625487029484253,-0.5918264354994328
0.09036739824806965,-0.4592857358881316,-0.7398702258381081
0.09086789874857004,-0.4791066787216015,-0.8044854579264422
0.09136839924907064,-0.439795173425405,-0.7922486929328807
0.09186889974957115,-0.36561662451274624,-0.6946860780173247
0.09236940025007165,-0.25951393935928346,-0.5424258200515827
0.09286990075057215,-0.12300960669290921,-0.3240763685216786
0.09337040125107254,0.0247643847381583,-0.0970125722350058
0.09387090175157314,0.17451214355077965,0.15980195302039335
0.09437140225207365,0.3029093209197016,0.393408002884546
0.09487190275257415,0.402189355976554,0.5979853693002422
0.09537240325307465,0.4631066327837792,0.7464181586205814
0.09587290375357514,0.4739434892398224,0.8035320217769553
0.09637340425407565,0.44265579726479604,0.7902558584844811
0.09687390475457615,0.3678544698403936,0.7021124876498724
0.09737440525507665,0.25750373922268494,0.5419088470787412
0.09787490575557715,0.11283882590516033,0.3347146664883219
0.09837540625607764,-0.03154796293785876,0.08349318179695406
0.09887590675657815,-0.1803762014880662,-0.16491776067132122
0.09937640725707865,-0.30817779967439074,-0.4077834786798401
0.09987690775757915,-0.4033826274428998,-0.5975158971029579
0.10037740825807964,-0.46396302511009874,-0.7340550476524161
0.10087790875858015,-0.4785080096358277,-0.812726376216822
0.10137840925908065,-0.44277270944177227,-0.7866791866601507
0.10187890975958115,-0.37190893631431626,-0.7012371622458979
0.10237941026008165,-0.2559089532417065,-0.5332948191309446
0.10287991076058214,-0.11710609277233051,-0.31220196477659196
0.10338041126108265,0.03286625013883352,-0.08494323218282203
0.10388091176158315,0.17758917180031653,0.1674626615583843
0.10438141226208365,0.3096023443813475,0.41640936820488883
0.10488191276258414,0.40284652237629903,0.603346193756164
0.10538241326308465,0.46330523742523694,0.7443448790096572
0.10588291376358515,0.48484630859926875,0.8176882275361125
0.10638341426408565,0.43991825707639004,0.7840248713779765
0.10688391476458615,0.3636764005263519,0.7033167458312696
0.10738441526508664,0.25422303096863774,0.5499181836429458
0.10788491576558715,0.1162618840767298,0.32400599319386864
0.10838541626608765,-0.02911524192402202,0.08819108590701864
0.10888591676658815,-0.17421385868327674,-0.17176187596290324
0.10938641726708864,-0.310896713032142,-0.41132379088969684
0.10988691776758915,-0.4052526747321278,-0.5993781364424963
0.11038741826808965,-0.46044899511205034,-0.7413952415328555
0.11088791876859015,-0.4738491572672926,-0.8025325661265389
0.11138841926909065,-0.4379700150726454,-0.7891792878518873
0.11188891976959114,-0.3660557949826925,-0.6961750182696369
0.11238942027009165,-0.2536017168011407,-0.5337181655357273
0.11288992077059215,-0.10871895843191662,-0.3196797725378561
0.11339042127109265,0.03584652480411854,-0.06486182097902674
0.11389092177159314,0.17362540665428394,0.1732717220926767
0.11439142227209365,0.30688114072777906,0.4237313300378564
0.11489192277259415,0.40571860545924177,0.6151157283465718
0.11539242327309465,0.4641593525254678,0.7400282244466792
0.11589292377359516,0.4784487941559697,0.8041086606577793
0.11639342427409564,0.4473890388578607,0.783573297958128
0.11689392477459615,0.3627725354759682,0.7033549941498437
0.11739442527509665,0.24927458521278073,0.5321760701525473
0.11789492577559715,0.11505550223502083,0.318966337964871
0.11839542627609766,-0.03638096091390441,0.0718001893143706
0.11889592677659815,-0.18126653765591352,-0.17476849354107235
0.11939642727709864,-0.31334676101731224,-0.4155103076101124
0.11989692777759915,-0.4083126317439698,-0.6048247296771635
0.12039742827809964,-0.47094596015840456,-0.745686696735662
0.12089792877860016,-0.4771373309147544,-0.7989559162185602
0.12139842927910065,-0.4463219751738169,-0.7917304204115577
0.12189892977960114,-0.364625341163432,-0.688552263127849
0.12239943028010165,-0.24773483663474527,-0.5334244468382542
0.12289993078060214,-0.107649445043734,-0.3146168354728219
0.12340043128110266,0.037048797754536796,-0.06883796611394022
0.12390093178160315,0.18695166912795647,0.19055442514859122
0.12440143228210364,0.31062679534272786,0.41887951605674717
0.12490193278260416,0.4141687425700707,0.6087442042823422
0.12540243328310466,0.46759033783923204,0.742333312670901
0.12590293378360518,0.4768565639393289,0.8173208670543803
0.12640343428410566,0.4392957371580013,0.7842457740668618
0.12690393478460615,0.3644470591276839,0.7009360705118858
0.12740443528510667,0.2460118673473842,0.5306501105205225
0.12790493578560716,0.10918594012635208,0.31300263848915477
0.12840543628610765,-0.04543356858726522,0.06367522035880271
0.12890593678660817,-0.1852966554316912,-0.1893655996962504
0.12940643728710866,-0.31689190821859886,-0.4204799313286901
0.12990693778760917,-0.4169866321991139,-0.6095502470844645
0.13040743828810966,-0.47046339401364123,-0.7394209949511511
0.13090793878861015,-0.4766043322877992,-0.7999049397898764
0.13140843928911067,-0.43805924152006875,-0.7915089174902036
0.13190893978961116,-0.35888747429350976,-0.6941056733244981
0.13240944029011167,-0.24900320160886644,-0.5315324713154278
0.13290994079061216,-0.10835482189450281,-0.31085033796180633
0.13341044129111265,0.03969577292211858,-0.062003867928244805
0.13391094179161317,0.19010011304169822,0.18886771885200868
0.13441144229211366,0.3089183609803929,0.424300924954852
0.13491194279261418,0.4096421516190078,0.6140613524865346
0.13541244329311466,0.4711472447631479,0.748370857309284
0.13591294379361515,0.47876049430327045,0.8041339511412667
0.13641344429411567,0.43988180494358253,0.7883741099811797
0.13691394479461616,0.3616964364816072,0.6910292896716727
0.13741444529511665,0.24669972290268177,0.5365974301927979
0.13791494579561717,0.10345535891503735,0.2970268814529978
0.13841544629611766,-0.04530410320775175,0.07010050659052647
0.13891594679661817,-0.18773484250125266,-0.1882908290004372
0.13941644729711866,-0.31569119293721437,-0.4286910967167284
0.13991694779761915,-0.4105738595909227,-0.6092097739906375
0.14041744829811967,-0.46012728370294387,-0.7435915276421983
0.14091794879862016,-0.47542663454412204,-0.8084963109600715
0.14141844929912067,-0.43663469625604256,-0.7897890958885112
0.14191894979962116,-0.35603904650716944,-0.6860524890858951
0.14241945030012165,-0.24458476248703062,-0.5273286063140283
0.14291995080062217,-0.1094034345596182,-0.31390822226794063
0.14342045130112266,0.043686751129031316,-0.0648273082892476
0.14392095180162318,0.190796692004596,0.19539609917094977
0.14442145230212367,0.31547330434912585,0.42569537965655013
0.14492195280262415,0.41445593875150516,0.6174843524954922
0.14542245330312467,0.4636904502914628,0.7445600899197684
0.14592295380362516,0.48290487873236865,0.806354874224136
0.14642345430412565,0.43999236907921513,0.7837758823353667
0.14692395480462617,0.36075231225325216,0.692546162125847
0.14742445530512666,0.24753704331258836,0.5264593957696604
0.14792495580562717,0.1039172426704752,0.30101619421271725
0.14842545630612766,-0.049122380615151895,0.05027937308916778
0.14892595680662815,-0.19164014251373915,-0.1876735241118519
0.14942645730712867,-0.3116699532942741,-0.4272493798899383
0.14992695780762916,-0.4111188726369063,-0.6311852563993188
0.15042745830812967,-0.4643004433045181,-0.7429451235364879
0.15092795880863016,-0.4778177516049915,-0.7970620503175213
0.15142845930913065,-0.43914245460239587,-0.7793471089606256
0.15192895980963117,-0.3548858521705592,-0.6883733424325862
0.15242946031013166,-0.23763189521979114,-0.5284985346899876
0.15292996081063215,-0.09800841673488964,-0.2980108766764326
0.15343046131113267,0.04239438079268305,-0.04475686053100077
0.15393096181163315,0.1966525533492593,0.19622116601058848
0.15443146231213367,0.3219719901837236,0.42506428270970037
0.15493196281263416,0.4111168437611979,0.61547832149555
0.15543246331313465,0.4644098046765895,0.7392031136903748
0.15593296381363517,0.47997710933852905,0.8125013522037612
0.15643346431413566,0.4375305594109412,0.7810436594578528
