Time,Vin,Vout
0.0007336519604038624,-0.0007515671489056443,-0.0025219909353631784
0.0007586769854288875,0.01576831624216814,0.0076522814663106415
0.0007837020104539125,0.030073134761161382,0.0012891686780950322
0.0008087270354789375,0.05191613018588822,0.01399833156015261
0.0008337520605039624,0.06809665303323496,0.007207647016935694
0.0008587770855289624,0.08514099424191052,-2.3813233878901505e-06
0.0008838021105539624,0.09391968343642006,0.01116194687325516
0.0009088271355789624,0.11095336579611545,0.01934915198124437
0.0009338521606040624,0.12915614802835276,0.021843435267085272
0.0009588771856290624,0.1457563431475355,0.018343525148574093
0.0009839022106540624,0.15363201654629982,0.04263166409343859
0.0010089272356790624,0.17417658854413975,0.0458293033998543
0.0010339522607041626,0.19197223120150644,0.05722275481796228
0.0010589772857291626,0.20379828192463462,0.07450443165955135
0.0010840023107541626,0.22291290153176552,0.07609440278718803
0.0011090273357791626,0.23446215731445447,0.08457240283700487
0.0011340523608042623,0.2472161875212268,0.10099705839279105
0.0011590773858292623,0.2648308415722267,0.1306508333175937
0.0011841024108542623,0.2769374257363464,0.14452043145984986
0.0012091274358792623,0.28541340283294925,0.1530155979700747
0.0012341524609043625,0.30101320094880357,0.17920833156305002
0.0012591774859293625,0.3221824677030413,0.20053024489731486
0.0012842025109543625,0.32523692682333655,0.21258653860443494
0.0013092275359793625,0.3416081269549274,0.2363486779207889
0.0013342525610044625,0.3510894089550818,0.2580245893686576
0.0013592775860294625,0.3624409674433127,0.27996724824547
0.0013843026110544625,0.3736940881782754,0.30769163129007204
0.0014093276360794625,0.3849510418693485,0.32114072538345145
0.0014343526611045624,0.39367805405835876,0.3431604561437577
0.0014593776861295624,0.40492700849800706,0.3616560564156251
0.0014844027111545624,0.4143072568243038,0.3789257766197046
0.0015094277361795624,0.4231595575040816,0.40721816952032036
0.0015344527612046624,0.4327785292856202,0.4345521905767734
0.0015594777862296624,0.4432875625574254,0.44888601618427376
0.0015845028112546624,0.44771052254663757,0.4727574912492798
0.0016095278362796624,0.4520447451193852,0.48263284894721514
0.0016345528613047624,0.46793492485761423,0.5082642586009173
0.0016595778863297624,0.47352568979682536,0.5222652035003632
0.0016846029113547624,0.48048849124950493,0.5409283344850753
0.0017096279363797624,0.48123818766639637,0.5610621925344854
0.0017346529614048623,0.48735283079353175,0.5823600262478087
0.0017596779864298623,0.49246907652853056,0.602191694932027
0.0017847030114548623,0.49952769107891754,0.6172819744690056
0.0018097280364798623,0.49661869956142496,0.6287752234979626
0.0018347530615049625,0.5015515464956037,0.6493956288271543
0.0018597780865299625,0.5041833309079532,0.6567167833492419
0.0018848031115549625,0.5042491650907501,0.672636547131051
0.0019098281365799625,0.5171273405909907,0.6855212452633088
0.0019348531616050625,0.5154412833490121,0.702446262105644
0.0019598781866300625,0.5147738364217151,0.7149292521931369
0.0019849032116550625,0.5120153129472395,0.7309955466318407
0.0020099282366800625,0.512280331278058,0.7331475504898378
0.0020349532617051627,0.5122478103680299,0.7371076657464813
0.0020599782867301627,0.5123273969277529,0.7478433123229472
0.0020850033117551627,0.5083087423683451,0.7541739409925522
0.0021100283367801627,0.5093666440330982,0.7756421359630115
0.0021350533618052624,0.5030259336799968,0.7777248938461973
0.0021600783868302624,0.49924303346191673,0.7761919621619696
0.0021851034118552624,0.49212185626831584,0.7878776450793393
0.0022101284368802624,0.4898168326590257,0.7857977634257107
0.002235153461905362,0.487750772341603,0.7767932994862531
0.002260178486930362,0.48361684548440526,0.8007814808151074
0.002285203511955362,0.4825808484422556,0.799301969971295
0.002310228536980362,0.46793595014677136,0.7865268011898799
0.0023352535620054624,0.46316193489780394,0.7884034798558271
0.0023602785870304624,0.45661064277161884,0.800183411691598
0.0023853036120554624,0.4475282632370971,0.7845346000894381
0.0024103286370804624,0.43672708741373156,0.7831722811743744
0.0024353536621055626,0.43387398743098343,0.7907596082468934
0.0024603786871305626,0.429353693318141,0.7840686202113784
0.0024854037121555626,0.4138514413604093,0.7714635423573599
0.0025104287371805626,0.4061056759677079,0.7756834784558935
0.0025354537622056623,0.390848807478778,0.7674625047719908
0.0025604787872306623,0.3779057446584452,0.7588614825484666
0.0025855038122556623,0.3764933495654421,0.7409201965235092
0.0026105288372806623,0.3606801337259098,0.7475768967879464
0.0026355538623057625,0.34803551766155016,0.7244803362368263
0.0026605788873307625,0.3422300703060844,0.7231819027900372
0.0026856039123557625,0.3312022607459165,0.7061504481166968
0.0027106289373807625,0.3126307771995524,0.7018416149072116
0.0027356539624058623,0.3069640273358963,0.6890454381038289
0.0027606789874308623,0.29113920811825933,0.66908557973707
0.0027857040124558623,0.27353505769099257,0.6562757076369172
0.0028107290374808623,0.2567711604118958,0.6469689107226652
0.0028357540625059624,0.24455099501667302,0.6298898316509487
0.0028607790875309624,0.22979503554352515,0.6047881027784427
0.0028858041125559624,0.21169888847172155,0.5949001615361661
0.0029108291375809624,0.20003633233303755,0.5830462819479808
0.0029358541626060626,0.18501390157310146,0.5610557310703027
0.0029608791876310626,0.1713262995719646,0.5533045457017307
0.0029859042126560626,0.15162989437185634,0.5350830002264951
0.0030109292376810626,0.14427022644570642,0.5052635574754234
0.0030359542627061624,0.1305683662290426,0.48308161213085943
0.0030609792877311624,0.10624297239501093,0.4720828099082415
0.0030860043127561624,0.0919532182027177,0.44344001130210814
0.0031110293377811624,0.08009209971651494,0.4341362266973454
0.0031360543628062626,0.05508863474192951,0.4090310736112999
0.0031610793878312626,0.04609097187861329,0.3876453600615529
0.0031861044128562626,0.029346665401070345,0.3632449079348674
0.0032111294378812626,0.013376850863253357,0.33395123916283487
0.0032361544629063623,-0.0005648614148920818,0.32574241855408265
0.0032611794879313623,-0.016742203503182007,0.2942167716326286
0.0032862045129563623,-0.04030041828233832,0.27039342974772185
0.0033112295379813623,-0.051161703012554315,0.24119732315893685
0.0033362545630064625,-0.06273568398670099,0.22504833138111893
0.0033612795880314625,-0.08060811577225872,0.18977267272208545
0.0033863046130564625,-0.0970500808316708,0.1778600108813233
0.0034113296380814625,-0.11070151675465077,0.141037630157944
0.0034363546631065623,-0.12774692743851437,0.1299764122516595
0.0034613796881315623,-0.14425158687198855,0.09995661318105017
0.0034864047131565623,-0.16238907046046464,0.07960585167018513
0.0035114297381815623,-0.17322646086630156,0.05324432357986983
0.0035364547632066624,-0.189108366629325,0.019738019844797446
0.0035614797882316624,-0.20629913693120142,0.0027846825863017534
0.0035865048132566624,-0.219284955256497,-0.020645464744986904
0.0036115298382816624,-0.22927822538408435,-0.044351984972070116
0.0036365548633067626,-0.2493596544774754,-0.07958423070969511
0.0036615798883317626,-0.2651098462375839,-0.10260820729240784
0.0036866049133567626,-0.2796848848013392,-0.1275980134484312
0.0037116299383817626,-0.28174638282095893,-0.15321475959636963
0.0037366549634068624,-0.2978325920538934,-0.17385345644138572
0.0037616799884318624,-0.319186496933165,-0.19194847967162312
0.0037867050134568624,-0.3341099793781409,-0.2327350536846941
0.0038117300384818624,-0.3418859718754292,-0.25055139563794676
0.0038367550635069626,-0.3524507946277891,-0.2726329628669217
0.0038617800885319626,-0.3654266675782567,-0.29852660101109674
0.0038868051135569626,-0.37203799620601136,-0.3093747261560705
0.003911830138581963,-0.38276350612908167,-0.33738763201493543
0.003936855163607062,-0.39379132890322616,-0.36864586844555897
0.003961880188632062,-0.4085666907592207,-0.37707308217051355
0.003986905213657062,-0.41359685267906027,-0.40199007617603355
0.004011930238682062,-0.4291810267970001,-0.42663425145634304
0.004036955263707162,-0.44087143906637416,-0.4453160670685519
0.004061980288732163,-0.4404997412563321,-0.4608417064167459
0.004087005313757162,-0.45016043114966375,-0.4860387308193759
0.004112030338782163,-0.46074063360715667,-0.5041612164664961
0.004137055363807263,-0.46205220105463307,-0.5278625277111867
0.004162080388832262,-0.47555220485824246,-0.5478241002983968
0.004187105413857263,-0.4752539455079702,-0.5536445414089733
0.004212130438882262,-0.482088789892246,-0.5767635816483211
0.0042371554639073624,-0.4875999948774604,-0.5883323310012442
0.0042621804889323624,-0.4901738908619151,-0.611555065169664
0.0042872055139573624,-0.49715805172232513,-0.6373497786030341
0.0043122305389823624,-0.5016519925883676,-0.6540058372384875
0.004337255564007462,-0.5099861348892544,-0.6530907640068069
0.004362280589032463,-0.5031829497099499,-0.667871618298971
0.004387305614057462,-0.5074852127429245,-0.6818748237489852
0.004412330639082463,-0.5076308333928999,-0.6974470799376732
0.004437355664107563,-0.5136009708366422,-0.7003472337031383
0.004462380689132562,-0.5154673968740973,-0.721556795139474
0.004487405714157563,-0.5130896024170076,-0.7183981838701722
0.004512430739182562,-0.5147124083869534,-0.7379312524130174
0.0045374557642076626,-0.5206136141721613,-0.7463812955771435
0.0045624807892326626,-0.5122334302872262,-0.7566308195941017
0.0045875058142576626,-0.5070230424974691,-0.7628805403736986
0.004612530839282663,-0.5059195233689902,-0.7718188573506086
0.004637555864307762,-0.5058709391616784,-0.7781285783084091
0.004662580889332762,-0.49704646299887406,-0.7827758438384276
0.004687605914357762,-0.4903832881489684,-0.7777677383797723
0.004712630939382762,-0.4908640609853556,-0.7887158343809199
0.004737655964407862,-0.48342183503989744,-0.7911973895424317
0.004762680989432862,-0.47825927489325937,-0.786254950766275
0.004787706014457862,-0.47981961390180866,-0.7975227331419903
0.004812731039482862,-0.4698859466217303,-0.7990204552759868
0.004837756064507963,-0.46401984406476304,-0.7938091446166017
0.004862781089532963,-0.45144016809974297,-0.7871383490107399
0.004887806114557963,-0.44794257322349645,-0.7886444097716349
0.004912831139582963,-0.43937475444040575,-0.7851489411805445
0.0049378561646080624,-0.4287828246087639,-0.781472842329861
0.0049628811896330624,-0.429601640086128,-0.7796224400954398
0.0049879062146580624,-0.4108998776313817,-0.7676265676387881
0.0050129312396830624,-0.4005088318839157,-0.7696278943811079
0.005037956264708162,-0.38977482312609885,-0.7574101954360292
0.005062981289733162,-0.3820914303787753,-0.7580612673194805
0.005088006314758162,-0.3701123195388905,-0.7453051327709797
0.005113031339783162,-0.3600775524167498,-0.7381903929945812
0.005138056364808263,-0.34823605786542877,-0.730704211949786
0.005163081389833263,-0.33909340369631363,-0.7119772275964711
0.005188106414858263,-0.32710876925243515,-0.7071441166226945
0.005213131439883263,-0.30939782941951793,-0.6875453312610497
0.0052381564649083626,-0.2993287433604995,-0.6730311719045946
0.0052631814899333626,-0.28816515988147523,-0.6546667154038295
0.005288206514958363,-0.27171613062696115,-0.6545879287368933
0.005313231539983363,-0.26050923906185186,-0.6399898790024791
0.005338256565008462,-0.24512799433581003,-0.6171899323900606
0.005363281590033462,-0.23114938452070763,-0.6126942995440092
0.005388306615058462,-0.2214906714051425,-0.5890744239113218
0.005413331640083462,-0.20435142305358459,-0.5788804545740414
0.005438356665108562,-0.18680746638803766,-0.55713154753007
0.005463381690133562,-0.16569262997319334,-0.5368421170096817
0.005488406715158562,-0.1563900409268574,-0.5185582103675306
0.005513431740183562,-0.1435853253531541,-0.501265693461106
0.005538456765208663,-0.12162802377481084,-0.4848740849659322
0.005563481790233663,-0.1076330500974193,-0.457851600886226
0.005588506815258663,-0.09210158183889516,-0.45127786564974376
0.005613531840283663,-0.07201734944890949,-0.42288851492649704
0.0056385568653087624,-0.06256854902179201,-0.4060355202835438
0.0056635818903337624,-0.04329042402490695,-0.3784782684617942
0.0056886069153587624,-0.032234460381036535,-0.36085686501969283
0.0057136319403837624,-0.011001898587133605,-0.3347091060315685
0.005738656965408862,0.006090900384856781,-0.313231759859747
0.005763681990433862,0.021057938713603456,-0.2954898107022588
0.005788707015458862,0.036980618901328643,-0.2687822328763259
0.005813732040483862,0.056983334869094245,-0.24421393025721122
0.005838757065508963,0.06417651663494976,-0.2088055522231686
0.005863782090533963,0.08142706635724872,-0.18852085423473489
0.005888807115558963,0.0970848313915783,-0.16940018514903632
0.005913832140583963,0.11170477073684809,-0.14026381665391274
0.0059388571656090626,0.12953117715019868,-0.11237074801197781
0.0059638821906340626,0.14835333864026398,-0.1058764708057506
0.005988907215659063,0.16401604977916318,-0.07121976886962333
0.006013932240684063,0.17363590754853314,-0.047874270717081405
0.006038957265709162,0.19304594863742794,-0.020234485747442403
0.006063982290734162,0.20552440570777192,0.013459368699945549
0.006089007315759162,0.21901679556384804,0.024893872017169683
0.006114032340784162,0.22877550046608014,0.05215760778931076
0.006139057365809262,0.24950608613895212,0.07832024384744579
0.006164082390834262,0.2611560289504443,0.09473919930731656
0.006189107415859262,0.27733887831099313,0.1262758565736002
0.006214132440884262,0.2911752793754011,0.14746813488327024
0.006239157465909363,0.3057907791167695,0.17881031434459202
0.006264182490934363,0.3230501496544253,0.19675747321518677
0.006289207515959363,0.3313789073967728,0.21998292852650803
0.006314232540984363,0.34015908086128427,0.2543704001286485
0.0063392575660094624,0.35472052299991347,0.26085819822428885
0.0063642825910344624,0.3677154392508651,0.30324079886203154
0.0063893076160594624,0.37804549565753687,0.32024616303195197
0.0064143326410844624,0.3848777820079852,0.34164461277829455
0.006439357666109562,0.39611180367680243,0.35832774386177774
0.006464382691134562,0.4056503335579974,0.3866293707533036
0.006489407716159562,0.41668784216530763,0.3985167078131563
0.006514432741184562,0.42824973028231983,0.4295642185240741
0.006539457766209663,0.43865138370876144,0.4493075926249502
0.006564482791234663,0.4372831123240109,0.4741308381830935
0.006589507816259663,0.44831279597777207,0.48673510425619804
0.006614532841284663,0.4533027336305206,0.51510144362044
0.0066395578663097626,0.4658473054168505,0.5295999855210798
0.006664582891334763,0.476288430630116,0.5428263495516826
0.006689607916359763,0.4752653494348906,0.5645632350143743
0.006714632941384763,0.4817220906911457,0.5777593798211035
0.006739657966409862,0.4873443635122977,0.6005122327300347
0.006764682991434862,0.4911780370549061,0.6124352831597827
0.006789708016459862,0.4961277319830888,0.6298816786581581
0.006814733041484862,0.5026960027316975,0.6400962051507928
0.006839758066509962,0.5064809581220417,0.6624258530856355
0.006864783091534962,0.5126549694268274,0.6720122025008789
0.006889808116559962,0.5068627395539745,0.6798053977045143
0.006914833141584962,0.5090364568227091,0.6924788992162505
0.006939858166610063,0.5104186736324967,0.7129547865954866
0.006964883191635063,0.514621632303005,0.7248352875338973
0.006989908216660063,0.5131052591379716,0.7392915331045601
0.007014933241685063,0.5151956099935855,0.7417197582181412
0.0070399582667101624,0.5087291686140376,0.7402751139101902
0.0070649832917351624,0.5146758841730223,0.7580473062914357
0.0070900083167601624,0.5084727782199969,0.7658913867378169
0.0071150333417851624,0.5067626286058324,0.7692151611768379
0.007140058366810262,0.5053947329284998,0.7789762221020425
0.007165083391835262,0.49288174268907736,0.7789134905997648
0.007190108416860262,0.49634813143332973,0.7787515869364015
0.007215133441885262,0.4905682166765308,0.7908862242476252
0.007240158466910363,0.4882138959947281,0.8024187152651621
0.007265183491935363,0.48215008212595273,0.7964939741455267
0.007290208516960363,0.4788690219860263,0.7963221090079964
0.007315233541985363,0.47517820389999166,0.7912657495671195
0.0073402585670104626,0.46182901125805265,0.7859033478489962
0.007365283592035463,0.4530291929401991,0.7920578838757882
0.007390308617060463,0.442090650869561,0.7781993661747799
0.007415333642085463,0.4374972486482964,0.7815516874533265
0.007440358667110562,0.42226990258945946,0.7776542163570428
0.007465383692135562,0.4249410681807581,0.7797136270695577
0.007490408717160562,0.40851964134554236,0.782253433414233
0.007515433742185562,0.40455981632856813,0.769004904755965
0.007540458767210662,0.3915035092129714,0.7596847802134413
0.007565483792235662,0.3874809252684739,0.7435655551841279
0.007590508817260662,0.3742649798909203,0.7522321628191657
0.007615533842285662,0.3604274183686837,0.739685583612433
0.007640558867310763,0.34740381547663013,0.7257056626596349
0.007665583892335763,0.33861675584620204,0.7219509964240846
0.007690608917360763,0.31869739887070797,0.7055617730506382
0.007715633942385763,0.311442464884523,0.6933280033650776
0.0077406589674108624,0.2984140131459965,0.6811900887241618
0.0077656839924358624,0.28511687211037334,0.6597296167528512
0.0077907090174608624,0.27252952864609986,0.6558870526276627
0.007815734042485863,0.2547212529574843,0.6403784032696204
0.007840759067510961,0.242685945701214,0.6224761350122567
0.007865784092535962,0.2304296351144298,0.6130665172145382
0.007890809117560963,0.214403109059762,0.5980241586802245
0.007915834142585962,0.2024354156802845,0.5808296573298221
0.007940859167611062,0.19565117820994024,0.5592720148128161
0.007965884192636063,0.1717912857801609,0.540599997644167
0.007990909217661064,0.158672188142816,0.5152177327868113
0.008015934242686063,0.1385366286314631,0.5078542578314519
0.008040959267711163,0.12049399495174001,0.47895873498778746
0.008065984292736163,0.1048031882436372,0.4597407551857453
0.008091009317761163,0.10012070454326312,0.4462704260562746
0.008116034342786162,0.07605866597531372,0.43018257023299
0.008141059367811263,0.050234077483859954,0.40511166374357965
0.008166084392836262,0.047537142974371484,0.3750181349235912
0.008191109417861261,0.027036506998379804,0.35564211580607724
0.008216134442886262,0.012681854132273969,0.3356727574617004
0.008241159467911362,-0.00040627609660451086,0.31227975641513805
0.008266184492936361,-0.022017573082136383,0.2913384068010295
0.008291209517961362,-0.03534146003525492,0.26849703351526427
0.008316234542986363,-0.0524885477762307,0.2420022991492099
0.008341259568011463,-0.0701855363928233,0.21626553415175578
0.008366284593036462,-0.08768348900824212,0.18662652874270882
0.008391309618061463,-0.09732090142830689,0.16757022666103108
0.008416334643086464,-0.1162556969564446,0.14057406291903846
0.008441359668111562,-0.13057234590796862,0.1147906936656491
0.008466384693136562,-0.14342639959053108,0.09924098272590733
0.008491409718161563,-0.1620868241455831,0.0721283647316097
0.008516434743186562,-0.18433245348312335,0.055927827243900774
0.008541459768211662,-0.18917120069710341,0.02641375702847943
0.008566484793236663,-0.21339109638941278,-0.005654568380688858
0.008591509818261662,-0.22553332352003727,-0.03512789934728455
0.008616534843286663,-0.23580693845532022,-0.054387628852814646
0.008641559868311763,-0.25557487378232174,-0.0765434292863727
0.008666584893336762,-0.26850207713525426,-0.10781618719660835
0.008691609918361763,-0.2727180120349315,-0.13147390625167255
0.008716634943386762,-0.29593456357447046,-0.15684246824392134
0.008741659968411862,-0.3007233864585872,-0.18327267565929217
0.008766684993436863,-0.3194291195195737,-0.20482859844382137
