Time,Vin,Vout
0.002304089780507246,0.04431179333710496,0.013536399946343498
0.002804590281007746,2.908326673558116,1.5626809405589925
0.0033050907815082462,5.35868298141974,5.506007978827463
0.003805591282008746,7.502741464919631,9.386960578013339
0.004306091782509246,8.713237824093136,12.027217879215337
0.004806592283009746,9.06276098257598,12.702595580630595
0.005307092783510246,8.613420697814444,12.906826966859485
0.005807593284010746,7.465324667678611,12.758644083341295
0.006308093784511246,5.284800984943115,10.639016657433528
0.006808594285011746,2.804625425646942,6.742470701418552
0.007309094785512246,-0.008023253610877589,2.818444494515258
0.007809595286012746,-2.8625080584652327,-1.6835576250666688
0.008310095786513247,-5.368759608479045,-5.629749063836985
0.008810596287013747,-7.4467056601051995,-9.409094347964128
0.009311096787514246,-8.762517670446242,-12.176413719723078
0.009811597288014746,-9.076911754103481,-12.882136373753823
0.010312097788515245,-8.659869289133525,-12.743410010650184
0.010812598289015747,-7.372784517910642,-12.63905274955732
0.011313098789516246,-5.267247334947348,-10.588425899634027
0.011813599290016746,-2.7105805154808977,-6.850126296936761
0.012314099790517246,0.09673706531592006,-2.752560390345792
0.012814600291017745,2.8845746253268763,1.6846899288484354
0.013315100791518247,5.480899377995672,5.565528084492519
0.013815601292018746,7.3494901684856355,9.366018712967394
0.014316101792519246,8.621821959102048,11.832638632375971
0.014816602293019746,9.196292599658427,12.867842189052974
0.015317102793520247,8.616906241485559,12.59510330529524
0.015817603294020745,7.286363546931328,12.591701723551976
0.016318103794521248,5.2823364103191155,10.288076628868884
0.016818604295021744,2.7079381035439183,6.753280532437812
0.017319104795522247,-0.12175296057617892,2.6262017469061996
0.017819605296022747,-2.931713592482373,-1.5402885623765363
0.018320105796523246,-5.556002914506486,-5.770645550799613
0.01882060629702375,-7.391513952139532,-9.525311262627223
0.019321106797524246,-8.629968246701234,-11.999309871066659
0.01982160729802475,-9.10644204309664,-12.722917024440546
0.020322107798525245,-8.688030188655562,-12.833198302485679
0.020822608299025748,-7.354826225656997,-12.550823869449694
0.021323108799526244,-5.32489888082529,-10.367812254817904
0.021823609300026747,-2.648958051048191,-6.708616918265898
0.022324109800527243,0.16159655880583174,-2.451141349585654
0.022824610301027747,2.912728371757985,1.6377708215947258
0.023325110801528243,5.520649129337206,5.92150629607408
0.023825611302028746,7.47043398504025,9.47350544261046
0.02432611180252925,8.618495385720644,12.130300510651265
0.024826612303029745,9.166518239017106,12.767541898450846
0.025327112803530248,8.617806086001213,12.85308492097099
0.025827613304030744,7.270722790990034,12.693762363951862
0.026328113804531247,5.160073091821929,10.444468453186088
0.026828614305031744,2.6974448133132163,6.650125279858541
0.027329114805532247,-0.10858128639857682,2.6441470748266735
0.027829615306032743,-2.920818730465782,-1.7828323799315746
0.028330115806533246,-5.540929814751798,-5.782929061813089
0.02883061630703375,-7.464332331650636,-9.437573830404729
0.029331116807534245,-8.68013249453104,-12.087972850481487
0.029831617308034748,-9.0916171554746,-12.711454689565542
0.030332117808535244,-8.64676354586543,-12.750390585195563
0.030832618309035748,-7.373364506914754,-12.755853422253374
0.031333118809536244,-5.159160714591213,-10.335053465865835
0.03183361931003675,-2.7086520948755846,-6.748136074076244
0.03233411981053724,0.23153290912910984,-2.4894765762083266
0.032834620311037746,3.0346764820775785,1.8202501877989665
0.03333512081153825,5.375011782997538,5.832238218237572
0.033835621312038745,7.499487483566817,9.661122625158038
0.03433612181253924,8.799484028922034,12.170658467922575
0.034836622313039745,9.184397348214109,12.678965301182632
0.03533712281354025,8.595870649545455,12.675751178360475
0.035837623314040744,7.312317278559649,12.61689343557579
0.03633812381454125,5.139003008022463,10.263665654321587
0.03683862431504174,2.626314820596961,6.46029792433472
0.037339124815542246,-0.2380244727652672,2.392041161530996
0.03783962531604274,-3.080385546965626,-1.820389476246887
0.038340125816543245,-5.5155933032488385,-6.083735971086617
0.03884062631704374,-7.566920719561733,-9.61009211961968
0.039341126817544245,-8.705894268046,-12.10708134207493
0.03984162731804475,-9.171110524718934,-12.782839272221716
0.040342127818545244,-8.548342449682108,-12.7181266374117
0.04084262831904575,-7.274680092111496,-12.469811444377608
0.04134312881954624,-5.234115976109457,-10.264261786491536
0.041843629320046746,-2.5036255458751002,-6.445187854429776
0.04234412982054724,0.268617556074865,-2.3616469309965167
0.042844630321047746,3.0398932744239238,1.7315202360431565
0.04334513082154824,5.4474778210299775,6.132006746865136
0.043845631322048745,7.545076819096826,9.847861788425991
0.04434613182254924,8.645377660492072,12.03864697233644
0.044846632323049744,9.101144022872528,12.806381264116222
0.04534713282355025,8.541588839358,12.768392693747794
0.04584763332405074,7.27301930683159,12.561357526580869
0.046348133824551246,5.20464219845003,10.318413412927304
0.04684863432505174,2.5522937561477175,6.421611856422377
0.047349134825552246,-0.20602348566219195,2.3352545691260276
0.04784963532605274,-2.9876545127940206,-1.910555208995548
0.048350135826553245,-5.673729170594893,-6.102357152698835
0.04885063632705374,-7.585448617989159,-9.523941883190766
0.049351136827554244,-8.782706447494048,-12.310846808340047
0.04985163732805475,-9.091094273370796,-12.61174735395649
0.05035213782855524,-8.550965273038997,-12.678433506764668
0.05085263832905575,-7.293324295300723,-12.863319195036775
0.05135313882955624,-5.140727503475642,-10.256150033778146
0.051853639330056746,-2.4947297641151716,-6.387476033235896
0.05235413983055724,0.2936769956276476,-2.415950926973483
0.052854640331057745,3.051648683598614,2.053049088530945
0.05335514083155824,5.565655838304305,6.066555652395738
0.053855641332058744,7.7037472441343935,9.51704716411793
0.05435614183255925,8.646353171104202,12.090904940371917
0.054856642333059744,9.155178624156909,12.674265016578943
0.05535714283356025,8.580945002713039,12.808933153294738
0.05585764333406074,7.230139277490225,12.486424908209566
0.056358143834561246,5.101909612157167,10.156507228865669
0.05685864433506174,2.5301029819862744,6.3481891468753995
0.057359144835562245,-0.28227213862976697,2.350849336788316
0.05785964533606274,-3.082403394137676,-2.1442931097310938
0.058360145836563244,-5.602102997306478,-6.057894736440345
0.05886064633706375,-7.462020553870909,-9.643996130590699
0.059361146837564244,-8.71398202356097,-12.225164805931236
0.05986164733806475,-9.185893958337758,-12.706416873627994
0.06036214783856524,-8.551802413951608,-12.734272754691805
0.060862648339065746,-7.1914811967240215,-12.649513019770826
0.06136314883956624,-5.100392949248627,-9.99168945535613
0.061863649340066745,-2.448532350773971,-6.372091246543969
0.06236414984056724,0.29323474575474445,-2.3110727639135833
0.06286465034106775,3.1760352439231894,2.082186709444442
0.06336515084156825,5.733091035075941,6.179741357118236
0.06386565134206874,7.63409953107335,9.707766687352033
0.06436615184256925,8.717343605629651,12.216876733360023
0.06486665234306975,9.125854118092834,12.84911667160277
0.06536715284357025,8.532061221813054,12.86177489691298
0.06586765334407076,7.097327467659482,12.546515052741805
0.06636815384457125,4.915818545456329,10.048062300704126
0.06686865434507175,2.414505118291563,6.35694363712769
0.06736915484557225,-0.40800580573746503,2.222141713714491
0.06786965534607275,-3.1511224791722774,-2.0372706567090137
0.06837015584657326,-5.63694145997153,-6.127993493065483
0.06887065634707375,-7.678397240964273,-9.64914999009655
0.06937115684757425,-8.728449236095761,-12.303062408661873
0.06987165734807475,-9.10164634181355,-12.771296507982047
0.07037215784857526,-8.593012176184313,-12.724804288445752
0.07087265834907575,-7.146767476474036,-12.484954689966761
0.07137315884957625,-5.070320370862082,-10.018811856118647
0.07187365935007675,-2.4629060860326564,-6.305740020309537
0.07237415985057725,0.3757193861292974,-2.268781323432198
0.07287466035107776,3.2746649472191995,2.061048784264476
0.07337516085157825,5.697700490090007,6.219004600345742
0.07387566135207875,7.6273481412286,9.642940754486187
0.07437616185257925,8.758969113539925,12.214125911746606
0.07487666235307976,9.11743320830027,12.62842083006433
0.07537716285358025,8.587509721415337,12.622558341510208
0.07587766335408075,7.107557260151911,12.532938676285665
0.07637816385458125,5.05427499918089,10.013946201687409
0.07687866435508175,2.4125978372882373,6.231065334913449
0.07737916485558226,-0.4255676548922932,2.155963753668294
0.07787966535608275,-3.2649142765463646,-2.086879384839845
0.07838016585658325,-5.646125203180118,-6.1078441428581955
0.07888066635708375,-7.686640889851266,-9.815861672030627
0.07938116685758426,-8.74955469718941,-12.151410811947299
0.07988166735808475,-9.187871821442883,-12.869292020103336
0.08038216785858525,-8.405262621492653,-12.78689018687092
0.08088266835908575,-7.115397037078652,-12.436825709787737
0.08138316885958626,-4.992404572799759,-10.116243919136396
0.08188366936008676,-2.3197023314205887,-6.243220351968312
0.08238416986058725,0.5370317360527762,-2.0128644233330366
0.08288467036108775,3.1069317487476646,2.1720526756962455
0.08338517086158825,5.749415851468693,6.304127514522187
0.08388567136208876,7.627412100350147,9.65812466605831
0.08438617186258925,8.76113296983656,12.437422608490845
0.08488667236308975,9.0878985904144,12.694457596617749
0.08538717286359025,8.482734891835612,12.910331128472016
0.08588767336409076,7.098443869913457,12.431680579496573
0.08638817386459124,4.995205138637481,9.884737279579156
0.08688867436509175,2.3101415770605724,6.161543367434
0.08738917486559225,-0.4893853471009339,2.0591049561904544
0.08788967536609275,-3.2196876601895816,-2.276345589554066
0.08839017586659326,-5.648853701970535,-6.3357072411170225
0.08889067636709375,-7.647406405752901,-9.963350653819482
0.08939117686759425,-8.766679537465919,-12.480020776444821
0.08989167736809475,-9.125412652946595,-12.794456473547271
0.09039217786859526,-8.584616115250466,-12.620845097113095
0.09089267836909574,-7.107513309927795,-12.724753766935853
0.09139317886959634,-4.958429846177307,-9.919014930687311
0.09189367937009675,-2.2106608065556523,-5.979581383356778
0.09239417987059725,0.5252130982378925,-1.983675960734645
0.09289468037109776,3.241442509498833,2.5820534983449708
0.09339518087159825,5.803155517820049,6.2116022151281385
0.09389568137209885,7.605498169472225,9.973513077987315
0.09439618187259935,8.810075365225355,12.307490103964012
0.09489668237309976,9.21204040940166,12.69236634894403
0.09539718287360024,8.448031654570592,12.709226725428266
0.09589768337410084,7.116383065570879,12.405031536249522
0.09639818387460135,4.942783052567116,9.837280109553836
0.09689868437510185,2.284105311966903,6.066356023988491
0.09739918487560226,-0.5422378666802162,1.834419909304891
0.09789968537610275,-3.3623706550526538,-2.3509976694128487
0.09840018587660335,-5.777123992031013,-6.442337189844704
0.09890068637710385,-7.639566742835795,-9.823402670558728
0.09940118687760435,-8.860746932019804,-12.642667721944434
0.09990168737810474,-9.088198015263513,-12.838129213338553
0.10040218787860535,-8.394465908271343,-12.754270328441322
0.10090268837910585,-7.104353099727654,-12.54907586313514
0.10140318887960635,-4.870201981873687,-9.872484329668946
0.10190368938010685,-2.280924814103785,-6.077921238511183
0.10240418988060725,0.5346421272553747,-1.8252674451902957
0.10290469038110785,3.4011903552197036,2.4085729017428745
0.10340519088160835,5.788677620805161,6.454648124922925
0.10390569138210885,7.753776273625192,10.07130462556184
0.10440619188260936,8.7904034403073,12.351868101737942
0.10490669238310985,9.152047741887975,12.651274232324168
0.10540719288361035,8.554752951357987,12.76705731396417
0.10590769338411085,7.035125313339333,12.481085361070848
0.10640819388461135,4.901625879206788,9.81764965711035
0.10690869438511186,2.25340723149664,5.811709198560321
0.10740919488561235,-0.5842595908608764,1.81638562822654
0.10790969538611285,-3.4165660785806296,-2.381014948491755
0.10841019588661335,-5.802551956940412,-6.484602877545541
0.10891069638711386,-7.724090663091429,-9.951269745366824
0.10941119688761435,-8.746790204166238,-12.334255089160715
0.10991169738811485,-9.159446156868666,-12.809904400621999
0.11041219788861535,-8.418077144541606,-12.679986900073393
0.11091269838911585,-6.963843914979583,-12.360619175959979
0.11141319888961636,-4.778911306868795,-9.784626566137923
0.11191369939011685,-2.2314074735376286,-6.030374281986979
0.11241419989061735,0.5852389113951435,-1.767901133368948
0.11291470039111785,3.3833876910239287,2.451014799330501
0.11341520089161836,5.877797276691755,6.717826726592126
0.11391570139211885,7.760565441901679,10.01524725692477
0.11441620189261935,8.872220904981562,12.270452284586726
0.11491670239311985,9.118150521323244,12.691690163944921
0.11541720289362035,8.511891826054972,12.73380998675275
0.11591770339412086,7.002652472868027,12.301629195615275
0.11641820389462135,4.741422913402281,9.826412837731194
0.11691870439512185,2.179683098398323,5.915788150133322
0.11741920489562235,-0.7358945478808004,1.7455136398139424
0.11791970539612286,-3.507518686488363,-2.672310749703307
0.11842020589662335,-5.8648200729653555,-6.609881214381883
0.11892070639712385,-7.66733461131377,-10.19246509690747
0.11942120689762435,-8.915256810361766,-12.574948520761678
0.11992170739812485,-9.042100395130802,-12.669187824108509
0.12042220789862536,-8.375116096335253,-12.75140331658721
0.12092270839912585,-6.957051316476022,-12.407001830102697
0.12142320889962635,-4.801235898471674,-9.700272159441683
0.12192370940012685,-2.1187820216518327,-5.876355140667431
0.12242420990062736,0.7441551281364103,-1.624352286749232
0.12292471040112785,3.4430758189356574,2.679094313539182
0.12342521090162835,5.843443538349216,6.620660848546709
0.12392571140212885,7.792367981502795,10.254630885656889
0.12442621190262936,8.844825489296586,12.601926579195016
0.12492671240312986,9.184424129974964,12.592087816139433
0.12542721290363035,8.321014008046195,12.844735137173862
0.12592771340413084,6.92625548384655,12.374575924975145
0.12642821390463135,4.786907643623882,9.678930629633419
0.12692871440513184,2.0576367474592416,5.756709135160694
0.12742921490563236,-0.7456823602389844,1.7584746308105974
0.12792971540613285,-3.5570099523331296,-2.5870029285661684
0.12843021590663334,-5.944922567411828,-6.769298593176933
0.12893071640713386,-7.769477267536259,-10.17313777683876
0.12943121690763434,-8.86514576099861,-12.547322032603851
0.12993171740813486,-9.128560438156867,-12.737635390745963
0.13043221790863535,-8.471492758447546,-12.800892966222614
0.13093271840913584,-6.953151571345629,-12.39788063734119
0.13143321890963636,-4.767312226305205,-9.558005788219868
0.13193371941013685,-2.1563167536344623,-5.800255405424516
0.13243421991063736,0.6420763781898424,-1.6804468390236857
0.13293472041113785,3.58836602335146,2.7458375280389147
0.13343522091163834,5.921158387115522,6.611677787380038
0.13393572141213886,7.6572736894591715,10.367601780498997
0.13443622191263935,8.851579446922173,12.605218278143976
0.13493672241313986,9.111030843027333,12.688771071684764
0.13543722291364035,8.409841028502619,12.770727631677621
0.13593772341414084,6.941113077084431,12.405609070937391
0.13643822391464136,4.713473547385148,9.806056308253199
0.13693872441514185,1.9778718445183674,5.993347959370923
0.13743922491564234,-0.6730013696538476,1.3846789949080942
0.13793972541614286,-3.5985638829640405,-2.591137418735725
0.13844022591664334,-6.037496590472198,-6.600518534588093
0.13894072641714386,-7.855432818415356,-10.100327401157774
0.13944122691764435,-8.88297072375085,-12.513315927663589
0.13994172741814484,-9.094051872790518,-12.841786380770957
0.14044222791864536,-8.36980702543371,-12.60423111282197
0.14094272841914585,-6.914355795492534,-12.403404467689136
0.14144322891964636,-4.725589584252746,-9.54503723624509
0.14194372942014685,-2.0789908260019465,-5.8120012121358755
0.14244422992064734,0.8823874946840469,-1.5842056936742104
0.14294473042114786,3.52305704787219,2.6007029419009706
0.14344523092164835,5.954888246928158,6.950830181449354
0.14394573142214886,7.745217640752017,10.240798968861187
0.14444623192264935,8.940862833199736,12.579251686997914
0.14494673242314984,9.105041658533903,12.620458741477373
0.14544723292365036,8.38930266304982,12.750332761214407
0.14594773342415085,6.899096916177029,12.204335882756844
0.14644823392465134,4.641010281781857,9.585591945396164
0.14694873442515186,2.118399432879312,5.829470535627353
0.14744923492565234,-0.8464321488757738,1.6058778924767814
0.14794973542615286,-3.631371425127211,-2.8009463070375022
0.14845023592665335,-6.0056562903299575,-6.955838613055803
0.14895073642715384,-7.7371654551447175,-10.18254253832018
0.14945123692765436,-9.013881173282043,-12.669557191375427
0.14995173742815485,-9.130828436012774,-12.833143288885324
0.15045223792865536,-8.402788131032391,-12.706996622826322
0.15095273842915585,-6.873412912255171,-12.435357798947795
0.15145323892965634,-4.6226962783547485,-9.423932494911018
0.15195373943015686,-2.018330273117571,-5.7503895824258935
0.15245423993065735,0.9037233340789088,-1.5654190780513535
0.15295474043115787,3.659676204535645,2.84352736848112
0.15345524093165835,6.003163695355471,6.812676592881214
0.15395574143215884,7.8268813539133335,10.250795250705915
0.15445624193265936,8.963836459461527,12.669318073189627
0.15495674243315985,9.01929675751293,12.810451012749477
0.15545724293366034,8.342029907129096,12.640351100366164
0.15595774343416086,6.812032958332354,12.018029232355193
0.15645824393466135,4.637940132973218,9.480837583628276
0.15695874443516186,1.8807254191366252,5.642912938070599
0.15745924493566235,-0.926957773720243,1.452381975091078
0.15795974543616284,-3.6677977108660333,-2.8440390757885483
0.15846024593666336,-6.126471072390336,-6.9792985872171185
0.15896074643716385,-7.874607877645658,-10.220305520479974
0.15946124693766436,-8.975960965008156,-12.569481968523032
0.15996174743816485,-9.123865590566782,-12.66258293103642
0.16046224793866534,-8.30195803554406,-12.709416935085361
0.16096274843916586,-6.856961170886113,-12.251844659279877
0.16146324893966635,-4.831942021979081,-9.288270683208198
0.16196374944016684,-1.8815589691235757,-5.6072514626836805
0.16246424994066735,0.9451412556787391,-1.3507660944450675
0.16296475044116784,3.680186420865666,2.8989330690505786
0.16346525094166836,6.051887426375622,6.904171368677591
0.16396575144216885,7.8901787347787025,10.372368125416877
0.16446625194266934,8.960085603000472,12.614540459704482
0.16496675244316986,9.11884442948852,12.732552125829155
0.16546725294367035,8.356037614533598,12.707446803511658
0.16596775344417086,6.672296818117925,12.269471809849653
0.16646825394467135,4.614292240849151,9.248391922651921
0.16696875444517184,1.9946148224223257,5.614448508524946
0.16746925494567236,-1.0149338914507076,1.5412860645892752
0.16796975544617285,-3.698849568696188,-2.93090562324757
0.16847025594667336,-6.029313288871036,-7.0073141579055385
0.16897075644717385,-7.846003412027323,-10.397759968863062
0.16947125694767434,-8.900076339972347,-12.614075768339335
0.16997175744817486,-9.107168939544414,-12.913067956553707
0.17047225794867535,-8.37609047707383,-12.674136750925774
0.17097275844917584,-6.742801015631152,-12.372125264915265
0.17147325894967635,-4.585292300250549,-9.442254425732617
