Time,Vin,Vout
0.004238557204900049,-0.0016461209637476642,0.0029788904417614726
0.004739057705400548,0.15362413878954242,0.1721826105452618
0.005239558205901049,0.2999939245066549,0.43460246916050876
0.0057400587064015485,0.40675998242702627,0.5856622841418103
0.006240559206902049,0.48012157449488535,0.7261002303274744
0.006741059707402549,0.5040423705289333,0.7715496401567505
0.007241560207903048,0.48200811376767577,0.7502893592657898
0.007742060708403549,0.4125052922219852,0.6586378786324759
0.00824256120890405,0.293485509932104,0.48684073118749954
0.008743061709404549,0.15482360144671112,0.2800761273464673
0.009243562209905049,0.003951086665107036,0.040922558888765934
0.009744062710405548,-0.1611999513730928,-0.1908513499226323
0.010244563210906048,-0.2979132560474764,-0.4178306530356848
0.010745063711406549,-0.4072748248281564,-0.5985060098332485
0.011245564211907049,-0.4792396110271435,-0.7170162293146832
0.011746064712407548,-0.511488546458727,-0.7843567729298399
0.012246565212908048,-0.4827420019965122,-0.7448305332800217
0.01274706571340855,-0.40842366238078176,-0.6492888200649033
0.013247566213909049,-0.2936618998729998,-0.49219731404678735
0.013748066714409549,-0.15523260140340864,-0.2902793473816583
0.014248567214910048,0.005935975997128706,-0.03975760214897929
0.014749067715410548,0.16083442031207587,0.20330005258714795
0.01524956821591105,0.30294263802815774,0.4214711858679021
0.015750068716411547,0.411071642221772,0.5942408975761578
0.01625056921691205,0.485662641317956,0.7285844199772269
0.016751069717412546,0.5084501228933687,0.7778831172994763
0.01725157021791305,0.4779616236319126,0.7397410484377165
0.01775207071841355,0.4113299100645481,0.6569675071935174
0.01825257121891405,0.30419300537421656,0.487773100038613
0.01875307171941455,0.15078179335783545,0.284458058074615
0.019253572219915048,-0.005970103271512851,0.03780058722536509
0.01975407272041555,-0.161868930220222,-0.20076291309984143
0.020254573220916047,-0.2993591159787719,-0.42394430556873774
0.02075507372141655,-0.4110395998285619,-0.5990299643824015
0.02125557422191705,-0.48573081932411694,-0.7194730933755938
0.02175607472241755,-0.5077427264958405,-0.7735807996860722
0.02225657522291805,-0.4791755915773502,-0.7537140559108144
0.02275707572341855,-0.404150661210887,-0.6432866324575212
0.02325757622391905,-0.29129762505508,-0.4795254885830207
0.023758076724419548,-0.146939491534847,-0.2890139483939906
0.024258577224920048,0.0008522076281901692,-0.02820525049552001
0.024759077725420547,0.16431042160731338,0.1985989153522104
0.025259578225921047,0.3010514412937501,0.4242751938992209
0.02576007872642155,0.4072713271893496,0.5941054930712071
0.02626057922692205,0.48435811277266766,0.7241291429680138
0.02676107972742255,0.5123818358653917,0.7706357304239658
0.02726158022792305,0.47660516552662807,0.7447715500186726
0.02776208072842355,0.4092908973437348,0.6668674244953836
0.02826258122892405,0.2851264851812106,0.4846291747763475
0.028763081729424548,0.15249400691668635,0.27751087621547416
0.029263582229925048,-0.010817092909845151,0.035600849506949514
0.029764082730425547,-0.16500505703521598,-0.2039835839814359
0.03026458323092605,-0.2986495691431459,-0.4279058020923202
0.03076508373142655,-0.4109882613559461,-0.6115835794416686
0.031265584231927046,-0.48581091508202123,-0.7232839381476255
0.03176608473242755,-0.5035417293168479,-0.7725544196174909
0.03226658523292805,-0.48344346104248487,-0.7424959045639757
0.03276708573342855,-0.40047466850327873,-0.6561651782756898
0.033267586233929045,-0.29179012976705543,-0.47816572855338757
0.03376808673442955,-0.14784253176894924,-0.2653138947021316
0.03426858723493005,0.008557662186587489,-0.02786547773828553
0.034769087735430554,0.16569496853762164,0.2115297261306189
0.03526958823593105,0.30873302251028495,0.42253704368382333
0.035770088736431546,0.41535643585500837,0.6082411692371219
0.03627058923693205,0.48103024125138405,0.728235259251615
0.03677108973743255,0.5071151516750368,0.779409920247008
0.037271590237933055,0.48016591607864906,0.7506395142737425
0.037772090738433545,0.40594748421518384,0.648342558752936
0.03827259123893405,0.29053539057699623,0.47125569034591286
0.03877309173943455,0.14406662095378472,0.27179138478853343
0.039273592239935054,-0.004462518059288849,0.04167355724881509
0.03977409274043554,-0.16683225955848874,-0.2122025564073446
0.040274593240936046,-0.3085615105437357,-0.43169821500533223
0.04077509374143655,-0.4197011445511729,-0.6069152142890347
0.04127559424193705,-0.49165159644010203,-0.7198964183613472
0.041776094742437556,-0.5102310677603916,-0.7842337144452611
0.042276595242938045,-0.4753295293955212,-0.7461612623491232
0.04277709574343855,-0.39873002107465566,-0.6470876373520985
0.04327759624393905,-0.28226716386325096,-0.47404843888015347
0.043778096744439554,-0.13465216970771243,-0.26437717902805785
0.04427859724494004,0.0059541397496894475,-0.024989514885967252
0.044779097745440546,0.17140671680483366,0.22506068638254692
0.04527959824594105,0.30933002099553425,0.4359485678683514
0.04578009874644155,0.4178676051670323,0.6051843396464825
0.04628059924694204,0.48204065968714005,0.7283677447046829
0.046781099747442545,0.5157331956278454,0.7729371992779722
0.04728160024794305,0.4732737339546739,0.7462912741891208
0.04778210074844355,0.4080392154144411,0.6529099219137926
0.048282601248944054,0.28879926573767084,0.4756968602704113
0.048783101749444543,0.1457539936224335,0.2618046097088871
0.04928360224994505,-0.013250276209212587,0.018244342527904543
0.04978410275044555,-0.17138896893482938,-0.21340192302374553
0.05028460325094605,-0.3128182558671419,-0.44254347554811796
0.05078510375144654,-0.4187584995341244,-0.6111600501223056
0.051285604251947045,-0.4920001187610387,-0.7264119433462134
0.05178610475244755,-0.5101878310214236,-0.7769573181173262
0.05228660525294805,-0.4791422622893444,-0.7451064033645255
0.052787105753448554,-0.3931787756326035,-0.6378017620781277
0.053287606253949044,-0.2884507913868488,-0.4783280000390439
0.05378810675444955,-0.14260340364020954,-0.2647025213419912
0.05428860725495005,0.02214329693920573,-0.017560363608546025
0.05478910775545055,0.17400903209800953,0.2112284216215576
0.05528960825595104,0.3086252237315492,0.43996545367971945
0.055790108756451545,0.42044981853822705,0.6127446178203754
0.05629060925695205,0.4890345471624225,0.7329030747849157
0.05679110975745255,0.5095073651709868,0.7748463196779425
0.057291610257953055,0.478497610834436,0.7501776677732337
0.057792110758453544,0.40108803956304373,0.6434546103082085
0.05829261125895405,0.2865322207495591,0.47726528918064665
0.05879311175945455,0.1404565548038305,0.2568967018462006
0.05929361225995505,-0.013164440921848937,0.014555296710833578
0.05979411276045554,-0.1785114056057396,-0.21541165933769876
0.060294613260956045,-0.31739783374270647,-0.43696252580244727
0.06079511376145655,-0.4219237721573469,-0.6233406263043412
0.06129561426195705,-0.4846061200419607,-0.7220624562266822
0.061796114762457555,-0.5104223292361563,-0.7819920253736071
0.062296615262958044,-0.472342494856324,-0.7435848621326091
0.06279711576345855,-0.40474628228922416,-0.6489593293351493
0.06329761626395905,-0.2839902055922932,-0.465648774733681
0.06379811676445955,-0.13751966830165344,-0.2627107639686599
0.06429861726496004,0.012031217215500158,-0.022123665823315104
0.06479911776546055,0.1747416048793481,0.22191086522980413
0.06529961826596105,0.31446724958930794,0.43850187024150294
0.06580011876646155,0.4171799283764982,0.6089450910595058
0.06630061926696205,0.4892395504526826,0.7323369658910275
0.06680111976746254,0.5109005057962125,0.7803963332382825
0.06730162026796305,0.4729597519753972,0.7486885526467263
0.06780212076846355,0.403729932747488,0.6358732299778371
0.06830262126896404,0.27636577050043803,0.46792279504890166
0.06880312176946454,0.14099193574490596,0.24920317206783865
0.06930362226996505,-0.019814948138721793,0.014834072945322397
0.06980412277046555,-0.17299332775491827,-0.2179593306715653
0.07030462327096605,-0.3199297490583172,-0.4359542398273736
0.07080512377146654,-0.4187352203117051,-0.6274989814337966
0.07130562427196704,-0.4875316787285004,-0.7247759736419688
0.07180612477246755,-0.5095915176299504,-0.7702698018377102
0.07230662527296805,-0.4740701722698105,-0.7396713053826312
0.07280712577346854,-0.3952816437095151,-0.6320734172266694
0.07330762627396904,-0.28179827351205244,-0.4554268685263052
0.07380812677446955,-0.13824265964659027,-0.24356272431867082
0.07430862727497005,0.020056763131738264,-0.012591818177995989
0.07480912777547055,0.17919506801657292,0.2393887273380035
0.07530962827597104,0.3178042904781799,0.4455740822657644
0.07581012877647154,0.4244663918366753,0.6221067349911655
0.07631062927697205,0.4854623570199598,0.7417098972407601
0.07681112977747255,0.5090932398479581,0.7846597239972767
0.07731163027797304,0.47502146504515796,0.7430813203651704
0.07781213077847354,0.3973858128287492,0.6375441092054535
0.07831263127897405,0.28141721279074716,0.4626273344807538
0.07881313177947455,0.1371577354874185,0.24907211595896164
0.07931363227997505,-0.021762801908217125,0.005665560256639059
0.07981413278047554,-0.17617165036028176,-0.22337158050022887
0.08031463328097604,-0.3185971320298757,-0.4489412351397312
0.08081513378147655,-0.4208825838984311,-0.6266531634634929
0.08131563428197705,-0.48242195676210103,-0.7300061062351386
0.08181613478247754,-0.5083003366764162,-0.7747846228011207
0.08231663528297804,-0.47226941916940507,-0.7350231791037057
0.08281713578347855,-0.398910175785021,-0.6361625264193619
0.08331763628397905,-0.27250394375739473,-0.4658107146365721
0.08381813678447955,-0.13305777795908943,-0.2435875645719921
0.08431863728498004,0.026574776762633805,-0.009383097461192104
0.08481913778548054,0.18627769734884891,0.22673460268192164
0.08531963828598105,0.31947233309204665,0.45175495731315807
0.08582013878648155,0.42456040556102104,0.6301337485021323
0.08632063928698204,0.4907319737407454,0.7410120236157867
0.08682113978748254,0.508165213690637,0.7825850730352031
0.08732164028798305,0.47009913031006834,0.7385095289512553
0.08782214078848355,0.38926807197410823,0.6286810402097478
0.08832264128898404,0.27327619884571724,0.45509347748740003
0.08882314178948454,0.1293558701287696,0.2478355400596003
0.08932364228998504,-0.02587635521605872,0.009588384556318514
0.08982414279048555,-0.18082392786889936,-0.2236964947725266
0.09032464329098605,-0.3192819311341953,-0.4571459027439608
0.09082514379148654,-0.4278407815985978,-0.6220408118785342
0.09132564429198704,-0.4867688027018461,-0.7252284302531484
0.09182614479248755,-0.5133653840672651,-0.7694668239982863
0.09232664529298805,-0.4724350545815674,-0.7342218408580747
0.09282714579348854,-0.3884517349616135,-0.6282973999710729
0.09332764629398914,-0.27241776607513896,-0.4563134021937371
0.09382814679448954,-0.12738799641736284,-0.24097861273508825
0.09432864729499005,0.03366549365407719,-0.004683412886375666
0.09482914779549055,0.18914705509559143,0.23404624548012531
0.09532964829599104,0.3275150144568914,0.44764936447689607
0.09583014879649164,0.4235802812111691,0.6356502921333865
0.09633064929699214,0.49044417646042454,0.7448411323474828
0.09683114979749255,0.5052224330806446,0.7880149708619372
0.09733165029799304,0.47128313356980156,0.7278231447863501
0.09783215079849364,0.3856592394658753,0.6318364534602795
0.09833265129899414,0.27654106889340785,0.45679263480978133
0.09883315179949465,0.12201719333592881,0.24109918750457335
0.09933365229999505,-0.027980645647193995,-0.0097990391241761
0.09983415280049554,-0.18779407344744412,-0.23782603272617947
0.10033465330099614,-0.3228503169317877,-0.45892537007225426
0.10083515380149664,-0.43006796559545557,-0.6283011245700544
0.10133565430199715,-0.4869970422874621,-0.7376111651069008
0.10183615480249754,-0.5077161964077255,-0.7667369615428888
0.10233665530299814,-0.4675039164165488,-0.741673372950648
0.10283715580349864,-0.3899068126554203,-0.625786214755596
0.10333765630399915,-0.26869459650784705,-0.45927441866011204
0.10383815680449965,-0.12803235634200122,-0.23929549102053668
0.10433865730500004,0.028835366956904362,0.004700940286456646
0.10483915780550064,0.1839198722359739,0.24428423975976185
0.10533965830600114,0.327333825388075,0.4619961895980677
0.10584015880650165,0.4356564619436741,0.6286203598351325
0.10634065930700215,0.495147024234075,0.7301816184770885
0.10684115980750264,0.514947902341745,0.7715865033245709
0.10734166030800314,0.47488732132240796,0.7343240299341138
0.10784216080850365,0.38897607973718246,0.6231992420429376
0.10834266130900415,0.2783325683241536,0.45073531411656326
0.10884316180950465,0.12469200507475833,0.22904504730105552
0.10934366231000514,-0.03973414248088949,-0.004563189973043209
0.10984416281050564,-0.19180579154584487,-0.2407548980657593
0.11034466331100615,-0.33009030065317146,-0.4676877684005129
0.11084516381150665,-0.4320348439960108,-0.6254476180733012
0.11134566431200714,-0.49722902255695745,-0.7384080404168418
0.11184616481250764,-0.5106827165990995,-0.7758392130995729
0.11234666531300815,-0.47372096109440887,-0.7305118013184383
0.11284716581350865,-0.39504137491442237,-0.61953725867793
0.11334766631400915,-0.2656834948898398,-0.4481649547683456
0.11384816681450964,-0.13008541838998322,-0.22766068465371211
0.11434866731501014,0.03645875118475429,0.0040960127704377635
0.11484916781551065,0.1938510441738246,0.24154191449655943
0.11534966831601115,0.3239366882734113,0.46684900410597685
0.11585016881651164,0.4335901186625024,0.6429251059460902
0.11635066931701214,0.49211416515208184,0.7353424696268182
0.11685116981751265,0.5018110908127809,0.7731002233464918
0.11735167031801315,0.47198335719340856,0.734519147800046
0.11785217081851365,0.38780496736757325,0.6262726751073114
0.11835267131901414,0.26811467166394976,0.4527205293341139
0.11885317181951464,0.12425672285494437,0.23657848117898972
0.11935367232001515,-0.0388442088307886,-0.004950204907582424
0.11985417282051565,-0.18897951520156553,-0.24632958077607095
0.12035467332101614,-0.3246145354395828,-0.45949604477938616
0.12085517382151664,-0.43458019166409273,-0.6347718208097742
0.12135567432201715,-0.49220495444237977,-0.7341735936575899
0.12185617482251765,-0.5072905420092861,-0.7767392937233987
0.12235667532301815,-0.4697545044078789,-0.7334226080935927
0.12285717582351864,-0.38490632683748294,-0.6241851710450808
0.12335767632401914,-0.26122767702683103,-0.4422842241720489
0.12385817682451965,-0.1146467697760482,-0.2195338706474054
0.12435867732502015,0.0374764953182978,0.0001357194371158887
0.12485917782552064,0.19740453293339047,0.24141973457265622
0.12535967832602116,0.32486331374656646,0.46378248064820027
0.12586017882652165,0.4363288388807236,0.6450397349702947
0.12636067932702216,0.4904204981397042,0.7406567409948962
0.12686117982752265,0.4987748792114179,0.7661653317415904
0.12736168032802314,0.4672515889738886,0.7352632745312554
0.12786218082852366,0.38597579486309624,0.6093240869719647
0.12836268132902415,0.2663689756562334,0.455101895008301
0.12886318182952466,0.11785091462240603,0.22118941815180987
0.12936368233002515,-0.03769205197231062,-0.010996716810796977
0.12986418283052564,-0.19037498806638709,-0.25380953647953647
0.13036468333102613,-0.33059944892003323,-0.46278468989437677
0.13086518383152665,-0.4347693638921592,-0.646641507364163
0.13136568433202714,-0.4930127716373369,-0.7436371405078408
0.13186618483252766,-0.5082882371301876,-0.774181412948039
0.13236668533302814,-0.4703952415439451,-0.7327414382278331
0.13286718583352863,-0.38439823783590354,-0.618746958451455
0.13336768633402915,-0.2693566514924521,-0.4411959722926946
0.13386818683452964,-0.12040280981902338,-0.21656072167011753
0.13436868733503016,0.035941285361666644,0.011751838858666357
0.13486918783553065,0.1900479533647848,0.25211274427775693
0.13536968833603114,0.3289140499253708,0.471126808689773
0.13587018883653165,0.4351761149814359,0.6297314854851598
0.13637068933703214,0.49133258297659566,0.7348928234033446
0.13687118983753266,0.5096126003496286,0.7781043048306996
0.13737169033803315,0.4686766300193994,0.7394662759337076
0.13787219083853364,0.38933584807020666,0.6177091475499593
0.13837269133903415,0.26846177016070205,0.44523854519059286
0.13887319183953464,0.11625681147691468,0.2188337613852429
0.13937369234003513,-0.042153336193877074,-0.021709238749142747
0.13987419284053565,-0.19819610972714954,-0.25512649473522353
0.14037469334103614,-0.33456315044090046,-0.4676299267720736
0.14087519384153666,-0.4325695093102264,-0.6462677230115783
0.14137569434203714,-0.49864319973435167,-0.7357076342648514
0.14187619484253763,-0.5089355079863362,-0.7717350308122487
0.14237669534303815,-0.4687164139784318,-0.7361679996524454
0.14287719584353864,-0.379863174348006,-0.6169832287677612
0.14337769634403916,-0.2606278941060788,-0.4433937410049112
0.14387819684453965,-0.11520940543697322,-0.22343075524280592
0.14437869734504014,0.04664687158649022,0.021404598612392096
0.14487919784554065,0.19423231739841404,0.26842787862186396
0.14537969834604114,0.33261283267572195,0.46723738420011207
0.14588019884654166,0.4354412576002577,0.6441285868991591
0.14638069934704215,0.4977009433938673,0.7521103393317745
0.14688119984754264,0.5011609645604804,0.7766193272243269
0.14738170034804315,0.46305040042300183,0.7257201446410585
0.14788220084854364,0.3808099132688791,0.6134374670169049
0.14838270134904413,0.25992930876485054,0.4340771887725451
0.14888320184954465,0.11239736518130701,0.2161021854330894
0.14938370235004514,-0.048568686893036075,-0.025865198443236304
0.14988420285054566,-0.19959783560003141,-0.2597760959540515
0.15038470335104615,-0.3341277184719093,-0.47962011254754017
0.15088520385154663,-0.43759775404289253,-0.6420540185475307
0.15138570435204715,-0.4952026386909484,-0.747351474339063
0.15188620485254764,-0.5066662213967691,-0.7748955911233689
0.15238670535304816,-0.4718133063476288,-0.7329136167440623
0.15288720585354865,-0.3777092095788048,-0.6195963618195849
0.15338770635404914,-0.25842842527860743,-0.43124794611149997
0.15388820685454965,-0.11274083298637452,-0.21722623892013734
0.15438870735505014,0.055997306876245274,0.031553755996834555
0.15488920785555066,0.2090995975233021,0.26271130136066684
0.15538970835605115,0.3358495096566105,0.4720829231142632
0.15589020885655164,0.4371013936258986,0.6439692374087889
0.15639070935705215,0.49508889465576406,0.7445594903403254
0.15689120985755264,0.5029200633789732,0.7756202864357326
0.15739171035805313,0.47038947088389044,0.7312290419244177
0.15789221085855365,0.3744122018990843,0.6151188070580523
0.15839271135905414,0.2558464239139171,0.42197119160965585
0.15889321185955466,0.10859698169266521,0.211379461949617
0.15939371236005515,-0.04907484209832183,-0.03098347667082041
0.15989421286055563,-0.20232246705291004,-0.27063414735501645
0.16039471336105615,-0.3293561183238164,-0.4718742120993956
0.16089521386155664,-0.44036141538770973,-0.6394188812972897
0.16139571436205716,-0.4961510085493735,-0.742420859883903
0.16189621486255765,-0.5081690994806972,-0.7715439437498535
0.16239671536305814,-0.4612993152224664,-0.7335415271717717
0.16289721586355865,-0.3800595576682823,-0.6045687761008122
0.16339771636405914,-0.2576922553346549,-0.4197221267063924
0.16389821686455963,-0.11146471668366649,-0.2139015939712545
0.16439871736506015,0.04786058971349283,0.026904601706930584
0.16489921786556064,0.2036012567772841,0.27429717188958547
0.16539971836606115,0.3405587776280316,0.47860849232125957
0.16590021886656164,0.43980312140047684,0.6347102195677017
0.16640071936706213,0.49652860768019225,0.7440813196269455
0.16690121986756265,0.50620567238736,0.7700666143958969
0.16740172036806314,0.46604487465469974,0.7202637376172148
