Time,Vin,Vout
0.0,0.0,0.0
0.0005005005005005005,0.154452270972731,0.08471233147976234
0.001001001001001001,0.2927288241285632,0.3314689791215887
0.0015015015015015015,0.4042890692752883,0.5722213334911743
0.002002002002002002,0.4737025228822634,0.7163533730235506
0.0025025025025025025,0.49810771933541453,0.7860241204752365
0.003003003003003003,0.47418815159515126,0.788589269177327
0.0035035035035035035,0.40192718152227436,0.712784528449677
0.004004004004004004,0.29251986696929244,0.5689156372030469
0.0045045045045045045,0.15246912401023377,0.3649362898364422
0.005005005005005005,-0.0015099984754745506,0.12780337385869167
0.0055055055055055055,-0.1558800392974471,-0.12231916010727727
0.006006006006006006,-0.29399170851901874,-0.35955595023600107
0.0065065065065065065,-0.40509897468687817,-0.5638169927647805
0.007007007007007007,-0.4742345104171809,-0.7096372414200466
0.0075075075075075074,-0.4980340050480425,-0.7874070621762121
0.008008008008008008,-0.47380993014351086,-0.7893583771741326
0.008508508508508508,-0.4009946937307998,-0.7102346212112802
0.009009009009009009,-0.29117507565121237,-0.5655465685301444
0.00950950950950951,-0.15099216777269708,-0.36193937741309745
0.01001001001001001,0.0030781109295871037,-0.12451674705781451
0.01051051051051051,0.1574036399663969,0.12579136304845911
0.011011011011011011,0.29525459290947453,0.36275929951369784
0.011511511511511512,0.4059088800984681,0.5663656288379013
0.012012012012012012,0.4747664979520983,0.7117814665787886
0.012512512512512512,0.4979602907606705,0.7886290871174488
0.013013013013013013,0.4734317086918704,0.7900877105140414
0.013513513513513514,0.40006220593932473,0.710016602473666
0.014014014014014014,0.2898302843331326,0.5645584554311577
0.014514514514514514,0.14951521153516095,0.360670844590389
0.015015015015015015,-0.004646223383699129,0.12294642289073572
0.015515515515515516,-0.15892724063534763,-0.12737077474387376
0.016016016016016016,-0.2965174772999299,-0.3640710318657122
0.016516516516516516,-0.40671878551005786,-0.567068773168139
0.017017017017017015,-0.47529848548701564,-0.7120798402670269
0.017517517517517518,-0.4978865764732984,-0.7879939109703235
0.018018018018018018,-0.4730534872402302,-0.7889597258847193
0.018518518518518517,-0.3991297181478505,-0.7079445871271939
0.01901901901901902,-0.28848549301505194,-0.5617165979963599
0.01951951951951952,-0.1480382552976242,-0.35754748878659737
0.02002002002002002,0.006214335837812033,-0.11952085755208693
0.02052052052052052,0.16045084130429588,0.13080554942888137
0.02102102102102102,0.2977803616903846,0.3672382655914345
0.021521521521521522,0.4075286909216479,0.5696274338681329
0.022022022022022022,0.4758304730219335,0.714233541934164
0.02252252252252252,0.4978128621859264,0.7892137676849087
0.023023023023023025,0.4726752657885896,0.7896864737426484
0.023523523523523524,0.39819723035637544,0.7077270760583959
0.024024024024024024,0.28714070169697287,0.5607292028492428
0.024524524524524523,0.1465612990600878,0.3562788212194848
0.025025025025025023,-0.007782448291923819,0.11795034844436303
0.025525525525525526,-0.16197444197324745,-0.13238491549384757
0.026026026026026026,-0.2990432460808409,-0.36854994687367404
0.026526526526526525,-0.4083385963332372,-0.5703305882364421
0.02702702702702703,-0.47636246055685094,-0.7145319325180436
0.027527527527527528,-0.4977391478985542,-0.7885785947581233
0.028028028028028028,-0.47229704433694913,-0.7885584874361218
0.028528528528528527,-0.3972647425649012,-0.7056550605360382
0.029029029029029027,-0.28579591037889374,-0.5578873425824373
0.02952952952952953,-0.14508434282255042,-0.3531554640801975
0.03003003003003003,0.009350560746036966,-0.11452478132122076
0.03053053053053053,0.16349804264219558,0.13581969446515577
0.031031031031031032,0.3003061304712965,0.37171718326724246
0.03153153153153153,0.4091485017448275,0.5728892494779866
0.03203203203203203,0.4768944480917682,0.7166856300617359
0.032532532532532535,0.49766543361118215,0.7897984460830305
0.03303303303303303,0.4719188228853091,0.7892852334273386
0.033533533533533534,0.3963322547734264,0.7054375501136647
0.03403403403403403,0.2844511190608145,0.5568999511983668
0.03453453453453453,0.1436073865850147,0.35188679775242093
0.035035035035035036,-0.01091867320014973,0.11295427378266068
0.03553553553553553,-0.16502164331114472,-0.1373990562478968
0.036036036036036036,-0.301569014861752,-0.373028861855598
0.03653653653653654,-0.4099584071564184,-0.5735924033439855
0.037037037037037035,-0.4774264356266855,-0.7169840247428654
0.03753753753753754,-0.49759171932381024,-0.7891632785100943
0.03803803803803804,-0.47154060143366816,-0.7881572490307718
0.03853853853853854,-0.3953997669819518,-0.7033655339839989
0.03903903903903904,-0.28310632774273325,-0.5540580871994032
0.03953953953953954,-0.14213043034747866,-0.34876343933030146
0.04004004004004004,0.01248678565426278,-0.109528705055634
0.04054054054054054,0.16654524398009818,0.14083383945347103
0.04104104104104104,0.30283189925220744,0.37619610090393796
0.04154154154154154,0.41076831256800733,0.5761510650574263
0.04204204204204204,0.47795842316160286,0.7191377182329183
0.04254254254254254,0.4975180050364381,0.7903831245161473
0.043043043043043044,0.47116237998202837,0.7888839930641075
0.04354354354354354,0.39446727919047714,0.7031480241294538
0.044044044044044044,0.2817615364246535,0.5530706995162472
0.04454454454454455,0.14065347410994158,0.34749477432918446
0.04504504504504504,-0.014054898108373404,0.10795819915666356
0.045545545545545546,-0.1680269490138282,-0.1423777048158646
0.04604604604604605,-0.3040947836426631,-0.3775077768775482
0.046546546546546545,-0.4115782179795962,-0.5768542184836746
0.04704704704704705,-0.47849041069652043,-0.7194361169235372
0.047547547547547545,-0.49744429074906615,-0.7897479622256762
0.04804804804804805,-0.4705212970284361,-0.7873161289680017
0.04854854854854855,-0.39353479139900127,-0.7010760074724188
0.04904904904904905,-0.2804167451065734,-0.5502288318492387
0.04954954954954955,-0.13917651787240348,-0.34437141453606024
0.050050050050050046,0.015623010562486817,-0.10453262875317426
0.05055055055055055,0.16944748677835286,0.14572517864999893
0.05105105105105105,0.3053576680331199,0.3806750184999132
0.05155155155155155,0.4123881233911868,0.5794128806033346
0.05205205205205205,0.4790223982314378,0.7215898064484777
0.052552552552552555,0.49737057646169397,0.7909678029866057
0.05305305305305305,0.4698531032508053,0.787557618729281
0.053553553553553554,0.3926023036075267,0.7008584981042202
0.05405405405405406,0.27907195378849214,0.5492414477998745
0.05455455455455455,0.1376995616348688,0.34310275095056464
0.055055055055055056,-0.01719112301659959,0.10296212456858869
0.05555555555555555,-0.17086802454287575,-0.14721722443253807
0.056056056056056056,-0.3066205524235725,-0.3819866919409136
0.05655655655655656,-0.41319802880277606,-0.5801160336583766
0.057057057057057055,-0.47955438576635506,-0.7218882090593641
0.05755755755755756,-0.4972968621743219,-0.7903326459028273
0.058058058058058054,-0.4691849094731734,-0.7859443907712845
0.05855855855855856,-0.39166981581605204,-0.6987864810025686
0.05905905905905906,-0.2777271624704124,-0.5463995765346928
0.059559559559559556,-0.13622260539733239,-0.33997938969694697
0.06006006006006006,0.018759235470711944,-0.0995365524118692
0.06056056056056056,0.17228856230740566,0.1505646982784472
0.06106106106106106,0.3078834368140307,0.38515393605398374
0.06156156156156156,0.41400793421436743,0.582674696113127
0.062062062062062065,0.4800863733012731,0.7240418947088971
0.06256256256256257,0.4972231478869499,0.7915524814962304
0.06306306306306306,0.46851671569554315,0.7861858761044729
0.06356356356356356,0.3907373280245786,0.6985689720368836
0.06406406406406406,0.2763823711523346,0.5454121960467802
0.06456456456456457,0.13474564915979353,0.33871072761689325
0.06506506506506507,-0.020327347924825576,0.09796605002013359
0.06556556556556556,-0.17370910007192486,-0.15205674401472594
0.06606606606606606,-0.30914632120448526,-0.38646560704674504
0.06656656656656657,-0.4148178396259545,-0.5833778488704027
0.06706706706706707,-0.4806183608361928,-0.724340301150078
0.06756756756756757,-0.49714943359957764,-0.7909173295398922
0.06806806806806806,-0.46784852191790993,-0.7845726525393654
0.06856856856856856,-0.38980484023310535,-0.6964969545753963
0.06906906906906907,-0.2750375798342545,-0.5425703212579672
0.06956956956956957,-0.1332686929222585,-0.3355873648127054
0.07007007007007007,0.021895460378937373,-0.09454047603025523
0.07057057057057058,0.17512963783645175,0.1554042179425977
0.07107107107107107,0.310409205594941,0.3896328535653371
0.07157157157157157,0.41562774503754435,0.5859365115847088
0.07207207207207207,0.48115034837111254,0.7264939830143458
0.07257257257257257,0.4970757193122054,0.7921371600464299
0.07307307307307308,0.46718032814027505,0.7848141335159252
0.07357357357357357,0.3888723524416322,0.6962794459266834
0.07407407407407407,0.27369278851617257,0.5415829442550251
0.07457457457457457,0.1317917366847236,0.3343187043282879
0.07507507507507508,-0.023463572833050953,0.09296997551262938
0.07557557557557558,-0.17655017560097483,-0.1568962635599913
0.07607607607607608,-0.3116720899854004,-0.39094452219568854
0.07657657657657657,-0.4164376504491328,-0.5866396641216143
0.07707707707707707,-0.48168233590603254,-0.7267923931956719
0.07757757757757758,-0.4970020050248336,-0.7915020131356724
0.07807807807807808,-0.4665121343626422,-0.783200914269899
0.07857857857857858,-0.38793986465015673,-0.6942074281914519
0.07907907907907907,-0.2723479971980927,-0.5387410660208239
0.07957957957957958,-0.13031478044718872,-0.33119533988346617
0.08008008008008008,0.025031685287162826,-0.08954439960718961
0.08058058058058058,0.17797071336549797,0.16024373764474556
0.08108108108108109,0.3129349743758564,0.39411177103350414
0.08158158158158157,0.41724755586072193,0.5891983270164791
0.08208208208208208,0.48221432344095205,0.7289460713645953
0.08258258258258258,0.496928290737462,0.7927218386382049
0.08308308308308308,0.4658439405850096,0.7834423909658396
0.08358358358358359,0.38700737685868397,0.6939899197732435
0.08408408408408408,0.2710032058800119,0.5377536924230923
0.08458458458458458,0.12883782420965692,0.3299266810844956
0.08508508508508508,-0.026599797741274717,0.08797390104694278
0.08558558558558559,-0.1793912511300212,-0.16173578306623895
0.08608608608608609,-0.3141978587663125,-0.39542343738799257
0.08658658658658659,-0.418057461272313,-0.5899014794134259
0.08708708708708708,-0.4827463109758724,-0.729244485196448
0.08758758758758758,-0.4968545764500903,-0.7920866966893928
0.08808808808808809,-0.46517574680737717,-0.7818291759609803
0.08858858858858859,-0.3860748890672113,-0.6919179018509501
0.0890890890890891,-0.2696584145619285,-0.5349118108245201
0.08958958958958958,-0.1273608679721223,-0.3268033149095594
0.09009009009009009,0.028167910195388546,-0.08454832314197464
0.09059059059059059,0.1808117888945445,0.16508325738666058
0.09109109109109109,0.31546074315676875,0.3985906884583271
0.0915915915915916,0.41886736668390206,0.5924601424072301
0.0920920920920921,0.4832782985107944,0.7313981597593064
0.09259259259259259,0.49678086216271916,0.7933065172721786
0.09309309309309309,0.4645075530297449,0.7820706484558416
0.0935935935935936,0.3851424012757389,0.6917003935765185
0.0940940940940941,0.268313623243849,0.5339244405498779
0.0945945945945946,0.12588391173458363,0.3255346578849833
0.09509509509509509,-0.02973602264950205,0.08297782662364775
0.09559559559559559,-0.1822323266590679,-0.166575302531961
0.0960960960960961,-0.31672362754722505,-0.39990235262368756
0.0965965965965966,-0.4196772720954913,-0.5931632947468414
0.0970970970970971,-0.4838102860457151,-0.7316965771529498
0.09759759759759759,-0.49670714787534825,-0.792671380200549
0.0980980980980981,-0.46383935925211284,-0.7804574376111494
0.0985985985985986,-0.38420991348426664,-0.6896283755538085
0.0990990990990991,-0.26696883192576953,-0.5310825556700047
0.0995995995995996,-0.12440695549704579,-0.3224112898915694
0.10010010010010009,0.03130413510361397,-0.07955224663423062
0.1006006006006006,0.1836528644235914,0.16992277716966855
0.1011011011011011,0.31798651193768157,0.4030696058399791
0.1016016016016016,0.4204871775070807,0.5957219577561313
0.1021021021021021,0.48434227358063603,0.7338502481978036
0.10260260260260261,0.49663343358797757,0.7938911959486449
0.1031031031031031,0.4631711654744806,0.7806989059872016
0.1036036036036036,0.38327742569279605,0.6894108673367015
0.1041041041041041,0.26562404060768896,0.530095188634659
0.1046046046046046,0.12292999925951476,0.32114263472914695
0.10510510510510511,-0.03287224755772815,0.07798175224294979
0.1056056056056056,-0.1850734021881156,-0.17141482195594826
0.1061061061061061,-0.31924939632813676,-0.4043812679024965
0.1066066066066066,-0.42129708291867096,-0.5964251101225224
0.10710710710710711,-0.4848089182339161,-0.7340496831127081
0.10760760760760761,-0.496559719300607,-0.7932560636690268
0.10810810810810811,-0.46250297169684706,-0.7790856992193126
0.1086086086086086,-0.38234493790132423,-0.6873388492997247
0.1091091091091091,-0.26427924928960966,-0.5272533005578541
0.10960960960960961,-0.12139882546515088,-0.3178776246104753
0.11011011011011011,0.034440360011840046,-0.07455617008386324
0.11061061061061062,0.1864939399526433,0.17476229699480567
0.1111111111111111,0.32051228071859766,0.4075485231787864
0.11161161161161161,0.4221069883302607,0.5989837730626844
0.11211211211211211,0.4850425439095341,0.7357513726757723
0.11261261261261261,0.4964860050132367,0.7944758746676627
0.11311311311311312,0.46183477791921557,0.7793271635607779
0.1136136136136136,0.3814124501098486,0.6871213410542025
0.11411411411411411,0.26293445797153053,0.5262659366769911
0.11461461461461461,0.11984646290807999,0.3164119796908531
0.11511511511511512,-0.03600847246595193,0.0729856779048459
0.11561561561561562,-0.1879144777171671,-0.17625434133743587
0.11611611611611611,-0.3217751651090545,-0.4088601832239552
0.11661661661661661,-0.4229168937418507,-0.5996869255408331
0.11711711711711711,-0.4852761695851523,-0.7355978163343997
0.11761761761761762,-0.49641229072586657,-0.7938407470948409
0.11811811811811812,-0.46116658414158423,-0.7777139607847805
0.11861861861861862,-0.38047996231837444,-0.6850493230881166
0.11911911911911911,-0.26158966665345146,-0.5234240454883411
0.11961961961961962,-0.11829410035100915,-0.3130916103000503
0.12012012012012012,0.037576584920068365,-0.06956009349101173
0.12062062062062062,0.18933501548169102,0.17960181686266652
0.12112112112112113,0.32303804949951503,0.41202744047537554
0.12162162162162161,0.42372679915344086,0.6022455883267059
0.12212212212212212,0.48550979526077076,0.7372995045640024
0.12262262262262262,0.496338576438496,0.7950605534289537
0.12312312312312312,0.4604983903639531,0.7779554211771811
0.12362362362362363,0.379547474526903,0.6848318147297049
0.12412412412412413,0.2602448753353688,0.5224366846767301
0.12462462462462462,0.11674173779393833,0.31162597068123343
0.12512512512512514,-0.03914469737418186,0.06798960360905061
0.12562562562562563,-0.19075555324621762,-0.18109386067590771
0.12612612612612611,-0.32430093388996595,-0.4133390985873948
0.12662662662662663,-0.42453670456503345,-0.6029487410018339
0.12712712712712712,-0.4857434209363904,-0.7371459495995752
0.12762762762762764,-0.4962648621511264,-0.7944254304784112
0.12812812812812813,-0.4598301965863213,-0.7763422223071361
0.12862862862862862,-0.37861498673543653,-0.6827597969183188
0.12912912912912913,-0.25890008401728765,-0.5195947904614524
0.12962962962962962,-0.11518937523686493,-0.308305596033154
0.13013013013013014,0.04071280982829471,-0.06456401685607462
0.13063063063063063,0.19217609101074168,0.18444133677358784
0.13113113113113112,0.32556381828042313,0.41650635773051925
0.13163163163163163,0.42534660997662394,0.605507403548236
0.13213213213213212,0.48597704661200924,0.7388476364085658
0.13263263263263264,0.4961911478637569,0.7956452322321481
0.13313313313313313,0.4591620028086906,0.7765836788366655
0.13363363363363362,0.3776824989439655,0.6825422883639716
0.13413413413413414,0.2575552926992089,0.5186074326340212
0.13463463463463463,0.11363701267979419,0.30683996162784255
0.13513513513513514,-0.04228092228240664,0.06299352935506233
0.13563563563563563,-0.19359662877526584,-0.18593337997120626
0.13613613613613612,-0.3268267026708804,-0.4178180139918729
0.13663663663663664,-0.4261565153882146,-0.6062105565053039
0.13713713713713713,-0.4862106722876283,-0.73869408290877
0.13763763763763764,-0.4961174335763876,-0.7950101138202589
0.13813813813813813,-0.45849380903105996,-0.7749704837862239
0.13863863863863865,-0.37675001115248946,-0.6804702707893511
0.13913913913913914,-0.2562105013811303,-0.5157655354769914
0.13963963963963963,-0.11208465012272345,-0.30351958181033145
0.14014014014014015,0.04384903473651857,-0.059567940179655596
0.14064064064064064,0.19501716653979012,0.18928085672765332
0.14114114114114115,0.3280895870613496,0.42098527494514715
0.14164164164164164,0.42696642079980535,0.6087692187275399
0.14214214214214213,0.4864442979632476,0.7403957682091885
0.14264264264264265,0.4960437192890185,0.7962299110765648
0.14314314314314314,0.4578256152534296,0.7752119365391884
0.14364364364364365,0.3758175233610144,0.680252761958017
0.14414414414414414,0.25486571006305175,0.5147781805492021
0.14464464464464463,0.11053228756565275,0.3020539525303378
0.14514514514514515,-0.04541714719063053,0.05799745514217866
0.14564564564564564,-0.19643770430431448,-0.1907728992233843
0.14614614614614616,-0.32935247145180724,-0.4222969294364576
0.14664664664664664,-0.4277763262113964,-0.6094723720509005
0.14714714714714713,-0.486677923638867,-0.7402422162621708
0.14764764764764765,-0.4959700050016496,-0.7955947971211008
0.14814814814814814,-0.4571574214757994,-0.7735987452222318
0.14864864864864866,-0.37488503556954383,-0.6781807447002337
0.14914914914914915,-0.25352091874497334,-0.5119362805344867
0.14964964964964964,-0.10897992500858208,-0.298733567631646
0.15015015015015015,0.04698525964474248,-0.05457186346250606
0.15065065065065064,0.19785824206883892,0.19412037672466764
0.15115115115115116,0.330615355842265,0.42546419212031295
0.15165165165165165,0.42858623162298753,0.6120310338651567
0.15215215215215216,0.48691154931448805,0.7419438999657509
0.15265265265265265,0.495896290714281,0.796814589961452
0.15315315315315314,0.4564892276981694,0.7738401942845423
0.15365365365365366,0.3739525477780734,0.6779632355129017
0.15415415415415415,0.25217612742689505,0.5109489284228118
0.15465465465465467,0.10742756245150285,0.29726794338874607
0.15515515515515516,-0.048553372098854464,0.053001380969587605
0.15565565565565564,-0.19927877983336345,-0.19561241843269672
0.15615615615615616,-0.33187824023272283,-0.4267758449199628
0.15665665665665665,-0.4293961370345789,-0.6127341876380289
0.15715715715715717,-0.48714517499010795,-0.7417903496597329
0.15765765765765766,-0.4958225764269125,-0.7961794803817832
0.15815815815815815,-0.45582103392053963,-0.7722270066154171
0.15865865865865866,-0.37302005998660315,-0.6758912186497996
0.15915915915915915,-0.25083133610881686,-0.5081070256333342
0.15965965965965967,-0.10587519989442654,-0.2939475534969833
0.16016016016016016,0.05012148455296644,-0.04957578670553091
0.16066066066066065,0.2006993175978881,0.19895989676424264
0.16116116116116116,0.3331411246231808,0.4299431092572149
0.16166166166166165,0.43020604244616867,0.6152928489617053
0.16216216216216217,0.4873788006657295,0.7434920316784056
0.16266266266266266,0.4957488621395435,0.7973992688858164
0.16316316316316315,0.4551528401429114,0.7724684520723099
0.16366366366366367,0.37208757219513316,0.675673709029896
