Time,Vin,Vout
0.0050314042553694024,0.0017217075272312214,-0.003566476925119411
0.005531904755869902,0.16314148880669033,0.12720963337318397
0.006032405256370403,0.30065127355224996,0.4156187946282085
0.006532905756870902,0.41213636534398285,0.6739837582843842
0.007033406257371403,0.49479603152236196,0.8518434466801075
0.007533906757871902,0.514173901992354,0.9383769951766959
0.008034407258372402,0.48240569183770926,0.9500384749606416
0.008534907758872903,0.40858706707702785,0.8442069878147526
0.009035408259373403,0.30227821563861623,0.672089113294933
0.009535908759873903,0.15910832577602851,0.4393838556095439
0.010036409260374402,-0.00221398932838202,0.14684101863087362
0.010536909760874902,-0.1611426472909357,-0.14292737264399896
0.011037410261375401,-0.3024662765520737,-0.4270596395368969
0.011537910761875903,-0.42001102125665635,-0.6744572750640171
0.012038411262376402,-0.4944409049579737,-0.8504176956066044
0.012538911762876902,-0.5134967293527549,-0.936551378129447
0.013039412263377402,-0.4839336200629164,-0.9413167112333918
0.013539912763877903,-0.41359861891924654,-0.8495861955704093
0.014040413264378403,-0.30003023298413795,-0.6605591183602596
0.014540913764878902,-0.1618597419789331,-0.44095978414756093
0.015041414265379402,0.0028097637266293854,-0.15616610400397007
0.015541914765879902,0.16827833138543025,0.14751839328357444
0.0160424152663804,0.2995826014441113,0.43084724923303314
0.016542915766880904,0.4154869897368488,0.6888815998758807
0.0170434162673814,0.4902673135988791,0.8536935443587504
0.017543916767881904,0.5130866326645804,0.9488939347510484
0.018044417268382403,0.4853146990824856,0.947041522435975
0.018544917768882903,0.4157736574361854,0.8606764540653
0.019045418269383402,0.2989774552818213,0.6697497686807845
0.019545918769883902,0.15507597824888908,0.4333688887388355
0.0200464192703844,-0.005968232561122237,0.16044375490215465
0.0205469197708849,-0.1643282779536879,-0.14426769781887297
0.0210474202713854,-0.30551391048823184,-0.4372839960666872
0.021547920771885904,-0.4174964388294929,-0.6720203429217179
0.022048421272386404,-0.4923710486306105,-0.8458107087413421
0.022548921772886903,-0.5176556448062709,-0.9399819349212258
0.023049422273387403,-0.4873536453860604,-0.9311604265429658
0.023549922773887903,-0.4177931727540881,-0.855712059739853
0.024050423274388402,-0.2961130463719295,-0.6663481727897621
0.024550923774888902,-0.15787984007146713,-0.41667733705182686
0.0250514242753894,0.007911431908255813,-0.1476561070045382
0.0255519247758899,0.1662055250507834,0.16222509533503335
0.0260524252763904,0.3090388695203633,0.44357251923370494
0.026552925776890904,0.4249145131671377,0.6837634253933205
0.027053426277391403,0.4997660487516859,0.8577372001503945
0.027553926777891903,0.5129689840477242,0.9429065215694282
0.028054427278392403,0.4883994458183079,0.9329219698443538
0.028554927778892902,0.41405635213509173,0.8501983307139439
0.029055428279393402,0.2921990665633252,0.6601929079874019
0.0295559287798939,0.14753962326163098,0.4307193981144258
0.0300564292803944,-0.0036535132231572277,0.14567170858697573
0.0305569297808949,-0.15706532500092568,-0.1611474802187427
0.031057430281395404,-0.303645105488931,-0.4326108372083906
0.03155793078189591,-0.424726897715712,-0.6834081121732022
0.0320584312823964,-0.4848493900993892,-0.8534678092048712
0.0325589317828969,-0.5089219181334975,-0.9418084839612738
0.0330594322833974,-0.47709340306402076,-0.940024702094382
0.033559932783897906,-0.41021902107857217,-0.8470294182731043
0.0340604332843984,-0.29237784615253376,-0.6656830096645586
0.0345609337848989,-0.15190654362266787,-0.4254387302330339
0.0350614342853994,0.010829615487151188,-0.13668015439768577
0.035561934785899904,0.16457575770614377,0.15711435370013752
0.03606243528640041,0.3148085645647724,0.4470512937819785
0.0365629357869009,0.42203443043523536,0.6809732282952635
0.0370634362874014,0.49191890642562736,0.8490698068999698
0.0375639367879019,0.5167624002468015,0.9443454891199331
0.038064437288402406,0.486150659823011,0.9404651520397201
0.0385649377889029,0.40607247996270374,0.856534643940057
0.039065438289403405,0.29320167110753326,0.6637298304657763
0.0395659387899039,0.14391266541913147,0.42338870935288825
0.040066439290404404,-0.01568318538188696,0.13179906224167706
0.0405669397909049,-0.1690086048452089,-0.1654345730009438
0.041067440291405403,-0.3097292987763664,-0.4493453756971923
0.0415679407919059,-0.41680029881293434,-0.6956116853988874
0.0420684412924064,-0.49713995187210763,-0.8521991848820978
0.042568941792906906,-0.5175861702950072,-0.9346275673929597
0.0430694422934074,-0.48322980671113147,-0.9389515817214423
0.043569942793907905,-0.410038750080609,-0.8401068575740331
0.0440704432944084,-0.29175376293613214,-0.672559160009941
0.044570943794908904,-0.14658551157465116,-0.4080088885484582
0.0450714442954094,0.008430588294162124,-0.13922392348445115
0.045571944795909904,0.17646414997376134,0.1696008899253922
0.0460724452964104,0.31938162786621777,0.454498974645159
0.0465729457969109,0.4290306070610796,0.6808135817459847
0.0470734462974114,0.4897893422047529,0.8640565397570232
0.0475739467979119,0.5166712937986832,0.9431923900532688
0.048074447298412405,0.48708801973978444,0.9374783154587855
0.0485749477989129,0.4062798823887186,0.8463223445062434
0.049075448299413404,0.28887055435130077,0.6728481530710629
0.0495759487999139,0.143462749428455,0.41279877290805445
0.050076449300414404,-0.0098394532641183,0.12885335689386065
0.0505769498009149,-0.17706034143271532,-0.16587983425375583
0.0510774503014154,-0.3160366682010617,-0.4463316331278458
0.0515779508019159,-0.421319037819573,-0.6828713919954726
0.0520784513024164,-0.48802501532609344,-0.8578906194088988
0.052578951802916905,-0.5134552508491085,-0.9396848508438392
0.0530794523034174,-0.4852074793833329,-0.939478683548256
0.053579952803917905,-0.40640686041162116,-0.8411375682415045
0.0540804533044184,-0.28506671635460323,-0.6519390809584791
0.054580953804918904,-0.14367016043901062,-0.4162745281195846
0.0550814543054194,0.01727418167339576,-0.12608312436779875
0.0555819548059199,0.1795369020449642,0.16589833724789185
0.0560824553064204,0.3151458285966165,0.4544238135395727
0.0565829558069209,0.4241546509632152,0.691518514601958
0.057083456307421405,0.48882308447259604,0.8687842092340035
0.0575839568079219,0.5109511155360481,0.9516693687735404
0.058084457308422405,0.4804860125663021,0.931847833190571
0.0585849578089229,0.41009698632063146,0.8334052731757514
0.059085458309423404,0.28721101214698036,0.6620661865889232
0.0595859588099239,0.14569387922552407,0.425693943097528
0.0600864593104244,-0.019191422740628215,0.1352365512672076
0.0605869598109249,-0.17589186895413955,-0.17477113755742515
0.0610874603114254,-0.32340170180366257,-0.45565857341434185
0.061587960811925906,-0.4252225160399728,-0.6933909903909498
0.0620884613124264,-0.4891561361197906,-0.8602682826043014
0.0625889618129269,-0.5122270863347681,-0.9504520026257315
0.06308946231342741,-0.4811945870165955,-0.9343569918167316
0.0635899628139279,-0.4013311705268418,-0.8347239503120001
0.0640904633144284,-0.28557037486278014,-0.6344137219381899
0.0645909638149289,-0.14241729881601278,-0.39222902495432405
0.06509146431542939,0.015139971558516308,-0.125585942910194
0.06559196481592991,0.1704921032645169,0.19469496597752906
0.0660924653164304,0.3199205279574073,0.4664992565933529
0.0665929658169309,0.43099056012097914,0.6992677328885556
0.0670934663174314,0.4990194665363309,0.8710541143779179
0.0675939668179319,0.5097498682544823,0.9576627738751763
0.06809446731843241,0.4837730520865234,0.9372923379862979
0.0685949678189329,0.39945024969767534,0.8315633649024268
0.06909546831943339,0.2881426579445075,0.6479743498102898
0.0695959688199339,0.13927782133828762,0.4091628404597487
0.0700964693204344,-0.013335549954664542,0.1181792503373277
0.07059696982093491,-0.17769756052494273,-0.1765985684435826
0.0710974703214354,-0.31910583095055334,-0.45536701046181993
0.07159797082193589,-0.43148378183461905,-0.6985186908142683
0.07209847132243641,-0.4960403498267757,-0.8589619856244259
0.0725989718229369,-0.5114443567776131,-0.9399719651009841
0.07309947232343741,-0.4830330770077462,-0.9383968767625392
0.0735999728239379,-0.39852893533392225,-0.8300567757438797
0.07410047332443839,-0.28264351896548606,-0.6485977131710914
0.07460097382493891,-0.13845729453493127,-0.38968987043661496
0.0751014743254394,0.020910786925516518,-0.11323093824835916
0.07560197482593992,0.1769869707152579,0.18493649834705503
0.0761024753264404,0.31727970297914954,0.46756263041805146
0.0766029758269409,0.422347505531686,0.702771800545384
0.07710347632744141,0.496865077416128,0.862515266727781
0.0776039768279419,0.512631263849136,0.948639669293523
0.07810447732844239,0.47868530004685544,0.9359520615237239
0.0786049778289429,0.4025171032426901,0.8343846952245103
0.0791054783294434,0.28143137394637163,0.6451878493423315
0.07960597882994391,0.1371252779852552,0.4024062809840194
0.0801064793304444,-0.024560235064736896,0.10502227257903339
0.08060697983094489,-0.1782169547384161,-0.18946022497098264
0.08110748033144541,-0.3191785505432141,-0.4663655222836445
0.0816079808319459,-0.42873091920653317,-0.6920490876077554
0.08210848133244641,-0.49291133906301077,-0.8640587992417009
0.0826089818329469,-0.5147129848389652,-0.9470004537350879
0.0831094823334474,-0.47072273016956195,-0.9243366679640087
0.08360998283394791,-0.4013561924567167,-0.8406274339326649
0.0841104833344484,-0.2846541383708926,-0.6396117999357872
0.08461098383494892,-0.1372297674446809,-0.3908881058852525
0.0851114843354494,0.027483331726445872,-0.11536500090292487
0.0856119848359499,0.18284973233318658,0.18866654390269866
0.08611248533645041,0.3239487204702145,0.47610370438053234
0.0866129858369509,0.4274305192631358,0.7160319821066231
0.08711348633745139,0.49114745602310234,0.8712914769925827
0.08761398683795191,0.5126065439756806,0.9441390516550126
0.0881144873384524,0.4773176165988441,0.9385034949846378
0.08861498783895291,0.40394261443090007,0.8187211657403778
0.0891154883394534,0.2767979009716156,0.6415024717889577
0.08961598883995389,0.13060256999149736,0.3964322566063247
0.09011648934045441,-0.0274395696952535,0.09263164119519685
0.0906169898409549,-0.17929351159867582,-0.19403079532264136
0.09111749034145541,-0.3235082097153042,-0.47232757910878526
0.0916179908419559,-0.4340765898519533,-0.6998942857913184
0.0921184913424564,-0.4976461067237668,-0.8654674911334113
0.09261899184295691,-0.5104306468329687,-0.9437500850615076
0.0931194923434574,-0.47897552477576544,-0.9284896739876422
0.09361999284395789,-0.39668329531776986,-0.8337557413150964
0.09412049334445849,-0.27577259247819885,-0.6448440316024772
0.0946209938449589,-0.13061223890310075,-0.38191260321266773
0.09512149434545941,0.03458302943329236,-0.09422294934037366
0.0956219948459599,0.18065237842151818,0.18707714660456815
0.09612249534646039,0.3278402838051463,0.48211066123616286
0.09662299584696099,0.43279026474916665,0.7015177569638924
0.09712349634746151,0.49843441412240813,0.8697669338868015
0.09762399684796191,0.5139369197041038,0.9509796877005612
0.0981244973484624,0.47626845674953067,0.9286903710444696
0.098624997848963,0.40019850427752934,0.834548310996331
0.09912549834946349,0.27482092328392393,0.6433973707144744
0.09962599884996401,0.13206478906137403,0.384716956012475
0.10012649935046442,-0.03569310313756792,0.09692676423001648
0.1006269998509649,-0.1895254851736464,-0.19192420597333396
0.1011275003514655,-0.33312934545899914,-0.47122863036945606
0.101628000851966,-0.4323503662943613,-0.714315193562383
0.10212850135246651,-0.4949618957860644,-0.8754639019193133
0.10262900185296689,-0.512028754029415,-0.9479112464911156
0.10312950235346749,-0.4772214683622877,-0.9275195240924405
0.103630002853968,-0.4009830962760662,-0.8286855450209532
0.1041305033544685,-0.2681663159994774,-0.6369221944656467
0.10463100385496901,-0.1301968988966648,-0.38836199018073403
0.10513150435546939,0.03660814505196802,-0.09386266833696866
0.10563200485596999,0.19286587345186282,0.209669061393855
0.10613250535647051,0.3330963900925051,0.4869036028304613
0.106633005856971,0.43497696334762337,0.706656492455237
0.10713350635747151,0.49740236306340396,0.875325083352601
0.107634006857972,0.5087850010710093,0.9576054753581893
0.10813450735847249,0.47398257455982723,0.9299935175108662
0.10863500785897301,0.3967909334263597,0.8234487953380457
0.1091355083594735,0.2708170661056856,0.6391071407155785
0.10963600885997402,0.12279511150575435,0.38327215258392533
0.1101365093604745,-0.03539228700772698,0.08890862959217889
0.110637009860975,-0.1886983069583332,-0.20544198813138398
0.11113751036147551,-0.3295123075067956,-0.4845173570236649
0.111638010861976,-0.4358092099900473,-0.708472163705092
0.11213851136247649,-0.49616116814744243,-0.8656932105338165
0.112639011862977,-0.5191889236160577,-0.9521102021104687
0.1131395123634775,-0.4764571462898917,-0.9349122615703548
0.11364001286397801,-0.39241401437136036,-0.8194507929271893
0.1141405133644785,-0.2704979820570244,-0.6307016532719607
0.11464101386497899,-0.1260612553903753,-0.3872948618600058
0.11514151436547951,0.042492570792446775,-0.0858615631308438
0.11564201486598,0.19313700402320907,0.21700004747949958
0.11614251536648051,0.3308923635162246,0.48459029495599903
0.116643015866981,0.4330570569530762,0.7098297711614723
0.11714351636748149,0.5009887325857285,0.8697587440208121
0.11764401686798201,0.5140361558981207,0.9581413901557904
0.1181445173684825,0.47463233365993107,0.9223694086987296
0.11864501786898302,0.3990129301330032,0.8181297479814014
0.1191455183694835,0.27646684106101166,0.6253502744281267
0.119646018869984,0.12146534843100623,0.37175906338620607
0.12014651937048451,-0.036091253988628134,0.09340870043793725
0.120647019870985,-0.18534430621934683,-0.212986207167716
0.12114752037148549,-0.32408482272873396,-0.4767916170470966
0.121648020871986,-0.43448611584759184,-0.7182314491937271
0.1221485213724865,-0.49966429989193256,-0.8712666387475936
0.12264902187298701,-0.5093018618290436,-0.9526518464376584
0.1231495223734875,-0.46589003997616135,-0.9228077934216071
0.12365002287398799,-0.38924884807799665,-0.810895680983823
0.12415052337448851,-0.266319802359383,-0.6238520226999579
0.124651023874989,-0.12091610194903657,-0.3688478436473158
0.12515152437548951,0.043229495469312394,-0.07631936406724336
0.12565202487599,0.19651425505812944,0.2161664129013027
0.1261525253764905,0.3282702844785072,0.49260976383408744
0.126653025876991,0.43899513132841045,0.7168174606038119
0.1271535263774915,0.4975930305839877,0.8839271037763575
0.12765402687799202,0.5129578581418697,0.946513915852093
0.1281545273784925,0.46972509394519596,0.9372998706166209
0.128655027878993,0.39614355956456376,0.8215869288394123
0.1291555283794935,0.2689962513092979,0.6198018323911026
0.129656028879994,0.11718227791677115,0.3720569141375542
0.13015652938049452,-0.04263259620282467,0.08306930044854069
0.130657029880995,-0.19583333985238904,-0.21921076306944695
0.1311575303814955,-0.33562915985779485,-0.48481555670484394
0.131658030881996,-0.4318570753200457,-0.7271709988169791
0.1321585313824965,-0.5062803102985692,-0.8797994082057518
0.13265903188299702,-0.5139884998652933,-0.941997636234107
0.1331595323834975,-0.47072557961557515,-0.9208937994218953
0.133660032883998,-0.38265302144310537,-0.8068462652132129
0.13416053338449851,-0.26605031756039565,-0.6284278311355955
0.134661033884999,-0.11865234869031682,-0.36075017212288335
0.13516153438549952,0.04462062051523458,-0.0747009706891974
0.135662034886,0.19229999869286651,0.22166928342730946
0.1361625353865005,0.3346932975132472,0.4940833144418345
0.13666303588700102,0.44009866062276676,0.7217812106561101
0.1371635363875015,0.4996560793348607,0.8826815518473197
0.13766403688800202,0.5070322888143458,0.9552379810644519
0.1381645373885025,0.47362470608803187,0.9307200890136434
0.138665037889003,0.3922141085826883,0.8148179806929509
0.13916553838950352,0.2619115670044469,0.6244648182622605
0.139666038890004,0.1137688353764505,0.3701780658056517
0.1401665393905045,-0.046878512165937636,0.07208897382107707
0.140667039891005,-0.19848279650236086,-0.22744694934584714
0.1411675403915055,-0.33359503879062247,-0.4955553782160756
0.14166804089200602,-0.4370544292496108,-0.7239919326050765
0.1421685413925065,-0.5013009155836854,-0.8765744281032616
0.142669041893007,-0.5141832445834936,-0.9428812372139846
0.14316954239350752,-0.4770893082667611,-0.9317647278521429
0.143670042894008,-0.3886474819906168,-0.804837771518371
0.14417054339450852,-0.26647821949696204,-0.6155778698264719
0.144671043895009,-0.11303327822688453,-0.35650062805610155
0.1451715443955095,0.04694911347851871,-0.0742436298583463
0.14567204489601002,0.20446767508584032,0.22842900840047786
0.1461725453965105,0.3409034889826133,0.4991551902943932
0.14667304589701102,0.43729803439550174,0.7193846917038536
0.1471735463975115,0.4971942637293787,0.8802083927537705
0.147674046898012,0.5114927767857499,0.9512097550042136
0.14817454739851252,0.46643330942185796,0.9294608137839562
0.148675047899013,0.38257662591496033,0.7978913205531234
0.1491755483995135,0.2636871377098451,0.5994850771395706
0.149676048900014,0.11424649438652414,0.36176907646900675
0.1501765494005145,-0.04735080078339502,0.06079782326385227
0.15067704990101502,-0.20918577614426476,-0.23367377310208087
0.1511775504015155,-0.33985805080574316,-0.5060441086787504
0.151678050902016,-0.4441681415939167,-0.7174112777752715
0.15217855140251652,-0.5013360348099637,-0.8760902510790555
0.152679051903017,-0.5095687188835302,-0.9441991714658176
0.15317955240351752,-0.4752042549676475,-0.9192927357181017
0.153680052904018,-0.3836934019189021,-0.8052755945452099
0.1541805534045185,-0.26636145318086,-0.6142562993415358
0.15468105390501902,-0.11403154340773698,-0.3568721305537057
0.1551815544055195,0.04396737796418799,-0.05500325954030325
0.15568205490602002,0.2042001827867236,0.23034874568915487
0.1561825554065205,0.34473314279262546,0.5201172219564427
0.156683055907021,0.4422968310321508,0.7372220074980224
0.15718355640752152,0.49770490134594303,0.8820973501111824
0.157684056908022,0.5109689998692976,0.9491223389010596
0.1581845574085225,0.4748236426743968,0.921376223379797
0.15868505790902301,0.38672315103025173,0.8130370899619767
0.1591855584095235,0.26091567029549556,0.6108811545792532
0.15968605891002402,0.1136882727186709,0.3560577955851151
0.1601865594105245,-0.04719547051834867,0.06334025405098466
0.160687059911025,-0.21022918223916054,-0.24663018323102984
0.16118756041152552,-0.3351251024722321,-0.512644629396891
0.161688060912026,-0.44198326350472367,-0.7369926984313578
0.16218856141252652,-0.4991980227156713,-0.8711975212216858
0.162689061913027,-0.5034128359937768,-0.9453363581719303
0.1631895624135275,-0.4710453024913257,-0.9187671122236712
0.16369006291402802,-0.3807638643121672,-0.7939057107982759
0.1641905634145285,-0.2555148731346669,-0.6032265778996917
0.164691063915029,-0.10950984360577004,-0.35020712556012984
0.1651915644155295,0.05071016112214078,-0.06758355162851623
0.16569206491603,0.21139907543028316,0.24447881582284253
0.16619256541653052,0.34221324782885204,0.5131788497506997
0.166693065917031,0.44413551823644526,0.7443943066028704
0.1671935664175315,0.5010192394262608,0.8827971960662352
0.16769406691803201,0.5103276732725052,0.9429512394491292
0.1681945674185325,0.47001428646454346,0.9295474889139184
0.16869506791903302,0.3821304476368424,0.801261008786067
0.1691955684195335,0.26002205482933494,0.610312190684556
0.169696068920034,0.11093003909223323,0.3509416969965274
0.17019656942053452,-0.0556718196445059,0.06652740497773868
0.170697069921035,-0.20897541100317316,-0.24410294373897748
