Time,Vin,Vout
-0.0069513809421211,-0.00013698897187332793,0.0012478867228015748
-0.0064508804416206,0.15001178634277465,0.0961509683035556
-0.0059503799411201,0.29631042272984215,0.33031413923345865
-0.0054498794406196,0.4081749843633736,0.48926108880016816
-0.0049493789401191,0.48458242435554,0.5195857352660713
-0.0044488784396186,0.5036028292407394,0.5294276690350974
-0.0039483779391181004,0.4814792532759446,0.5221903796534785
-0.0034478774386176,0.4040388696876855,0.518790769476759
-0.0029473769381171003,0.29316724636614766,0.5168851213412544
-0.0024468764376166,0.15672873234851128,0.4601091441202756
-0.0019463759371161002,-0.005611258983701916,0.20322455988401977
-0.0014458754366155997,-0.15812226415458772,-0.09921529214955205
-0.0009453749361151001,-0.29701520615712823,-0.33934605809468366
-0.00044487443561459956,-0.4159799409115783,-0.4832820288296255
5.5626064885900064e-05,-0.48458562849820613,-0.5090821826867425
0.0005561265653863997,-0.4915962405368998,-0.512615915006622
0.0010566270658868993,-0.47685749249833326,-0.5204169078077947
0.0015571275663874007,-0.4079346545498988,-0.5289436653482333
0.0020576280668879003,-0.2937620329320958,-0.5148734547670059
0.0025581285673884,-0.15505714186002048,-0.4617663436311928
0.0030586290678888996,-0.00016598878970422315,-0.18353817558262953
0.003559129568389399,0.1624915882182983,0.09973858649535487
0.0040596300688899006,0.2970000365130436,0.33286906173812786
0.0045601305693904,0.40516811650422835,0.48570103955026367
0.0050606310698909,0.4830679284843425,0.5174866867018447
0.0055611315703913995,0.5023882003366685,0.5292883099297702
0.006061632070891901,0.47842336872343855,0.5282228518811903
0.0065621325713924004,0.40193270103314155,0.5277790580548228
0.0070626330718929,0.2969926488909745,0.5206022083911855
0.0075631335723934,0.15138509648442833,0.44858274826187394
0.0080636340728939,-0.006669924445760628,0.18890113260620803
0.0085641345733944,-0.16030790894451064,-0.10279949409017956
0.009064635073894899,-0.30311071922276067,-0.34422186651071435
0.009565135574395402,-0.41461368742175897,-0.4926651596908513
0.010065636074895901,-0.47871960517675455,-0.5214700279354342
0.010566136575396401,-0.5043033573664021,-0.5221188711941541
0.0110666370758969,-0.4714523775274101,-0.5210764558204483
0.0115671375763974,-0.39910543770737666,-0.5195186192514665
0.0120676380768979,-0.29300968511011327,-0.5143312846369765
0.0125681385773984,-0.1511768738211049,-0.46465865560062986
0.013068639077898899,0.0059674477188841925,-0.18042533757808252
0.013569139578399399,0.1639817252836124,0.10027658044645787
0.014069640078899898,0.30238967638056097,0.3468858450250527
0.014570140579400401,0.40709664648965266,0.49015100084569646
0.015070641079900901,0.4797597464684904,0.5214586660462468
0.0155711415804014,0.509432175136152,0.5204534860862018
0.0160716420809019,0.4774503610774623,0.5260572912291085
0.0165721425814024,0.40502294521462284,0.5210352383159048
0.0170726430819029,0.2919239309164239,0.5201804746604821
0.0175731435824034,0.1533353650899464,0.4622011265259316
0.0180736440829039,-0.005413978452633064,0.18486416715119716
0.0185741445834044,-0.16799737825142544,-0.09972174143557319
0.0190746450839049,-0.30510953107979205,-0.34404229919302437
0.0195751455844054,-0.4212245257561483,-0.4904444966654403
0.0200756460849059,-0.4856685664236235,-0.5186891553214209
0.0205761465854064,-0.5032252225181923,-0.5170764616501237
0.0210766470859069,-0.4737468906949044,-0.5225964398133877
0.0215771475864074,-0.3982865910293717,-0.520323194268457
0.0220776480869079,-0.29019747466322265,-0.5077562799307628
0.0225781485874084,-0.15110323867975198,-0.4498466928551955
0.0230786490879089,0.01177011193265173,-0.1752076175515214
0.0235791495884094,0.1616347337437733,0.11831329797971639
0.0240796500889099,0.30691019976316214,0.35516085157602656
0.0245801505894104,0.4152072351313964,0.4875287186626791
0.025080651089910897,0.4868342965770177,0.5141897713917042
0.0255811515904114,0.49954492150332136,0.5167182274092263
0.026081652090911903,0.4713082082832413,0.5220529678848939
0.0265821525914124,0.4025801960579588,0.5256923834287809
0.027082653091912903,0.2879477332378787,0.510611801560322
0.0275831535924134,0.1471342346109985,0.45480329483571075
0.028083654092913902,-0.0065682949219178595,0.17551166063215165
0.028584154593414398,-0.16932983253383757,-0.11191866856188654
0.0290846550939149,-0.3030411910299038,-0.35184139546867255
0.029585155594415397,-0.4133149149996713,-0.49373392686845646
0.0300856560949159,-0.4798438521657114,-0.5201310556801411
0.030586156595416403,-0.49835531294234425,-0.515198032226988
0.0310866570959169,-0.47733746881019634,-0.5237103901766698
0.031587157596417406,-0.39403493419764646,-0.5260091187772672
0.032087658096917895,-0.28763635997825543,-0.5130126674309272
0.0325881585974184,-0.14072645445666834,-0.4607507765953112
0.0330886590979189,0.016683830609674356,-0.17240264849238632
0.033589159598419405,0.16896049060165091,0.11752565855016589
0.034089660098919894,0.3049522220275393,0.3543267886145954
0.0345901605994204,0.4165430571816289,0.4951244515631748
0.0350906610999209,0.4766183676155308,0.5168291449974282
0.0355911616004214,0.506445618731253,0.5200645950902715
0.036091662100921906,0.4742337557262775,0.5246749930878302
0.036592162601422396,0.40465245322752075,0.5176631612533446
0.0370926631019229,0.2805318947923966,0.5067911790637386
0.0375931636024234,0.14478708237369747,0.4432623970542717
0.038093664102923905,-0.016721887608500192,0.16825609629197077
0.038594164603424394,-0.1755277503655218,-0.11088007137095557
0.0390946651039249,-0.3124102748230203,-0.3642836047740004
0.0395951656044254,-0.4169759343962585,-0.48363206111605594
0.0400956661049259,-0.4798191160683047,-0.5150131604920164
0.040596166605426406,-0.5017507083015909,-0.5220247517987995
0.041096667105926896,-0.4738485126048135,-0.5215749501152891
0.0415971676064274,-0.403517783413713,-0.5200510424453959
0.0420976681069279,-0.2843109262373945,-0.5175095561437175
0.042598168607428405,-0.1483592171402462,-0.4395961030352749
0.043098669107928894,0.019013477096832043,-0.16583657886116826
0.0435991696084294,0.1708982662364607,0.12748609076236195
0.0440996701089299,0.3050037786226844,0.3641647748746212
0.0446001706094304,0.4156471487384945,0.48669472277756987
0.04510067110993091,0.48426048451191733,0.5194832448090732
0.045601171610431396,0.5039109805230823,0.524184700763886
0.0461016721109319,0.4692212278656654,0.5149097114106717
0.0466021726114324,0.4022206050554674,0.5200555524577058
0.047102673111932905,0.2822061385328369,0.5151510732452974
0.047603173612433394,0.14218035970477608,0.45407504631900975
0.0481036741129339,-0.020145448289776054,0.16596318273182473
0.0486041746134344,-0.16986169223572037,-0.124805854932375
0.049104675113934904,-0.30858721940190054,-0.35945698884574734
0.04960517561443541,-0.4179932799965923,-0.4892088362717368
0.050105676114935896,-0.4858017205468876,-0.5187884580759891
0.0506061766154364,-0.5025052073731262,-0.5218590429769864
0.0511066771159369,-0.4790161973774905,-0.5144908759863019
0.051607177616437405,-0.4011617936515209,-0.517649355258228
0.052107678116937894,-0.2846158163232777,-0.5171824592437407
0.0526081786174384,-0.13769323896306326,-0.4402781385638818
0.0531086791179389,0.01640596783638842,-0.15492384404859566
0.053609179618439404,0.1744521215913589,0.12340041814299896
0.05410968011893991,0.31146013794953675,0.36633154768483633
0.054610180619440396,0.42326659128330346,0.4883860399502754
0.0551106811199409,0.4797205953107813,0.51671634088668
0.0556111816204414,0.5008109998802736,0.5250123546276713
0.056111682120941905,0.47412578703906305,0.5328436895363114
0.05661218262144241,0.3968477056950819,0.5220668236306648
0.0571126831219429,0.27657294742332794,0.5148789225284489
0.0576131836224434,0.13578748056327297,0.4471797532982391
0.058113684122943904,-0.02723888795738239,0.1585197682169069
0.05861418462344441,-0.17603550579929303,-0.13613797965875737
0.05911468512394491,-0.30885258334629373,-0.36537077058011
0.0596151856244454,-0.4186291905645537,-0.49069041270772246
0.0601156861249459,-0.4817851234324808,-0.5148615090502733
0.060616186625446405,-0.5026858172855514,-0.5193141320807478
0.06111668712594691,-0.4706970375906376,-0.5159473022667053
0.0616171876264474,-0.39730033136708903,-0.5223199299570893
0.0621176881269479,-0.27846858490622517,-0.5122894831458359
0.0626181886274484,-0.1403082384306978,-0.44800098111601977
0.06311868912794891,0.016279281708020368,-0.15523801914454682
0.06361918962844941,0.1803270944913904,0.12651124214929824
0.0641196901289499,0.3167501801999326,0.35986068529196025
0.0646201906294504,0.4198113237119569,0.4968547878707589
0.0651206911299509,0.49454222152338617,0.510953321830635
0.06562119163045141,0.5022968805283643,0.5254023319082723
0.0661216921309519,0.4722851183668542,0.5193515979068252
0.0666221926314524,0.3994792188055995,0.5156787309354711
0.0671226931319529,0.2771161017992607,0.5174004647173873
0.06762319363245341,0.13131691422829106,0.4398032245135644
0.06812369413295391,-0.023930090742748728,0.15412949525886582
0.0686241946334544,-0.17817097665462042,-0.13286736403967875
0.0691246951339549,-0.319430626858687,-0.3695681127999309
0.0696251956344554,-0.4251958705793279,-0.48846265821389573
0.07012569613495591,-0.48884097197733645,-0.5166489483267321
0.0706261966354564,-0.5043220049969396,-0.5272465801931329
0.0711266971359569,-0.46666347063531183,-0.5223498690310109
0.0716271976364574,-0.3941466511355819,-0.5234230047102787
0.07212769813695791,-0.2782376450187371,-0.5216441607527782
0.07262819863745841,-0.13191305965516145,-0.4402816283403088
0.0731286991379589,0.021083651879659677,-0.14038580005883985
0.0736291996384594,0.1844262681305104,0.13860151139586274
0.0741297001389599,0.31766151594684033,0.3707786021586834
0.07463020063946041,0.4178430090279588,0.5029018460830629
0.0751307011399609,0.4870076098116584,0.5226771501939146
0.0756312016404614,0.5018220374350346,0.5185284390792363
0.0761317021409619,0.4628696402340564,0.5186620769395536
0.07663220264146241,0.39267951164923887,0.5215211138523762
0.0771327031419629,0.2768265656475313,0.5174003590717047
0.0776332036424634,0.12746289917957987,0.43509952217716746
0.0781337041429639,-0.025285723674963675,0.1439843526609606
0.0786342046434644,-0.18666160256683106,-0.14049250690407986
0.07913470514396491,-0.313511503691427,-0.37076354766916153
0.0796352056444654,-0.4204074144217416,-0.49193343439153026
0.0801357061449659,-0.4895676020941624,-0.5211476819651634
0.0806362066454664,-0.5034586731749924,-0.5255569711977321
0.08113670714596691,-0.47322166062825083,-0.5195989389841189
0.0816372076464674,-0.39332748831337677,-0.5205495948888678
0.082137708146968,-0.2727488561002667,-0.5170512628154983
0.0826382086474684,-0.13369757423518056,-0.434483096001337
0.0831387091479689,0.025570775511182173,-0.14221308352002315
0.08363920964846941,0.175627403029813,0.141732850955632
0.0841397101489699,0.32009142952879904,0.37615869896818765
0.0846402106494705,0.4264151605005526,0.4889762060141927
0.085140711149971,0.4878852244721879,0.5198180044499885
0.08564121165047141,0.5083224085236151,0.5215948546426292
0.0861417121509719,0.46410199072977526,0.5264430429712068
0.0866422126514725,0.38891224039295624,0.5260727855819398
0.087142713151973,0.27015622633678926,0.5124817462700201
0.0876432136524735,0.124269203730361,0.4371799220283698
0.08814371415297391,-0.03077903822378194,0.13791549900868877
0.0886442146534744,-0.18561656659771544,-0.14176544429681587
0.089144715153975,-0.32030311654535804,-0.38094219564987253
0.0896452156544755,-0.4227633376672816,-0.49302958894385124
0.090145716154976,-0.4889740541451438,-0.5200657505977191
0.0906462166554764,-0.5078026947046531,-0.5210162102311441
0.091146717155977,-0.4675982326557905,-0.5251875574406534
0.0916472176564775,-0.38571481370136157,-0.5207542651202056
0.092147718156978,-0.26673574045762777,-0.5051305282995097
0.0926482186574785,-0.1322344642615681,-0.43022019563108105
0.0931487191579789,0.02896362613822694,-0.13166918862653915
0.0936492196584795,0.1846547194637548,0.1529785133530134
0.09414972015898,0.31455257032487016,0.38098671779334503
0.0946502206594805,0.4269451925956928,0.49615173396812534
0.09515072115998101,0.4906195853380214,0.5100585995300604
0.0956512216604815,0.5043315090581328,0.5209473551006479
0.096151722160982,0.46952640346261476,0.5159587061826676
0.0966522226614825,0.39008621054389475,0.5195979872707731
0.097152723161983,0.2705362286850552,0.5140360427607382
0.09765322366248351,0.12399012287900309,0.43552415010857864
0.098153724162984,-0.03420080508373118,0.1285792678596359
0.0986542246634845,-0.18694936018272465,-0.14202352667521503
0.099154725163985,-0.32672677604111483,-0.3831056138047238
0.09965522566448551,-0.42783474038899044,-0.49528517484233847
0.100155726164986,-0.4852536614844134,-0.5169024083018275
0.1006562266654865,-0.5033679555109248,-0.5264548714662947
0.101156727165987,-0.47107252557075785,-0.5161703248566848
0.1016572276664875,-0.38505873149423414,-0.523802948076757
0.10215772816698801,-0.2698139964296015,-0.5126377519811872
0.1026582286674885,-0.12494180769251963,-0.42466309600710445
0.103158729167989,0.03645652910096474,-0.1285330738340554
0.1036592296684895,0.19105583692136152,0.14578767966459974
0.10415973016899001,0.3273675494233856,0.3820530005731977
0.1046602306694905,0.4301510401813674,0.49098767108783853
0.105160731169991,0.48570245973638154,0.5213406678918971
0.1056612316704915,0.505928731029172,0.5263390593593276
0.10616173217099201,0.4683045033552405,0.5228129646400391
0.10666223267149251,0.3902425943459793,0.5266188253847843
0.107162733171993,0.2654960006488152,0.506714699760585
0.1076632336724935,0.11965527043310165,0.43041699818425994
0.108163734172994,-0.03386151288217564,0.1197790678802741
0.10866423467349451,-0.19041085262820753,-0.1547824710543626
0.109164735173995,-0.3211429424921057,-0.3875305113340692
0.1096652356744955,-0.42656878645843327,-0.49378575390875834
0.110165736174996,-0.4904054731726223,-0.5203817655223023
0.11066623667549651,-0.502944468771437,-0.530438548736752
0.11116673717599701,-0.46122810984472795,-0.5216724729245091
0.1116672376764975,-0.3791147428567425,-0.5243302656726372
0.112167738176998,-0.26355384475137544,-0.5185188079408889
0.1126682386774985,-0.12424233608965073,-0.4198684280014107
0.11316873917799901,0.03864359856724692,-0.12190010110621126
0.1136692396784995,0.19211164701667546,0.15378231666484807
0.114169740179,0.3304456434028772,0.3798982065495094
0.1146702406795005,0.4344474347656922,0.502213158088388
0.11517074118000101,0.48101359252987336,0.5197836817822267
0.11567124168050151,0.5048765043932063,0.5245759648205337
0.116171742181002,0.46383318310350274,0.5262387133015728
0.1166722426815025,0.3862715217048409,0.5217086095383854
0.117172743182003,0.26502132495076297,0.5123421086785451
0.11767324368250351,0.1190348605502162,0.4257773841557105
0.11817374418300401,-0.04045794924039991,0.11807738805478128
0.1186742446835045,-0.1950361236620789,-0.15853645486449403
0.11917474518400499,-0.3322790276793547,-0.38973856642213794
0.11967524568450551,-0.42771169729965536,-0.49265425714588057
0.120175746185006,-0.4926589676397687,-0.5170934472477404
0.12067624668550651,-0.5074996274837034,-0.5289994615049362
0.121176747186007,-0.4690296275537807,-0.5219981215602142
0.12167724768650749,-0.3812134239697337,-0.5231619706500436
0.12217774818700801,-0.26407327569346867,-0.5083824342872996
0.1226782486875085,-0.11631431234496356,-0.4199889423703065
0.12317874918800902,0.03784868618680474,-0.1158314234710519
0.1236792496885095,0.19706045440700182,0.16228233915530343
0.12417975018901,0.3262852199230216,0.3906609077911898
0.12468025068951051,0.42829383923481573,0.49418332117860025
0.12518075119001099,0.48994272484538776,0.512505139020646
0.1256812516905115,0.5022724370368844,0.5191391233894034
0.126181752191012,0.46439870164333874,0.5202611145284314
0.12668225269151248,0.3820555760575947,0.515656377529125
0.127182753192013,0.25799543228166,0.523014828759841
0.1276832536925135,0.11545944751033163,0.4173222665767355
0.12818375419301398,-0.03740498341705809,0.10544330215207474
0.1286842546935145,-0.19786436051765957,-0.16411535311641118
0.12918475519401498,-0.3331915996794154,-0.38744716056108747
0.1296852556945155,-0.4334447735192806,-0.4975896208357663
0.130185756195016,-0.49059684007468113,-0.5167317159324961
0.13068625669551648,-0.4980100525218908,-0.519058715799938
0.131186757196017,-0.4660554604140032,-0.5287053684671443
0.13168725769651748,-0.3820490146532181,-0.5202922798321327
0.132187758197018,-0.2588117650048553,-0.5122126984717885
0.1326882586975185,-0.11166617693489195,-0.41361028829759916
0.13318875919801898,0.044704269439077654,-0.10925162299447382
0.1336892596985195,0.19986132219549943,0.1659082667844501
0.13418976019902,0.3287860838344313,0.3932415771433526
0.1346902606995205,0.4356038413380634,0.5003452677613925
0.135190761200021,0.48736295183945294,0.5256769879987861
0.13569126170052148,0.49642636307938687,0.5197314907468662
0.136191762201022,0.4666837928143173,0.5169793300753803
0.1366922627015225,0.3784117464343232,0.5125901801063961
0.13719276320202298,0.25665656711610724,0.5102719331050498
0.1376932637025235,0.11198681955207604,0.41197955297357775
0.13819376420302398,-0.0474032703813262,0.10993929754728952
0.1386942647035245,-0.196989995291844,-0.16580238778963427
0.139194765204025,-0.32999314331449375,-0.4001805791642038
0.13969526570452548,-0.4356881935764273,-0.4956492389248331
0.140195766205026,-0.49411644423167117,-0.5075347604122702
0.14069626670552648,-0.5016727427734927,-0.5176786489217218
0.141196767206027,-0.46124260649087595,-0.5164232292696596
0.1416972677065275,-0.38536444558845,-0.5226369967208521
0.14219776820702798,-0.2550220099372367,-0.5071324146431526
0.1426982687075285,-0.10994709120577073,-0.40641916614828705
0.143198769208029,0.05131480655605045,-0.1011874329002296
0.1436992697085295,0.20018628541407812,0.17047847176749242
0.14419977020903,0.33032217288396093,0.39798060509763644
0.14470027070953048,0.44565822807297806,0.5033670334842832
0.145200771210031,0.491743958333668,0.5229426051405813
0.1457012717105315,0.5020213520877156,0.5224844919887065
0.14620177221103198,0.466471698471147,0.526530011505851
0.1467022727115325,0.37633650896370646,0.5263772385954827
0.14720277321203298,0.258434462596612,0.5163488049626657
0.1477032737125335,0.10453460966939354,0.4091907883186276
0.148203774213034,-0.05134448964882231,0.1028867360036822
0.14870427471353448,-0.20087846590596853,-0.1722863918057345
0.149204775214035,-0.3324187655249811,-0.40720559911640963
0.14970527571453549,-0.4342790003920223,-0.5025740125240515
0.150205776215036,-0.49203348807166714,-0.5229097767640125
0.1507062767155365,-0.506121503673466,-0.5148278770959962
0.15120677721603698,-0.4622190308751206,-0.5236028717673903
0.1517072777165375,-0.3772085716628303,-0.5229738277039824
0.152207778217038,-0.2591997457669132,-0.5104544759260964
0.15270827871753848,-0.11170504186111743,-0.40056929889915743
0.153208779218039,0.04815565261502246,-0.09678076234780592
0.15370927971853948,0.2012799636167348,0.18213734822284383
0.15420978021904,0.3390333388854863,0.4077061081147383
0.1547102807195405,0.43079062993811024,0.5044101844286619
0.15521078122004098,0.4926435905870699,0.5204265439160453
0.1557112817205415,0.5026075272055163,0.5301016703324045
0.15621178222104198,0.4552106705224689,0.5239571145787749
0.1567122827215425,0.3773748480230957,0.5171217358636749
0.157212783222043,0.2557078552260145,0.5131433958021567
0.15771328372254348,0.10010915346180344,0.40189169362090277
0.158213784223044,-0.057783469390666586,0.09101683060097022
0.15871428472354449,-0.20232189516547702,-0.17802724811490075
