Time,Vin,Vout
0.008495952775239913,0.0019334661739436952,0.0031292939961232533
0.008996453275740413,0.15144779467981573,0.053451948960873415
0.009496953776240913,0.293836848071209,0.1821075170388602
0.009997454276741414,0.409740497594288,0.3180541829748171
0.010497954777241914,0.4767015690121839,0.43409526845176793
0.010998455277742413,0.5058878260102051,0.49367079696033417
0.011498955778242913,0.47914057232864493,0.5178273526361241
0.011999456278743412,0.40722662001526716,0.48577613174508505
0.012499956779243912,0.2938915155947925,0.40968138217817507
0.013000457279744413,0.1565652543079389,0.2853980804188566
0.013500957780244913,0.002171315781231573,0.14030586855956562
0.014001458280745414,-0.1533569652183949,-0.012481275009475315
0.014501958781245914,-0.30088227151350583,-0.1716829979793452
0.015002459281746414,-0.4066731636401334,-0.3183708715215662
0.015502959782246913,-0.47704775420590506,-0.4262389641942408
0.016003460282747413,-0.49950483537831114,-0.49697514846447954
0.016503960783247913,-0.47530983118881676,-0.5169952093318763
0.017004461283748412,-0.40649142860400234,-0.48292961094503273
0.017504961784248915,-0.29565070715161007,-0.4000190541738251
0.01800546228474941,-0.15513163564989005,-0.28554365740393856
0.018505962785249915,-0.0014169072370056439,-0.14059650911022747
0.01900646328575041,0.1562117430210178,0.022484698742278243
0.019506963786250914,0.30488093856180554,0.1872440057684302
0.020007464286751413,0.4054078263082246,0.3160965780702223
0.020507964787251913,0.48217568389473076,0.43179804426072793
0.021008465287752413,0.5045094911287461,0.49974942871764916
0.021508965788252912,0.4820033694796221,0.5118772435682062
0.022009466288753415,0.4050727261946725,0.48428999374558346
0.02250996678925391,0.2938699547794452,0.40606802263741304
0.023010467289754415,0.1606687217667373,0.28499600111673457
0.02351096779025491,0.001236216630494716,0.14139240717552762
0.024011468290755414,-0.16169889673971544,-0.02121634338098259
0.02451196879125591,-0.29819571419914637,-0.17509616145539808
0.025012469291756413,-0.4170746737543605,-0.3153911710330096
0.025512969792256916,-0.47986000890332103,-0.42926321820237723
0.026013470292757412,-0.5069806142546228,-0.5025664652500644
0.026513970793257916,-0.4793266077185695,-0.5107679383612043
0.02701447129375841,-0.403856394067068,-0.48133821903730517
0.027514971794258915,-0.29478864254734116,-0.3995147826462283
0.02801547229475941,-0.14890522839958906,-0.2823790415515823
0.028515972795259914,0.0033150942494463496,-0.13408710404537824
0.02901647329576041,0.16000114569692048,0.024436921014630648
0.029516973796260913,0.3015417130958303,0.19002625750807783
0.030017474296761416,0.41184930696366423,0.3232066856635957
0.030517974797261913,0.4807509969081901,0.4337938818139409
0.031018475297762416,0.5014410372389954,0.500813837273847
0.03151897579826291,0.4762731020914629,0.5114345084970188
0.032019476298763415,0.4070132609713043,0.48166305285279
0.03251997679926391,0.28733712049911414,0.4067895518651178
0.033020477299764414,0.14568739242822035,0.2748634991935529
0.03352097780026491,-0.008509467822811326,0.13298971039317656
0.03402147830076541,-0.16452746350983852,-0.022194957654679777
0.034521978801265917,-0.30487941177542643,-0.18147025640936848
0.03502247930176641,-0.4160240506953667,-0.31790911479753997
0.035522979802266916,-0.48755985830042176,-0.4222477325048212
0.03602348030276741,-0.5077410045649243,-0.49660498881929116
0.036523980803267915,-0.4744901973869278,-0.5100629994137799
0.03702448130376841,-0.40537044192058064,-0.4737392857852462
0.037524981804268914,-0.2904666000669311,-0.39828288650510413
0.03802548230476941,-0.14743356608145353,-0.281589846070881
0.038525982805269914,0.009965833314871973,-0.12796987480389097
0.03902648330577042,0.16258769249472677,0.032142427003599386
0.03952698380627091,0.30497522354817364,0.18221051820803616
0.040027484306771416,0.41891423657945615,0.32823646826706354
0.04052798480727191,0.4855781992150848,0.4281223521831767
0.041028485307772415,0.5051605539496538,0.4954500720965393
0.04152898580827292,0.48041872872438196,0.5160914511955088
0.042029486308773414,0.39727786027920625,0.4851403947827629
0.04252998680927392,0.28931489410005046,0.39697172031287403
0.043030487309774414,0.15175582285427588,0.28000166884881234
0.04353098781027492,-0.006027484947221808,0.1294022713254334
0.04403148831077541,-0.16947202072185413,-0.02562044918987196
0.044531988811275916,-0.3055335450025811,-0.1825318336537334
0.04503248931177641,-0.4156028515912447,-0.32649733411172355
0.045532989812276915,-0.488184246062817,-0.43324961468496076
0.04603349031277742,-0.5057955808706223,-0.49907296038849086
0.046533990813277915,-0.4764978931762625,-0.5121913487546977
0.04703449131377842,-0.40408869355386196,-0.47750396955514945
0.047534991814278914,-0.2842619809796793,-0.39899405725662523
0.04803549231477942,-0.14904551582232942,-0.2709127635454952
0.04853599281527991,0.011413635058821075,-0.13301236236753422
0.049036493315780416,0.1636128815365827,0.03267451873950725
0.04953699381628091,0.2981682334838012,0.1922970808269726
0.050037494316781415,0.4166569796592942,0.3295666087565232
0.05053799481728191,0.4825846060033789,0.4317671168272929
0.051038495317782415,0.5084861795741492,0.49702847037601966
0.05153899581828292,0.4771651711493276,0.520819222904077
0.052039496318783414,0.40355958262253067,0.4926736840209494
0.05253999681928392,0.28619496551524587,0.4012217469976342
0.05304049731978441,0.13787209044592094,0.277788533302043
0.053540997820284916,-0.015276353607628254,0.12924041290779556
0.05404149832078541,-0.16825737234509172,-0.03288689547847161
0.054541998821285916,-0.3087296338505006,-0.18841530009888768
0.05504249932178641,-0.41516890741378654,-0.3276673038818552
0.055542999822286915,-0.47450108507356165,-0.4345999789531241
0.05604350032278742,-0.5058137323143008,-0.496065318846384
0.056544000823287914,-0.4787166137330923,-0.5120018750136532
0.05704450132378842,-0.39444185574607227,-0.4778209850862006
0.05754500182428891,-0.2861825805293652,-0.3926460308652811
0.058045502324789416,-0.1358778377262992,-0.2759816256514439
0.05854600282528991,0.011758914067384132,-0.12855652883406368
0.059046503325790416,0.1692101424584996,0.03992495970808071
0.05954700382629091,0.31147590656609925,0.1860900703048348
0.060047504326791415,0.4200706081495609,0.3339267093711277
0.06054800482729192,0.4867837172168839,0.4386614272253226
0.061048505327792414,0.5052445254818287,0.5026415183352712
0.06154900582829292,0.4730597923977611,0.5118349017476023
0.06204950632879341,0.4028280542734261,0.47293423178998356
0.06255000682929392,0.2880591878897289,0.3962740097059681
0.0630505073297944,0.14081162238642425,0.27692966472285047
0.06355100783029491,-0.017837454082687634,0.12394336053210032
0.06405150833079541,-0.16447330242717967,-0.03433319957612937
0.06455200883129592,-0.31007345335465764,-0.1955485993220529
0.06505250933179642,-0.4195733988966934,-0.3317846319803259
0.06555300983229691,-0.47888954043038146,-0.4343888840894928
0.06605351033279741,-0.501287621836619,-0.49910400675649896
0.06655401083329791,-0.47435565415590486,-0.5122948744652476
0.06705451133379842,-0.39538886802930784,-0.4766922136680179
0.0675550118342989,-0.2802574461685208,-0.3944618648013937
0.06805551233479941,-0.13495119730649777,-0.26338241939923573
0.06855601283529991,0.019103898596785747,-0.11942999209935948
0.06905651333580042,0.1786269242985295,0.04117502421681926
0.06955701383630092,0.3138369228346166,0.2004895295960596
0.07005751433680141,0.4178656246659088,0.331518183170359
0.07055801483730191,0.4832455869786732,0.4432048764321535
0.07105851533780241,0.5080060349386312,0.49578438040344297
0.07155901583830292,0.4701968505172678,0.5164100489283697
0.07205951633880342,0.39780460759748776,0.4742651713064052
0.07256001683930391,0.28475197306265,0.3934413617152247
0.07306051733980441,0.13415720417495608,0.2764533082762227
0.07356101784030492,-0.024321329268679078,0.1223768358768131
0.07406151834080542,-0.1778900141989354,-0.0373263329133791
0.07456201884130592,-0.3132082768724794,-0.19194472645318666
0.07506251934180641,-0.42066958813358013,-0.3309284981304852
0.07556301984230691,-0.4801575842161433,-0.44208683660482534
0.07606352034280742,-0.5060430457430315,-0.5015174883433641
0.07656402084330792,-0.465167006502594,-0.5103949405289935
0.07706452134380841,-0.39212519182754235,-0.4724582509297211
0.07756502184430891,-0.2732743979751369,-0.3907705766782403
0.07806552234480942,-0.13977211331291176,-0.26729650698208296
0.07856602284530992,0.022198257818740245,-0.11752003450336256
0.07906652334581042,0.17812081906983557,0.03709196523961808
0.07956702384631091,0.31722082755230907,0.19717103265808164
0.08006752434681141,0.42563362868146654,0.3381690034949956
0.08056802484731192,0.48525374472625477,0.43993189315172376
0.08106852534781242,0.5039692720480599,0.5067151361454684
0.08156902584831291,0.4695597881143544,0.5177869776162197
0.08206952634881341,0.3963288261427121,0.47456767765229907
0.08257002684931392,0.2753154718036641,0.3919131132419694
0.08307052734981442,0.13249850522090656,0.27041896985399855
0.08357102785031492,-0.02685515784891164,0.11719902079104719
0.08407152835081541,-0.17887045841862964,-0.038273513989922694
0.08457202885131591,-0.3117890558352633,-0.19219259276151562
0.08507252935181642,-0.4223803641617748,-0.33621529927199095
0.08557302985231692,-0.4885746840485814,-0.4369953674057022
0.08607353035281741,-0.5025474977850382,-0.5031766826620769
0.08657403085331791,-0.4701385798401454,-0.5102103950757457
0.08707453135381842,-0.39047026314174677,-0.47651942624008303
0.08757503185431892,-0.2827834431245036,-0.3902497694440578
0.08807553235481942,-0.12960652436470665,-0.26630014342394964
0.08857603285531991,0.02647151348513244,-0.11937594417185311
0.08907653335582041,0.18237503718532985,0.0456604201112808
0.08957703385632092,0.31853077077956865,0.20137107420635528
0.09007753435682142,0.4263126019040913,0.34088059953104016
0.09057803485732191,0.48919499285207163,0.4440158329846878
0.09107853535782241,0.5022422805756691,0.5029955750189615
0.09157903585832292,0.46998743376833296,0.5121441117840158
0.09207953635882342,0.38937003748502796,0.4752848219131385
0.09258003685932391,0.2763551977983791,0.38809318396217385
0.09308053735982441,0.1291194871740013,0.2601865975769013
0.09358103786032491,-0.029479997290835367,0.11758939956529486
0.09408153836082542,-0.17471203076688638,-0.04851179226232237
0.09458203886132592,-0.3188409179077321,-0.2002443047912767
0.09508253936182641,-0.4252268597569303,-0.340466835364494
0.09558303986232691,-0.4919008985672996,-0.4416401335748858
0.09608354036282742,-0.5003550709963411,-0.4959498469396607
0.09658404086332792,-0.47152795002822306,-0.5101296013151336
0.09708454136382841,-0.3935474805425322,-0.4693847806484762
0.09758504186432901,-0.2803435784243447,-0.3825942938039247
0.09808554236482941,-0.12645791077020846,-0.26643768884125646
0.09858604286532992,0.025619053921124485,-0.11699825088147355
0.09908654336583042,0.1836782846185284,0.04778161093329971
0.09958704386633091,0.32130556453485587,0.20465624541629163
0.10008754436683151,0.42460524706709873,0.3414545206967996
0.10058804486733201,0.493498492482987,0.43928303259896573
0.10108854536783242,0.5037021669056776,0.5056280871092305
0.10158904586833291,0.47002639860448964,0.5119902713070337
0.10208954636883351,0.3924801330790547,0.47180247152233884
0.10259004686933401,0.2674949725961617,0.3856966906634533
0.10309054736983451,0.1271402907603237,0.26743264675777917
0.10359104787033492,-0.03404127862518106,0.11670669476170703
0.10409154837083541,-0.1808192281753652,-0.04784455328396967
0.10459204887133601,-0.3266745531933268,-0.20607735438974276
0.10509254937183651,-0.42960004308244404,-0.3434947889659536
0.10559304987233702,-0.48289647259440704,-0.4378445613355647
0.10609355037283741,-0.5035677034732037,-0.5044469229816471
0.10659405087333801,-0.4715644637742213,-0.5117991436959249
0.10709455137383851,-0.38841082708340635,-0.47073873750110623
0.10759505187433901,-0.275477656291313,-0.38847846648719936
0.10809555237483952,-0.1194678567643215,-0.2650161042363509
0.10859605287533991,0.032849835348969084,-0.10943179336538499
0.10909655337584051,0.18603547632126546,0.05014343872967189
0.10959705387634101,0.3172147728954006,0.20741702727699657
0.11009755437684152,0.4274323301067315,0.34328770263396413
0.11059805487734202,0.4870027371775012,0.44358633857411806
0.11109855537784251,0.5067028041728339,0.5010241978095077
0.11159905587834301,0.46837064126215205,0.5123007149883505
0.11209955637884352,0.39410395615930605,0.4729858495037335
0.11260005687934402,0.270588174177505,0.38563463725242325
0.11310055737984452,0.12796154404873603,0.2587733658129519
0.11360105788034501,-0.029774779528570213,0.11441995645543483
0.11410155838084551,-0.1870936720402013,-0.05344195419912224
0.11460205888134602,-0.3180662521443994,-0.201337379549552
0.11510255938184652,-0.43171741587173224,-0.3317942019479026
0.11560305988234701,-0.49222759705195696,-0.4379598375518055
0.11610356038284751,-0.5079806665270519,-0.4999511102579706
0.11660406088334802,-0.4668252472561452,-0.5095805730167303
0.11710456138384852,-0.3797204924458172,-0.46704594250357556
0.11760506188434902,-0.26320197799213085,-0.3882773110361947
0.11810556238484951,-0.12355433820238805,-0.25941147567995454
0.11860606288535001,0.03747770168206303,-0.1037944453106685
0.11910656338585052,0.1864796968618243,0.05118113213125936
0.11960706388635102,0.32305565981304957,0.20929461573743932
0.12010756438685151,0.43308979647352863,0.34617894127486737
0.12060806488735201,0.4873218384461826,0.445104663198861
0.12110856538785252,0.49855683919389476,0.5056563815987105
0.12160906588835302,0.4642559688089248,0.5152899218820568
0.12210956638885352,0.3833074766566966,0.46937668701197977
0.12261006688935401,0.2668176328334801,0.3836312168435665
0.12311056738985451,0.11541044543683501,0.25930218940640676
0.12361106789035502,-0.0380777639138855,0.10343999969155923
0.12411156839085552,-0.18788357351370275,-0.05374209682396286
0.12461206889135601,-0.32020252206015093,-0.20850762960578978
0.1251125693918565,-0.43072491786011313,-0.3416393485453441
0.12561306989235702,-0.4876495281070761,-0.44380790451609353
0.1261135703928575,-0.5006630883140089,-0.5007135530696633
0.12661407089335802,-0.4678828326618184,-0.5157038036789683
0.1271145713938585,-0.38363607205416134,-0.46663251876685097
0.127615071894359,-0.2631290604334047,-0.3876026362435172
0.12811557239485952,-0.11546706467303554,-0.2530626994934703
0.12861607289536,0.03615404251134501,-0.10719344726513932
0.1291165733958605,0.19262030635220057,0.059526779126435655
0.129617073896361,0.32955090775202667,0.21653761333819196
0.1301175743968615,0.4282159718174287,0.3431769482984451
0.13061807489736202,0.48941542047539155,0.44422388721072925
0.1311185753978625,0.4996533784609149,0.500762565972361
0.131619075898363,0.4628032936532203,0.5119862366406418
0.13211957639886351,0.3804124435899071,0.4716782686156964
0.132620076899364,0.2661525927683197,0.37501807210154664
0.13312057739986452,0.12202974135488479,0.2521439981456353
0.133621077900365,-0.0352389889086787,0.10755336484478019
0.1341215784008655,-0.19951319594023229,-0.059317633484108505
0.134622078901366,-0.32370618894697345,-0.20624912262682069
0.1351225794018665,-0.44003629587430976,-0.3493020954753724
0.135623079902367,-0.4918861031745186,-0.45192084054794557
0.1361235804028675,-0.5049454510137912,-0.5006268998708693
0.136624080903368,-0.46725050284325237,-0.5123202699539142
0.1371245814038685,-0.3829352976799178,-0.46753545099131116
0.137625081904369,-0.26534431754086274,-0.3760473109096808
0.1381255824048695,-0.11813312428712598,-0.2512389302606476
0.13862608290537,0.03631498359148987,-0.1014122630859079
0.1391265834058705,0.20336770421210343,0.056350935411300034
0.139627083906371,0.32724038682700357,0.21820848853005845
0.1401275844068715,0.428637188015896,0.3447882796043554
0.140628084907372,0.4854493360000695,0.4473533236731785
0.14112858540787251,0.506076393941003,0.49874206654090203
0.141629085908373,0.4665366980698598,0.5153682270547466
0.1421295864088735,0.3783353404288781,0.4668271562131355
0.142630086909374,0.2610074650198166,0.3761481630824714
0.1431305874098745,0.11373373865616128,0.24949147243691197
0.143631087910375,-0.04796371715102464,0.10406218473282114
0.1441315884108755,-0.1999469904126127,-0.059818730787232856
0.144632088911376,-0.3310009000034358,-0.21574265623876693
0.1451325894118765,-0.4352231963057068,-0.3557859516000603
0.145633089912377,-0.48952787843837353,-0.45214640201500295
0.1461335904128775,-0.5005468767113883,-0.5023337101626723
0.146634090913378,-0.46429057399685186,-0.5111259395333692
0.1471345914138785,-0.38088022044434167,-0.46557482220838164
0.147635091914379,-0.2620097047964944,-0.3696775567909463
0.1481355924148795,-0.10998386106108524,-0.24959204368095042
0.14863609291538,0.04995690800146095,-0.09887117874446662
0.1491365934158805,0.20189135910812683,0.06273435712185055
0.149637093916381,0.32743204851556207,0.22045416501475
0.15013759441688151,0.43393235376322536,0.35045592834391087
0.150638094917382,0.4946087813118366,0.4526704569456402
0.1511385954178825,0.5049805871487165,0.5087762378583935
0.151639095918383,0.472630151586164,0.5109191158047761
0.1521395964188835,0.38200427459278435,0.4611096678970718
0.152640096919384,0.2592152050194232,0.37541923767622515
0.1531405974198845,0.11345077839831215,0.24679504963161228
0.153641097920385,-0.0539306884880758,0.09650861744265082
0.1541415984208855,-0.20585983779297856,-0.0623729778879082
0.154642098921386,-0.3295359286687291,-0.2264040184057826
0.1551425994218865,-0.4358507116615666,-0.3471590873450274
0.155643099922387,-0.49221253820251165,-0.4533880289084186
0.1561436004228875,-0.49422885697099633,-0.5039788030862371
0.156644100923388,-0.46908712580792006,-0.5129871921136986
0.1571446014238885,-0.37504334449265675,-0.4625515150928212
0.157645101924389,-0.256354945103001,-0.37177388572110914
0.1581456024248895,-0.10915391121260398,-0.24712493177002368
0.15864610292539,0.05264031375052086,-0.09278618473682591
0.15914660342589051,0.20368826628430953,0.06932683495537624
0.159647103926391,0.3305330258025161,0.21812498846952513
0.1601476044268915,0.43492169145960885,0.3529234334350661
0.160648104927392,0.49079560803501615,0.45537391056647564
0.1611486054278925,0.4996501808079559,0.5086795013655988
0.161649105928393,0.46182946767388,0.5105120024311548
0.1621496064288935,0.37934140057543575,0.4652392303066009
0.162650106929394,0.2534762560995927,0.37479327331195095
0.1631506074298945,0.1093306948547591,0.24157723453153906
0.163651107930395,-0.052429165021702806,0.0950391670277175
0.1641516084308955,-0.20728680080641043,-0.06918836371586509
0.164652108931396,-0.332220318482008,-0.2222749034308029
0.1651526094318965,-0.4356536281669252,-0.350709777909997
0.165653109932397,-0.4955532833208147,-0.4463585276663367
0.1661536104328975,-0.49961985903224443,-0.4987790466075771
0.166654110933398,-0.4627763810242789,-0.5030182783542718
0.1671546114338985,-0.37467824040605735,-0.468031268434443
0.167655111934399,-0.2508809837491575,-0.37269559673246005
0.1681556124348995,-0.11021527769117884,-0.23972259666992832
0.1686561129354,0.0493432604245088,-0.09264969883901647
0.1691566134359005,0.20903193333433412,0.06915438397695288
0.169657113936401,0.33844012745730484,0.22635949924676887
0.1701576144369015,0.4329448426831686,0.35735000122374977
0.170658114937402,0.4985859956214475,0.4525438620100208
0.1711586154379025,0.5020136829968203,0.505664048035735
0.171659115938403,0.45955718056958583,0.5111308555458144
0.1721596164389035,0.3771532643285176,0.46470948188670125
0.172660116939404,0.2592858718057838,0.37157910197533267
