Time,Vin,Vout
-0.006994468629676116,-0.00164790660159415,0.0028228536079659356
-0.0064939681291756165,0.1512019319077734,0.09170806788377693
-0.005993467628675116,0.28376287574835474,0.3192103639007018
-0.005492967128174616,0.391856448607165,0.45590544224327434
-0.004992466627674117,0.46237332017239385,0.496459373679174
-0.004491966127173616,0.48308389601066853,0.5009449424820863
-0.003991465626673116,0.46097594383591306,0.49302998917862323
-0.003490965126172616,0.3934745001377654,0.49441960106613486
-0.0029904646256721165,0.2860430072688138,0.49236327436947414
-0.002489964125171616,0.14292409124548666,0.44372948060444317
-0.0019894636246711164,-0.002024539132107006,0.1860430722583745
-0.001488963124170616,-0.1525802287758112,-0.09721159416566184
-0.0009884626236701163,-0.2833972087644834,-0.31908907604800496
-0.00048796212316961577,-0.39243079087808846,-0.4717411405759275
1.2538377330883858e-05,-0.4631622351028118,-0.495353359664921
0.0005130388778313835,-0.48205597005125195,-0.4940396418026352
0.0010135393783318831,-0.45881558657187604,-0.5004202713645828
0.0015140398788323845,-0.38970300898537735,-0.4928174692116762
0.002014540379332884,-0.28060387162067696,-0.4974137671067959
0.0025150408798333837,-0.15078763337777992,-0.43876019620699463
0.0030155413803338834,0.0025529036081778796,-0.18487146220072087
0.003516041880834383,0.15221991969380788,0.0981840391530462
0.004016542381334884,0.2858509372443705,0.3241204360508136
0.004517042881835384,0.395732507403341,0.4577964073981892
0.005017543382335884,0.4524826295335384,0.4927475208016852
0.005518043882836383,0.482750376106965,0.4959913240524438
0.006018544383336885,0.45675736008080364,0.4968501599817617
0.006519044883837384,0.38154077519157487,0.49995438764733835
0.007019545384337884,0.28055172634572895,0.4936883594488744
0.0075200458848383835,0.14529561365400728,0.4295161082088393
0.008020546385338882,-0.0004899089730682567,0.18102371596165975
0.008521046885839385,-0.15223767112553566,-0.0887909651490146
0.009021547386339882,-0.2831523657962817,-0.3241554984874279
0.009522047886840385,-0.3930003999438222,-0.46359545719416173
0.010022548387340884,-0.4623763956918472,-0.4912408964446688
0.010523048887841384,-0.48427197320762416,-0.4925268061131612
0.011023549388341883,-0.45146205046050575,-0.4930267503262865
0.011524049888842383,-0.38649556848256217,-0.5026419702922671
0.012024550389342883,-0.2852420567562977,-0.48714689084219165
0.012525050889843382,-0.13906492881080595,-0.4349575222593884
0.013025551390343882,-0.0004547449454135673,-0.17879535107804945
0.013526051890844382,0.15433002725658693,0.10571551955986451
0.014026552391344881,0.282148839447187,0.3308379324064723
0.014527052891845384,0.39347684495781843,0.4610286786720327
0.015027553392345884,0.4613690460682725,0.4894460628765877
0.015528053892846384,0.48153147823277215,0.5003423149636035
0.016028554393346883,0.45837884946620105,0.49913502989881964
0.016529054893847383,0.3839138721908112,0.5011726581752146
0.017029555394347883,0.27334763621518554,0.49471996234697885
0.017530055894848382,0.13781820431594005,0.4344686465130518
0.018030556395348882,-0.006791892043373006,0.1739918114886313
0.01853105689584938,-0.16034012014446655,-0.09971993288029532
0.019031557396349884,-0.2908077817485537,-0.3283043049547937
0.019532057896850384,-0.3928975987173357,-0.4729561579144797
0.020032558397350884,-0.4597814653156555,-0.48743311154251395
0.020533058897851383,-0.4823322767904139,-0.4996637160531153
0.021033559398351883,-0.4578655238473395,-0.49231168996850305
0.021534059898852383,-0.38113957059864234,-0.49724644364426834
0.022034560399352882,-0.2786004432385765,-0.49234444184108633
0.022535060899853382,-0.1402000874815707,-0.41925852965787963
0.02303556140035388,0.00866793747211029,-0.17313770691908476
0.023536061900854385,0.15721317568000323,0.1089840825604973
0.024036562401354884,0.29502610728760326,0.3392517112222848
0.024537062901855384,0.39402198067135513,0.46460642482200903
0.02503756340235588,0.46148432007039697,0.4919072896279084
0.025538063902856383,0.48009658519726883,0.4989513508701359
0.026038564403356886,0.4555241343402991,0.5017713039195023
0.026539064903857382,0.3790977078158258,0.49924539935467177
0.027039565404357885,0.2712874417248518,0.4906645160391908
0.02754006590485838,0.13712065624878567,0.43409309969063825
0.028040566405358885,-0.008656235236116258,0.1728181430290794
0.02854106690585938,-0.15970493974134892,-0.10452835503177647
0.029041567406359884,-0.28955605351308566,-0.33826842895204773
0.02954206790686038,-0.39690850306291703,-0.46277298532619776
0.030042568407360883,-0.4632137564310217,-0.49177882016203733
0.030543068907861386,-0.48549517741090853,-0.5008472719978911
0.031043569408361883,-0.45252006100854913,-0.4987550812953623
0.03154406990886239,-0.38005915092643955,-0.5010778225486817
0.032044570409362885,-0.27675746027453696,-0.4996938168885255
0.03254507090986339,-0.13361907337359885,-0.4327001517838008
0.033045571410363885,0.012011907265484319,-0.153569133652673
0.03354607191086439,0.15852929380563704,0.10420456029178014
0.034046572411364884,0.29647983961637003,0.33928006846159753
0.03454707291186539,0.39761894578260587,0.4626852971522025
0.03504757341236588,0.4632885405369004,0.48755786717002575
0.035548073912866386,0.4797454933132905,0.4994005903041714
0.03604857441336689,0.45826397598627805,0.49685294482371845
0.036549074913867385,0.3809204278535855,0.5023984015795357
0.03704957541436789,0.27917033837681393,0.49226807737251627
0.037550075914868385,0.13434157162676735,0.4228717040065332
0.03805057641536889,-0.016088303455258312,0.15857021404065044
0.038551076915869384,-0.1651525613513875,-0.1140812712524194
0.03905157741636989,-0.2958278541397667,-0.34139692480440387
0.03955207791687038,-0.39722875538140495,-0.4585185624549187
0.040052578417370886,-0.4611248409872236,-0.48951742120746966
0.04055307891787139,-0.48349591828311816,-0.49349941852305135
0.041053579418371886,-0.45026787234946614,-0.49475104903102723
0.04155407991887239,-0.38430047193399763,-0.5005406310735845
0.042054580419372885,-0.2711708374446856,-0.48596632683792657
0.04255508091987339,-0.13495056055081275,-0.4215432796601382
0.043055581420373884,0.01691923155449496,-0.15959467444421452
0.04355608192087439,0.16182333043950936,0.11775386212514881
0.04405658242137488,0.2948196751996083,0.3470148591817377
0.044557082921875386,0.4025432248307276,0.4660041113352085
0.04505758342237589,0.4675361909827157,0.49415867475667113
0.045558083922876386,0.4763573861072102,0.4986161394840138
0.04605858442337689,0.4558685157915032,0.5002776794611344
0.046559084923877385,0.38080716723756025,0.4946262784111921
0.04705958542437789,0.2732947500849028,0.4932641310119069
0.047560085924878384,0.13135891103977307,0.4327876751138853
0.04806058642537889,-0.015749420551500335,0.15461342526697444
0.04856108692587938,-0.16663437374770435,-0.11960962032996798
0.049061587426379887,-0.29860355155839785,-0.3427065417746613
0.04956208792688039,-0.4010272781333438,-0.47484710126766994
0.050062588427380886,-0.46581123721817635,-0.4965233247477538
0.05056308892788139,-0.48138961231642635,-0.5043697780504312
0.051063589428381885,-0.45422233105571347,-0.49337273222443057
0.05156408992888239,-0.3784296478806207,-0.4998678494135535
0.052064590429382884,-0.2628958027240286,-0.4909435791589507
0.05256509092988339,-0.13084969843851066,-0.41929613008795896
0.053065591430383884,0.011641318776411086,-0.15278773799560755
0.05356609193088439,0.16607148809395883,0.11948139092207612
0.05406659243138489,0.30137958176074814,0.3467837447536084
0.054567092931885386,0.39701355134177974,0.46932346454556056
0.05506759343238589,0.46471683793416907,0.496664390805253
0.055568093932886385,0.4806413951091839,0.4986805255215175
0.05606859443338689,0.45241493903800845,0.4987322968612099
0.05656909493388739,0.3767693269628173,0.49001416798201713
0.05706959543438788,0.26380556230013347,0.483303324324708
0.057570095934888384,0.12909700330327584,0.42326231126517405
0.05807059643538889,-0.02488142288095363,0.15130568075941328
0.05857109693588939,-0.17209297881674196,-0.1206562613275899
0.05907159743638989,-0.29656153322617695,-0.3520785519133149
0.05957209793689038,-0.4018168409440416,-0.4730372210294476
0.060072598437390885,-0.46760776348271954,-0.48852159757906577
0.06057309893789139,-0.48363634420710444,-0.5029616648138419
0.06107359943839189,-0.44635155067543425,-0.4908596749237149
0.06157409993889238,-0.3747379149533974,-0.49678748021277996
0.062074600439392884,-0.26773853870336917,-0.4897006306581764
0.06257510093989338,-0.13187493339946613,-0.4314921174097578
0.06307560144039388,0.018487260957757125,-0.1430204449435049
0.06357610194089439,0.17076262385396698,0.12237236902395421
0.06407660244139488,0.2970363078561508,0.3484255658106924
0.06457710294189538,0.4023329589225036,0.46856348730953873
0.06507760344239588,0.463553320795682,0.4921322151024964
0.06557810394289638,0.48004329328620704,0.5010174550373769
0.06607860444339687,0.4530366798536447,0.49344946533071943
0.06657910494389738,0.3756231345766227,0.498225270053614
0.06707960544439788,0.2641828938966516,0.4887485535965818
0.06758010594489838,0.12924463890696639,0.41146785167265953
0.06808060644539889,-0.023755827810607824,0.14604838204606896
0.06858110694589938,-0.17337564855942122,-0.1250389711589657
0.06908160744639988,-0.3030727781007031,-0.35525746338271635
0.06958210794690038,-0.403495960640161,-0.4702817826066611
0.07008260844740088,-0.4653753407698051,-0.4967634168691701
0.07058310894790137,-0.47991383005075305,-0.49894041932333993
0.07108360944840188,-0.44800789119970075,-0.4981846261838564
0.07158410994890238,-0.38052867347328745,-0.5069977951443594
0.07208461044940288,-0.26228627896011447,-0.48672540349461585
0.07258511094990339,-0.12020492561858338,-0.42042236695772334
0.07308561145040388,0.025703586698338707,-0.13248490592028736
0.07358611195090438,0.1671096616482289,0.12512140697947022
0.07408661245140488,0.30506351633806145,0.3518519326615077
0.07458711295190538,0.4046503933087265,0.4695481790609394
0.07508761345240587,0.46444400719304696,0.493214942904501
0.07558811395290638,0.481156234637453,0.4912873488086615
0.07608861445340688,0.4570757693909656,0.49705817910033306
0.07658911495390738,0.3752340001260042,0.5002098404852783
0.07708961545440787,0.2575823189570106,0.49748905898350687
0.07759011595490838,0.12480331893794763,0.42509818332913385
0.07809061645540888,-0.02973175163238634,0.13220247754808973
0.07859111695590938,-0.1710423915979598,-0.13249103170074386
0.07909161745640989,-0.30554245527503526,-0.3536334820327215
0.07959211795691037,-0.40136309956583544,-0.4689988770675879
0.08009261845741088,-0.46495341296157316,-0.48917872165161874
0.08059311895791138,-0.48203071170738954,-0.4975478654509356
0.08109361945841188,-0.44592249287850594,-0.4994514004578839
0.08159411995891237,-0.37414701862554284,-0.49595185716017676
0.08209462045941297,-0.25110119458187535,-0.4838231122627122
0.08259512095991338,-0.12005060893356849,-0.4034337883025178
0.08309562146041388,0.02604281099461488,-0.13378086161593697
0.08359612196091439,0.1760091327601676,0.1449230435157823
0.08409662246141487,0.3084169535517448,0.3609525118089032
0.08459712296191547,0.4036340222377318,0.4739286360596636
0.08509762346241598,0.46716036006533773,0.4963409460922316
0.08559812396291638,0.48320239147177196,0.49023315821573954
0.08609862446341687,0.44438853256959804,0.4978180901547665
0.08659912496391747,0.37528600387335076,0.4921472125087357
0.08709962546441798,0.2564491590486764,0.48873258856784585
0.08760012596491848,0.12215108743696096,0.40624567731324507
0.08810062646541889,-0.02951297244120199,0.1305559127811211
0.08860112696591937,-0.18227835413467408,-0.1296623776360349
0.08910162746641997,-0.3059225187274315,-0.36713004778778974
0.08960212796692048,-0.4105253393101936,-0.47402816530135117
0.09010262846742098,-0.4652843812838376,-0.4925485497652654
0.09060312896792137,-0.4850270171151198,-0.49348662891878287
0.09110362946842197,-0.44599796027161653,-0.5009656268466768
0.09160412996892248,-0.37783048432531363,-0.49825944213259027
0.09210463046942298,-0.25646183841449977,-0.4784895818971932
0.09260513096992348,-0.12002695969486772,-0.4070553749864218
0.09310563147042387,0.028593009405550675,-0.12521670294533618
0.09360613197092447,0.17727688949322484,0.14196233456751167
0.09410663247142498,0.30602580507702404,0.3549962982500878
0.09460713297192548,0.4092219738057214,0.4803909038541673
0.09510763347242598,0.4690009452577811,0.4984924960205279
0.09560813397292647,0.4795426100931119,0.4994377688479448
0.09610863447342698,0.45356056503232045,0.49855060470722445
0.09660913497392748,0.371967581946226,0.5011247396726278
0.09710963547442798,0.2553648084027821,0.49099425168334226
0.09761013597492849,0.11899579742632853,0.4149619264937355
0.09811063647542898,-0.030258456255356805,0.1275522632390499
0.09861113697592948,-0.1786294216032786,-0.13903809292315136
0.09911163747642998,-0.310446329425762,-0.36029150002658705
0.09961213797693048,-0.4074211428798452,-0.4787892587393665
0.10011263847743097,-0.46739986692494173,-0.48797079286105033
0.10061313897793148,-0.4778644558534683,-0.5037381738707555
0.10111363947843198,-0.44897357696660456,-0.49314781711368133
0.10161413997893248,-0.3674870437245235,-0.4929578850363888
0.10211464047943299,-0.2594823534725329,-0.4892284790492768
0.10261514097993348,-0.11851840289293544,-0.4080677147849953
0.10311564148043398,0.030266370466911514,-0.12328887577167719
0.10361614198093448,0.18083803004595714,0.13917138284484382
0.10411664248143498,0.31200952536210647,0.3684252432349361
0.10461714298193547,0.4078733558058792,0.4717414096543934
0.10511764348243598,0.4699993502184353,0.4976321652874928
0.10561814398293648,0.48508907284904385,0.49523404545038047
0.10611864448343698,0.4511152590527437,0.4971461967842217
0.10661914498393749,0.37019000648677436,0.5006523219968618
0.10711964548443798,0.25867169254076094,0.4955283755420736
0.10762014598493848,0.11646243540259364,0.41041234638212304
0.10812064648543898,-0.033915468577650015,0.1197246532454972
0.10862114698593948,-0.18526284576876248,-0.14631310041020865
0.10912164748643997,-0.3122146422454512,-0.3717067669920464
0.10962214798694048,-0.40807244465213605,-0.47348291206400633
0.11012264848744098,-0.47385663511714843,-0.4904952318288942
0.11062314898794148,-0.4820975428705886,-0.4915807744690677
0.11112364948844199,-0.445008691390524,-0.49802587315511865
0.11162414998894248,-0.3667716338396088,-0.48925639029772605
0.11212465048944298,-0.251252127174897,-0.48772856348256727
0.11262515098994348,-0.1167167850637376,-0.4009993172834071
0.11312565149044398,0.03541534886982321,-0.11500644040482104
0.11362615199094447,0.1830622016035642,0.14606622725350304
0.11412665249144498,0.311923092737805,0.363242140304244
0.11462715299194548,0.4115571335278396,0.47741592410313854
0.11512765349244598,0.46628783735651413,0.4996811929016412
0.11562815399294649,0.48196712358580396,0.4961891703824401
0.11612865449344698,0.44743808591760326,0.49325381244198296
0.11662915499394748,0.36599413342751497,0.4931570926137056
0.11712965549444798,0.2539547666191425,0.489035335647536
0.11763015599494848,0.11724293609250191,0.40263854587068737
0.11813065649544899,-0.03930626764922638,0.10657351155834155
0.11863115699594948,-0.18501300701011514,-0.14534554349546963
0.11913165749644997,-0.31863542873141476,-0.3736689877854167
0.11963215799695048,-0.41056220062080684,-0.4715425476498796
0.12013265849745097,-0.46606946199980287,-0.48258508401024724
0.12063315899795149,-0.483282994447766,-0.5016862337313038
0.12113365949845198,-0.4488078239800362,-0.49360623881306626
0.12163415999895247,-0.3680601595710454,-0.49695922399101666
0.12213466049945298,-0.2527201146254008,-0.4883433532866227
0.12263516099995347,-0.1131550457302902,-0.39086718601994197
0.12313566150045399,0.03888851261458243,-0.11387535705300848
0.12363616200095448,0.18192501818955387,0.14819630696447833
0.12413666250145497,0.32035252834876976,0.3728205127298138
0.12463716300195549,0.412524277411483,0.4709601071786433
0.12513766350245598,0.47416062879330206,0.49779071719182005
0.1256381640029565,0.4813121507168261,0.5007940139964885
0.12613866450345698,0.44613066800695594,0.49704943462853446
0.12663916500395747,0.36804229043172265,0.49607521864674664
0.127139665504458,0.24729192810624387,0.48888827415075664
0.12764016600495848,0.11149470448725458,0.40261905021541655
0.12814066650545897,-0.0402152164701883,0.1045922094539799
0.12864116700595948,-0.18420446724465303,-0.14934369713727103
0.12914166750645997,-0.31471895124436317,-0.3671323905558712
0.1296421680069605,-0.415790400233239,-0.4724724553034066
0.13014266850746098,-0.4677624053525004,-0.49638187620283164
0.13064316900796147,-0.4851360973097372,-0.5103847681098321
0.13114366950846199,-0.44670736031579594,-0.49682755101170467
0.13164417000896247,-0.35676833505622585,-0.4946209839697417
0.132144670509463,-0.2497964389551658,-0.4906462884271441
0.13264517100996348,-0.10297155944187879,-0.39432524888126835
0.13314567151046397,0.04398063682354486,-0.10166141923713085
0.1336461720109645,0.1880918495311709,0.1575774284665772
0.13414667251146498,0.3175233067238037,0.38026133833774256
0.1346471730119655,0.4114067161581892,0.47560918317755063
0.13514767351246598,0.4721962282890936,0.49718344776394024
0.13564817401296647,0.47733107069875946,0.49681104696944844
0.136148674513467,0.4444770929529943,0.4973028128137151
0.13664917501396748,0.36270506464149604,0.49996344126763925
0.13714967551446797,0.24756170490794557,0.48323932557401567
0.13765017601496848,0.10912228800157583,0.39043882144383013
0.13815067651546897,-0.03736187103529812,0.10304255513705503
0.1386511770159695,-0.18660466628892955,-0.16347638473283727
0.13915167751646998,-0.3186292586369024,-0.3742764150359502
0.13965217801697047,-0.40546311103030297,-0.4774501641612729
0.14015267851747099,-0.46770153096980044,-0.4948635096418474
0.14065317901797147,-0.4781530319917447,-0.49775355741045
0.141153679518472,-0.44465556256127653,-0.49431889594476147
0.14165418001897248,-0.36310178710947977,-0.49499820267371725
0.14215468051947297,-0.2455117202402558,-0.4801409949000367
0.1426551810199735,-0.10015374925148267,-0.38967459536684923
0.14315568152047398,0.0491924729313563,-0.09506878422077322
0.1436561820209745,0.1923718825563344,0.1663831372235243
0.14415668252147498,0.3174358709065709,0.37726712260490636
0.14465718302197547,0.41446918019040685,0.4729401885206788
0.145157683522476,0.46411325789933117,0.49676641056408155
0.14565818402297648,0.4801266766770427,0.5019579156393655
0.14615868452347697,0.43770834183531926,0.49141325917387974
0.14665918502397748,0.3639722913413607,0.49936278099211256
0.14715968552447797,0.24394270539602037,0.48761749689066997
0.1476601860249785,0.10784722732418094,0.3871630702005481
0.14816068652547898,-0.0425310852376656,0.0944940402535315
0.14866118702597947,-0.195204446041058,-0.1721171210850688
0.14916168752647999,-0.31990758409675013,-0.38998092923707556
0.14966218802698047,-0.4101083752457067,-0.4723325885717628
0.150162688527481,-0.47306848476615376,-0.4927400392395502
0.15066318902798148,-0.47564891313134583,-0.49931907328254305
0.15116368952848197,-0.43835855457507156,-0.4903903142843777
0.1516641900289825,-0.36096701975224893,-0.4973481768489485
0.15216469052948298,-0.23959933628987767,-0.4754012985373713
0.15266519102998347,-0.10157373095658771,-0.38515950018078665
0.15316569153048398,0.051886269550452495,-0.09331729614207618
0.15366619203098447,0.1948634787834046,0.17212997480662645
0.154166692531485,0.3230692901371194,0.3852998135279559
0.15466719303198548,0.41694270020219193,0.4682285754702889
0.15516769353248597,0.47442099686528116,0.49607411352789127
