Time,Vin,Vout
-0.0006883048827077704,0.0011360055707234239,-0.012898581655591969
-0.00018780438220727046,0.15459385712203635,-0.2638285264249207
0.0003126961182932295,0.2842965733841285,-0.12219596542953058
0.0008131966187937296,0.39392898342748645,0.227780692164575
0.0013136971192942294,0.4627279884161866,0.7358479575254278
0.0018141976197947295,0.47529094137109074,4.053689380252263
0.0023146981202952295,0.4603695822826762,11.76782954282015
0.0028151986207957296,0.3914010658545142,12.930444301148064
0.003315699121296229,0.2882573261097777,13.019626690085834
0.0038161996217967297,0.1452423647679029,12.921070767388507
0.004316700122297229,-0.002400710411209128,13.070695469412094
0.00481720062279773,-0.15315108375232978,12.805392326892571
0.0053177011232982295,-0.28431230918818395,12.914061452667616
0.00581820162379873,-0.38635052767716704,13.067976347862556
0.00631870212429923,-0.4592685831109579,12.87110258150878
0.006819202624799729,-0.48368291373600103,13.075567009921368
0.007319703125300229,-0.45979840588499865,12.90845931368882
0.00782020362580073,-0.3910519356330789,13.011033398533296
0.00832070412630123,-0.27756568989393243,13.063840731114412
0.00882120462680173,-0.1474501707484993,13.22978776351955
0.009321705127302229,0.0022499029747564446,12.920738407266677
0.009822205627802729,0.14983208911301268,13.03808404418422
0.01032270612830323,0.28774071785940214,12.80100021397489
0.01082320662880373,0.39589899660476285,12.772885375746766
0.01132370712930423,0.4638855676074966,12.974422791868337
0.011824207629804729,0.4832856248695327,12.98392849675909
0.01232470813030523,0.45997595524942775,13.028858507173107
0.01282520863080573,0.3925142552119187,13.007115658334161
0.01332570913130623,0.28240134693680696,13.093948563294264
0.01382620963180673,0.14614321818822779,12.927668229680645
0.014326710132307229,-0.0006947388124135586,13.04621401867648
0.01482721063280773,-0.15654539982391466,13.022702727119349
0.015327711133308228,-0.2886134191627939,12.814253597447214
0.01582821163380873,-0.3876261316661286,13.17589503362202
0.016328712134309233,-0.4661404158898953,13.078018676061676
0.01682921263480973,-0.4860785307325968,12.934347615228162
0.017329713135310232,-0.4578193700649367,12.967604207983602
0.017830213635810728,-0.3893570915678855,12.68857214323964
0.01833071413631123,-0.2800458477195347,13.098831957477215
0.018831214636811727,-0.14502164342463117,13.017252271191953
0.01933171513731223,0.004443648962386488,12.962271573093428
0.019832215637812727,0.15370065676345576,12.853622627899345
0.02033271613831323,0.2859681211841011,13.08077649042049
0.020833216638813733,0.39088598892564475,13.35752677664586
0.02133371713931423,0.464056222270391,13.234972840049592
0.021834217639814732,0.4766216581658966,12.8876760965544
0.022334718140315228,0.4580541573610559,12.985713361201652
0.02283521864081573,0.3888346752158836,13.034432614734579
0.023335719141316227,0.28021439362761463,13.23281602883568
0.02383621964181673,0.14218456039788474,13.10785522755614
0.024336720142317227,-0.008186653039653553,12.778690102992835
0.02483722064281773,-0.16307050123403297,13.07972636207745
0.025337721143318233,-0.29350067722747347,13.079475586658207
0.02583822164381873,-0.3923218773856343,12.953331121768437
0.026338722144319232,-0.46292340741431875,12.943384398041884
0.026839222644819728,-0.4872744885085836,12.830089936573442
0.02733972314532023,-0.4592739183606769,13.071708946644652
0.027840223645820728,-0.38753659732743284,13.047324143468405
0.02834072414632123,-0.2745289516790355,12.880743347787245
0.028841224646821727,-0.14486224382849075,13.14795187318581
0.02934172514732223,0.012924474316575797,12.975571559523258
0.029842225647822733,0.1627476906624178,13.166264937046696
0.03034272614832323,0.2909577432550692,12.841326400038495
0.030843226648823732,0.3995559343942302,13.098010103933886
0.03134372714932423,0.4650178610374272,12.858250667251685
0.03184422764982473,0.48499164853372717,13.254780606259972
0.032344728150325235,0.4688218271264102,12.965719156258274
0.03284522865082573,0.3875636710565029,13.09748400786664
0.033345729151326234,0.2778036709935028,13.187450810055847
0.03384622965182673,0.14293246382593414,12.892038919709666
0.03434673015232723,-0.011595233390006624,13.00100740262449
0.03484723065282773,-0.15935051716752846,12.776236341101438
0.03534773115332823,-0.2940305670132764,12.830022281543078
0.03584823165382873,-0.39595624953737185,12.939830385966271
0.03634873215432923,-0.46545282967465695,12.875858008389047
0.036849232654829735,-0.4789101757624105,12.85822061551416
0.03734973315533023,-0.4561326991101998,12.79587022724458
0.037850233655830734,-0.38453470640411574,12.936594380300134
0.03835073415633123,-0.26749008077771297,12.816127638655551
0.03885123465683173,-0.1377171594758142,12.85349874459732
0.03935173515733223,0.01414875638540263,13.090437738101453
0.03985223565783273,0.16006858923865377,13.15124406593339
0.04035273615833323,0.2936630542498511,12.872529402405307
0.04085323665883373,0.39755319458309,12.947687126139444
0.04135373715933423,0.4654622871863099,12.952300969005977
0.04185423765983473,0.483451367914588,13.10083876577875
0.042354738160335234,0.45401278300049036,12.975701856836984
0.04285523866083573,0.38178962747042117,12.703823224948657
0.04335573916133623,0.27129843111269963,12.825726094693254
0.04385623966183673,0.13723313226825418,13.045902718420757
0.04435674016233723,-0.011477001081559104,12.871040700143935
0.04485724066283773,-0.16209755420461686,13.179993920441014
0.04535774116333823,-0.29635028284603854,12.869572721007662
0.04585824166383873,-0.4010003517246385,13.036077516186587
0.04635874216433923,-0.461635539523909,13.313806382152148
0.046859242664839734,-0.48140149121119596,13.02363085912738
0.04735974316534023,-0.4558112833846231,13.028176331307957
0.047860243665840733,-0.38731211707986307,13.072962010873129
0.04836074416634123,-0.2742799333005725,13.06156880817634
0.04886124466684173,-0.13292262304249647,12.768460807970289
0.04936174516734223,0.014066177590486721,13.077335054471142
0.04986224566784273,0.16526787030141527,13.062918601879861
0.05036274616834323,0.29813619553899373,12.879874278743115
0.05086324666884373,0.4020163018932122,13.012304782909258
0.051363747169344234,0.4598334271250994,12.810646702430217
0.05186424766984473,0.48199373772391163,12.970115357791473
0.052364748170345234,0.45349629833318905,12.92878418817845
0.05286524867084573,0.3865207910996318,13.180882113657187
0.05336574917134623,0.2727436574764576,13.128326802935332
0.05386624967184673,0.1323054874540718,12.802677242938115
0.05436675017234723,-0.015928564078921792,13.032217012243873
0.05486725067284773,-0.16429215113257048,12.889496515416093
0.05536775117334823,-0.29631119207383627,12.742614965786075
0.055868251673848734,-0.4040160738783075,12.994226866665972
0.05636875217434923,-0.4675495187522049,13.014439703263932
0.056869252674849734,-0.4881871504864875,13.002996690192822
0.05736975317535023,-0.4500265493895909,13.187980727981383
0.05787025367585073,-0.38147254891631377,13.084828201998775
0.05837075417635123,-0.26809668282985194,13.167050757628083
0.05887125467685173,-0.13116007214474723,12.840803023421307
0.05937175517735223,0.022829319914873834,12.7821422941208
0.05987225567785273,0.16815381642228427,12.99037284464731
0.060372756178353235,0.29552263866492906,12.82285895308857
0.06087325667885373,0.4021324306206334,12.924856046360318
0.061373757179354234,0.46645427595009065,13.047060752976824
0.06187425767985473,0.48327380385022883,12.787444379742759
0.06237475818035523,0.4515840125144853,12.823099778129416
0.06287525868085574,0.3806407633610085,13.095453979412117
0.06337575918135623,0.26765159368443975,12.987520155290085
0.06387625968185673,0.13554427133484698,13.136729389166199
0.06437676018235723,-0.02007333816782366,12.815991097718243
0.06487726068285773,-0.1779994471593811,13.04387342278523
0.06537776118335824,-0.3049492231110202,13.005611619523737
0.06587826168385873,-0.40206480667907196,12.860599727930277
0.06637876218435923,-0.4664395754658899,12.8703738458443
0.06687926268485973,-0.4805137013098522,12.837352962105498
0.06737976318536024,-0.4565307466758329,13.182052515409177
0.06788026368586073,-0.3790232988078461,13.08153317162569
0.06838076418636123,-0.263076536824975,12.785541772917139
0.06888126468686173,-0.13205081410568908,13.098335874420723
0.06938176518736223,0.022948040818234823,12.853573373775244
0.06988226568786274,0.16779801673812542,12.885092740864689
0.07038276618836323,0.3035756413918979,12.986831443567485
0.07088326668886373,0.40654776842093715,13.049222837861574
0.07138376718936423,0.4625545044792721,12.910670308540785
0.07188426768986474,0.48659726944725684,12.968019009012572
0.07238476819036523,0.4542932746444144,13.140146493272098
0.07288526869086573,0.37959284309123104,12.958409753092193
0.07338576919136623,0.27049980202644885,13.222102595324452
0.07388626969186673,0.13028851281148998,12.971063218272654
0.07438677019236724,-0.02459035669563971,12.749211466375492
0.07488727069286773,-0.17583946638347858,13.165768270725867
0.07538777119336823,-0.30254776326747,13.128891524783239
0.07588827169386873,-0.40674818388404627,13.093226307855147
0.07638877219436924,-0.46361117433183513,12.95771665140048
0.07688927269486973,-0.48971593867153845,13.035562071559557
0.07738977319537023,-0.45060640988380174,12.976184491437836
0.07789027369587073,-0.3816020639611083,12.827525528516157
0.07839077419637124,-0.2659913564974662,13.049304300258802
0.07889127469687174,-0.1224304165881097,12.919113351307207
0.07939177519737223,0.024076936347589055,12.976387205881561
0.07989227569787273,0.17578471852597033,12.995621011154526
0.08039277619837323,0.3031578112399793,12.839692839797856
0.08089327669887374,0.4072750667613196,12.794601950159887
0.08139377719937423,0.47748031237720706,13.13766688558382
0.08189427769987473,0.4854630553240536,12.82354520857635
0.08239477820037523,0.44653979368814034,12.870494775165044
0.08289527870087574,0.3820583278120496,12.861516596044293
0.08339577920137622,0.2637205917813983,13.295177270824764
0.08389627970187673,0.12475787493055471,12.850441228262694
0.08439678020237723,-0.026118390246501023,13.051402844022329
0.08489728070287773,-0.17068921870409887,13.120989250210995
0.08539778120337824,-0.31142565207085426,12.944873506871627
0.08589828170387873,-0.4032529648605082,12.839986713189983
0.08639878220437923,-0.46816666789502304,12.902024137849263
0.08689928270487973,-0.481156989973125,12.972697647232168
0.08739978320538024,-0.45313574820639835,12.919069944914982
0.08790028370588072,-0.37901955183271147,13.001912771652822
0.08840078420638132,-0.25878355236019546,12.848630020637563
0.08890128470688173,-0.11985655992921204,12.853190487502905
0.08940178520738223,0.02847726709463616,13.205689131205723
0.08990228570788274,0.17208852638101632,13.135384074485497
0.09040278620838323,0.3098736373888971,13.221779385366599
0.09090328670888383,0.4113977991317428,12.92538682366674
0.09140378720938433,0.47162043075228216,12.86525573291132
0.09190428770988474,0.4875508061210183,12.988642637179012
0.09240478821038522,0.4536079727699031,12.873723931944136
0.09290528871088582,0.3796423071545892,12.835948030012291
0.09340578921138633,0.25743109814108833,13.159278576850028
0.09390628971188683,0.1225103452781399,13.133162991438667
0.09440679021238724,-0.02862968899941716,13.022753540873119
0.09490729071288773,-0.17444107659518265,12.990283478669111
0.09540779121338833,-0.31012988454386664,13.014386475021764
0.09590829171388883,-0.4100225308317885,12.950448630810877
0.09640879221438933,-0.4692961528624089,13.178737142273812
0.09690929271488972,-0.4820600595389031,12.900736541228603
0.09740979321539033,-0.44763193756291186,12.990811460616563
0.09791029371589083,-0.37141265876097035,13.207551052631729
0.09841079421639133,-0.2619659902251568,12.928816798947203
0.09891129471689183,-0.11899686582688729,13.024464579141554
0.09941179521739223,0.03142356785191782,12.771152485316287
0.09991229571789283,0.17816484177103545,12.786037056721115
0.10041279621839333,0.3111214513584155,12.97815536787438
0.10091329671889383,0.40760320418738694,13.251898414634436
0.10141379721939434,0.4665011001460642,12.848257598145535
0.10191429771989483,0.48105670694057656,12.898495720380447
0.10241479822039533,0.4504726693436166,12.97285631121981
0.10291529872089583,0.37441520277197177,12.978648605682832
0.10341579922139633,0.2601848351011337,12.869706038029168
0.10391629972189684,0.11745130463811068,12.628665748798884
0.10441680022239733,-0.0320562899999901,12.86139227029494
0.10491730072289783,-0.18192769460319477,13.150765807272093
0.10541780122339833,-0.3124298865577173,13.066327437727864
0.10591830172389884,-0.41343777248479846,12.733282895794103
0.10641880222439933,-0.4706237315224742,12.935558211049186
0.10691930272489983,-0.487192459330897,12.86364697977192
0.10741980322540033,-0.4453222415511758,13.080282990143274
0.10792030372590083,-0.36876446146719793,13.154827180288532
0.10842080422640134,-0.2556792280336814,13.017830153744187
0.10892130472690183,-0.1227806105179355,13.02167526656293
0.10942180522740233,0.03225205109245557,13.102935959410742
0.10992230572790283,0.18048144765686894,13.025736712686472
0.11042280622840334,0.30992337734290837,13.205140556433767
0.11092330672890383,0.40828688566349625,12.829812104961576
0.11142380722940433,0.47061315244156526,12.964825105476129
0.11192430772990483,0.49087697105085404,12.961915989071535
0.11242480823040533,0.44757207760692386,12.97575356922539
0.11292530873090584,0.3703493842166679,13.13787892112334
0.11342580923140633,0.255014776590894,13.277505291040347
0.11392630973190683,0.11056086540766576,12.990470248422351
0.11442681023240733,-0.03786776073779542,13.04893432495754
0.11492731073290784,-0.18377109543525139,13.026331415202787
0.11542781123340833,-0.3093661348911114,12.961095492881693
0.11592831173390883,-0.4133643833499568,12.968391939600233
0.11642881223440933,-0.4670125279408903,12.927990168233606
0.11692931273490983,-0.4792462455609881,12.940213774003555
0.11742981323541034,-0.4470942505781609,12.920510446199003
0.11793031373591083,-0.36860373947625213,13.004115433390433
0.11843081423641133,-0.25570507936061804,12.921552705550269
0.11893131473691183,-0.1161899578924892,13.163802608957063
0.11943181523741234,0.038407521707329,12.953550766741794
0.11993231573791283,0.1848811050287646,12.81736258655448
0.12043281623841333,0.3076137801694374,12.805684970255772
0.12093331673891383,0.41594480156023783,12.897871403684741
0.12143381723941434,0.4652434788771821,12.841523913925943
0.12193431773991484,0.4809592595142335,12.739915660138472
0.12243481824041533,0.4502886787689472,13.113061709554318
0.12293531874091583,0.37267729996337734,12.998682945809168
0.12343581924141633,0.25364746884644396,12.865495571676364
0.12393631974191684,0.11162077097188783,13.164160515719763
0.12443682024241734,-0.03981843798311811,12.894845320973168
0.12493732074291783,-0.18471772727413738,12.875255714026572
0.12543782124341832,-0.3209137386745899,13.015418046797084
0.12593832174391884,-0.41715002742614826,12.986145657334806
0.12643882224441932,-0.4663129559204732,12.770471817041713
0.12693932274491984,-0.4782448634725575,12.916716052325365
0.12743982324542033,-0.44327442703356956,12.860303699980486
0.12794032374592082,-0.3628996491641198,13.13213699939531
0.12844082424642134,-0.2465501008415804,13.05808336926178
0.12894132474692183,-0.11029873719278033,12.748196647273438
0.12944182524742234,0.044583116989009304,13.202711483369947
0.12994232574792283,0.18121006750141316,13.124389863849975
0.13044282624842332,0.31924807055698834,13.04436696369119
0.13094332674892384,0.41639979641453806,12.956947732795854
0.13144382724942433,0.46693047721669917,12.757874412026577
0.13194432774992484,0.4856418326255766,13.025831247974116
0.13244482825042533,0.4510259405219867,12.962493796351847
0.13294532875092582,0.36630620084684107,12.983580279336252
0.13344582925142634,0.2531854301810384,13.013764726943378
0.13394632975192683,0.1121890929434192,12.832496153152398
0.13444683025242732,-0.040322553699616764,12.863419039454646
0.13494733075292784,-0.18618781708680812,12.913099179945398
0.13544783125342832,-0.3164964338285503,12.931768058597521
0.13594833175392884,-0.4151808409308007,13.058501886429722
0.13644883225442933,-0.4748793758355785,12.959009432078432
0.13694933275492982,-0.47970813866717305,13.210233072347789
0.13744983325543034,-0.4427443956238631,12.964369964256317
0.13795033375593083,-0.3621691382917714,12.888748679603884
0.13845083425643134,-0.250035577177002,12.990268838875838
0.13895133475693183,-0.09853384266602634,12.917873807699644
0.13945183525743232,0.04570013334159022,12.901868007404454
0.13995233575793284,0.18876761049981997,12.962948415452471
0.14045283625843333,0.31778200036559867,12.860031136155232
0.14095333675893384,0.41852611720930083,12.958857077214724
0.14145383725943433,0.4723400406084667,12.638763756148151
0.14195433775993482,0.47591017852507855,12.786304319988862
0.14245483826043534,0.44811335389968115,13.047552610848312
0.14295533876093583,0.3638977202316457,12.874220181555119
0.14345583926143632,0.24698658195914147,12.964348069528722
0.14395633976193684,0.10654075202133138,13.036904477668443
0.14445684026243732,-0.04658747052118127,13.030541601396934
0.14495734076293784,-0.1930946716636299,13.010920101800052
0.14545784126343833,-0.3151731685192036,12.960806464389874
0.14595834176393882,-0.4144677660794844,13.121298455872342
0.14645884226443934,-0.4717756191544921,12.682176091289556
0.14695934276493983,-0.48905024415382403,13.077056164646649
0.14745984326544034,-0.4398983614328742,12.961263547189382
0.14796034376594083,-0.36639300645522027,13.103366791475747
0.14846084426644132,-0.24988461385008973,12.987885521823367
0.14896134476694184,-0.09901713121110517,12.991994497191873
0.14946184526744233,0.04321779871746806,13.167725621615313
0.14996234576794285,0.18965688121904942,12.943111026406832
0.15046284626844333,0.3187496656107292,12.843136925898056
0.15096334676894382,0.41935229395462087,12.888289053842122
0.15146384726944434,0.4739143835819473,13.088845531723868
0.15196434776994483,0.4840578595585594,13.006089640730684
0.15246484827044532,0.44799131677202303,12.98674865141651
0.15296534877094584,0.363450049616427,12.79765483255669
0.15346584927144633,0.2447895872807447,12.993035266077309
0.15396634977194684,0.10377696720300446,13.026686108088418
0.15446685027244733,-0.04988079626992491,13.030093791197407
0.15496735077294782,-0.19441412721364756,12.959845817287508
0.15546785127344834,-0.3220448650403844,13.089838378774376
0.15596835177394883,-0.4184875420692615,12.762495328225468
0.15646885227444934,-0.4713953567494506,12.865727909390188
0.15696935277494983,-0.48665736603255344,13.003219871991394
0.15746985327545032,-0.44266657679925303,12.946707731239979
0.15797035377595084,-0.36012098558572847,13.124361439233963
0.15847085427645133,-0.24724563241929454,12.683413053067742
0.15897135477695182,-0.10358168846293239,12.8494243417834
0.15947185527745233,0.055335074857726665,12.94235060875734
0.15997235577795282,0.19066559913031725,12.88412526532805
0.16047285627845334,0.32227105546774387,13.120227718211622
0.16097335677895383,0.4187802903313493,13.10475354199645
0.16147385727945432,0.4686724621806531,12.814614471508355
0.16197435777995484,0.4741605703109469,13.07332303424994
0.16247485828045533,0.4419900767547093,13.166011353716243
0.16297535878095584,0.3557373330894081,13.261459219176302
0.16347585928145633,0.2452816438606374,12.95583491458173
0.16397635978195682,0.10148407427081886,12.847033959311682
0.16447686028245734,-0.05435393610920339,12.842080625560088
0.16497736078295783,-0.1981649383511344,13.02691715931505
