Time,Vin,Vout
0.00034527472908755727,0.00338736952680814,-0.00808041993102421
0.0008457752295880572,0.15276630431515148,0.09210875429483023
0.0013462757300885572,0.29473408207975954,0.33409938453724397
0.0018467762305890572,0.4032203124894087,0.4879177094811409
0.002347276731089557,0.4793584862989805,0.5194419244522942
0.002847777231590057,0.5008399869647062,0.5343147684734924
0.003348277732090557,0.4735066147718386,0.5348538309307603
0.0038487782325910573,0.4030799286068575,0.5357331679849202
0.004349278733091557,0.2926153981658975,0.519998576317203
0.004849779233592057,0.15371642094300683,0.46380971703394513
0.005350279734092557,0.0022548185784717323,0.19698540759218644
0.0058507802345930575,-0.15673232403730772,-0.09645069178298887
0.006351280735093557,-0.2919847877610071,-0.33707221570589607
0.006851781235594058,-0.407768406257493,-0.4958508002416951
0.007352281736094557,-0.47609318804891637,-0.5235815058992472
0.007852782236595057,-0.5014548579872671,-0.5309543878376511
0.008353282737095557,-0.48039238227505365,-0.5288915929440741
0.008853783237596058,-0.3982322676494507,-0.5305985250808375
0.009354283738096558,-0.29619260791809376,-0.5278574822024992
0.009854784238597057,-0.15608886246093923,-0.4644431878488175
0.010355284739097557,-0.00043259808034673693,-0.19470815008327144
0.010855785239598056,0.16059005615075536,0.10360971271099693
0.011356285740098558,0.2997260282722912,0.3435610293356277
0.011856786240599057,0.41018101406782587,0.491254358401124
0.012357286741099557,0.47586690705725465,0.5208876040891122
0.012857787241600057,0.4928222494886809,0.5266886253957698
0.013358287742100558,0.47283169242440487,0.524751132895727
0.013858788242601058,0.40160072419435855,0.524898508335511
0.014359288743101557,0.28799840926106124,0.5174004242665946
0.014859789243602057,0.14741384338094804,0.45634935888401795
0.015360289744102557,-0.003038395987690664,0.19274008441677049
0.01586079024460306,-0.15676406796984538,-0.10638589802601285
0.016361290745103556,-0.2975927214238435,-0.3497743346399941
0.01686179124560406,-0.40698691267652487,-0.49520894628135076
0.01736229174610456,-0.48135332496109284,-0.5277026308844746
0.017862792246605058,-0.49921099143467423,-0.5202051661063373
0.018363292747105558,-0.47107739510296887,-0.5272762725332656
0.018863793247606057,-0.40125478404197346,-0.5202302786456608
0.019364293748106557,-0.28318799218194673,-0.5213524222274674
0.019864794248607057,-0.147359643070826,-0.4687266924449277
0.020365294749107556,-0.0022410093511308544,-0.18780117727867424
0.020865795249608056,0.1597780187256245,0.10228574753548048
0.021366295750108556,0.2961706622616831,0.35169876564591473
0.02186679625060906,0.40722228447695785,0.498668603421183
0.02236729675110956,0.4764900119977229,0.5271577182858138
0.022867797251610058,0.5012566925632186,0.5221207014207855
0.023368297752110558,0.4683421253287788,0.5243447651724741
0.023868798252611057,0.3986969724459687,0.5254910428321942
0.024369298753111557,0.2854297725909943,0.5177352762116261
0.024869799253612056,0.14240007993157439,0.4628809087001607
0.025370299754112556,-0.008219215605787603,0.18120483929406228
0.025870800254613056,-0.16148960864053216,-0.10825770678568905
0.02637130075511356,-0.2991943572024722,-0.3516881311456787
0.02687180125561406,-0.40792068734408804,-0.4984732908373539
0.027372301756114558,-0.4802549305600071,-0.5216748888301446
0.027872802256615058,-0.4972519643965959,-0.5304081779134157
0.028373302757115557,-0.469694685431783,-0.5285210861879485
0.028873803257616057,-0.39897553501852917,-0.5276362977724551
0.029374303758116557,-0.28837904330667063,-0.5176324592918417
0.029874804258617056,-0.14314972618670624,-0.4554741572414705
0.030375304759117556,0.013760099099231858,-0.18310694966962443
0.03087580525961806,0.16278708813323706,0.11716234651697989
0.03137630576011856,0.3005643339515522,0.34917025662003937
0.03187680626061906,0.4144864712609509,0.48969293277371917
0.03237730676111955,0.47655021951080945,0.5190351846398236
0.032877807261620054,0.507446309451407,0.526024489629539
0.03337830776212056,0.47600418709598685,0.5320303423952434
0.03387880826262106,0.39259719225335504,0.5281419645694538
0.03437930876312156,0.28455603157049963,0.5185214795509354
0.03487980926362205,0.14244751279992007,0.4667732202699017
0.035380309764122556,-0.01048264544048136,0.17848616416373853
0.03588081026462306,-0.16639097452282822,-0.11152691200159977
0.03638131076512356,-0.30325369891257536,-0.3595441447488703
0.03688181126562405,-0.41416638870282074,-0.4936572338886414
0.037382311766124554,-0.48509115206149384,-0.522782236892889
0.03788281226662506,-0.4989395731877246,-0.5374286699714542
0.03838331276712556,-0.46979451408941747,-0.5245696087250599
0.03888381326762606,-0.4031741149013134,-0.5284851280007463
0.03938431376812655,-0.28696730341055987,-0.5227800411635478
0.039884814268627056,-0.1456648680815121,-0.4639615553158411
0.04038531476912756,0.01088078605175458,-0.17224139842003208
0.04088581526962806,0.16559699039083997,0.11194956467792411
0.04138631577012855,0.3037224742517803,0.3609440214010545
0.041886816270629054,0.4087132899668266,0.5005539796403126
0.04238731677112956,0.47207689011574866,0.5198026513322647
0.04288781727163006,0.4990188782271237,0.5283618297383732
0.043388317772130564,0.46853961323166393,0.5346439185918469
0.04388881827263105,0.39574058349302166,0.5324136791050199
0.044389318773131556,0.27843881816357624,0.5194437290211708
0.04488981927363206,0.14252682109713033,0.44865161740549
0.04539031977413256,-0.008184438956265354,0.17453786032419377
0.04589082027463305,-0.16251287889532662,-0.11590280518561145
0.046391320775133554,-0.3004467696792481,-0.3600699379717181
0.04689182127563406,-0.4132017724066108,-0.497984070511555
0.04739232177613456,-0.48285112838721767,-0.5255108808850905
0.047892822276635064,-0.5058108046309762,-0.5280533098551671
0.04839332277713555,-0.4730153499311799,-0.5247998698217591
0.048893823277636056,-0.3995750588467739,-0.5324364728892396
0.04939432377813656,-0.2795714746566474,-0.5191835493618676
0.04989482427863706,-0.13667959730629486,-0.4538543860212285
0.05039532477913755,0.018619707714871755,-0.1677623307599983
0.050895825279638054,0.16774299723183755,0.1234555882430578
0.05139632578013856,0.30456129238432367,0.3691541223588298
0.05189682628063906,0.41462472493340313,0.4979103389950729
0.052397326781139564,0.47943036389713417,0.5227258297414764
0.05289782728164005,0.4992169581352108,0.5256657715685122
0.053398327782140556,0.47280790253299704,0.5242576252124267
0.05389882828264106,0.3918903092272856,0.5275084918493321
0.05439932878314156,0.2786810319006975,0.5254957811074854
0.05489982928364205,0.13256220674050517,0.4540200391735068
0.055400329784142555,-0.01615902550268347,0.16251304682741735
0.05590083028464306,-0.17603716339918055,-0.12930202010436484
0.05640133078514356,-0.30837924495058366,-0.3673532561053477
0.056901831285644064,-0.4169952690867325,-0.5003030675042789
0.05740233178614455,-0.48274374445085,-0.5163781712152665
0.057902832286645056,-0.499850258255796,-0.5251606283174868
0.05840333278714556,-0.4771459424884454,-0.5322064261828526
0.05890383328764606,-0.3957643246613345,-0.5278538139623169
0.05940433378814655,-0.27970326421704367,-0.5190125046355102
0.059904834288647055,-0.13256569151426228,-0.446349970217023
0.06040533478914756,0.01816806005869677,-0.16350951442348716
0.06090583528964806,0.1735309356962071,0.13423052737071847
0.061406335790148564,0.31215266747608883,0.37147441955713617
0.06190683629064905,0.41733021019814004,0.49760774060447627
0.062407336791149556,0.486632959131906,0.5224450388282775
0.06290783729165006,0.49686419326988995,0.5379402712258916
0.06340833779215056,0.4685988818090999,0.5324698928689489
0.06390883829265107,0.39452800680545413,0.5375657896745055
0.06440933879315155,0.2776721446650183,0.521128877893203
0.06490983929365206,0.13088962112247457,0.4484887428329264
0.06541033979415256,-0.01941103123566015,0.15255845644573712
0.06591084029465306,-0.17702342891001172,-0.1283515436720485
0.06641134079515357,-0.311282736368563,-0.36646510317017483
0.06691184129565406,-0.4129192712183704,-0.500631268926384
0.06741234179615456,-0.48231152278812345,-0.5294620821515179
0.06791284229665506,-0.4992782455445307,-0.5336936750706367
0.06841334279715557,-0.4666685363491432,-0.5303953011771699
0.06891384329765605,-0.38682413147531747,-0.5279057710950539
0.06941434379815656,-0.27095234117691913,-0.5154149325068391
0.06991484429865706,-0.14014025327287186,-0.4499446771568688
0.07041534479915756,0.02154022532689035,-0.14737999066018267
0.07091584529965807,0.17578314041350193,0.1329699575655696
0.07141634580015856,0.31258540214542185,0.374865148520949
0.07191684630065906,0.4199548132245253,0.5046173181316271
0.07241734680115956,0.47740610333014727,0.5222945849687848
0.07291784730166007,0.49919215422327456,0.5339551578475357
0.07341834780216056,0.47026056595993687,0.5283167473636023
0.07391884830266106,0.3839846811307134,0.519325583452665
0.07441934880316156,0.2708323555755609,0.5179167845041951
0.07491984930366206,0.13490848040861422,0.44486041592820474
0.07542034980416257,-0.02425559950142105,0.1514348662718824
0.07592085030466306,-0.17945749903824543,-0.13241829551996565
0.07642135080516356,-0.3153460010025696,-0.3752223907154041
0.07692185130566406,-0.41429005110810774,-0.49684805493306444
0.07742235180616457,-0.47721496319189755,-0.5168028045739194
0.07792285230666506,-0.5103231066569963,-0.5254336887910457
0.07842335280716556,-0.4620817231304685,-0.5342190308833279
0.07892385330766606,-0.3966603667658138,-0.5316274169534393
0.07942435380816656,-0.2739970356089608,-0.5208499204396326
0.07992485430866707,-0.1262816428818625,-0.44486804720065387
0.08042535480916756,0.02328964668307013,-0.14318304946964996
0.08092585530966806,0.17607687774840805,0.1435145573895152
0.08142635581016856,0.31236498398986506,0.3713180706626905
0.08192685631066907,0.425161016265693,0.5017587871688864
0.08242735681116956,0.48276098263870976,0.5226283862519758
0.08292785731167006,0.49776670726276084,0.5279181374377028
0.08342835781217056,0.47199944200405525,0.5330945291497804
0.08392885831267106,0.39218651004348926,0.537753646286871
0.08442935881317155,0.271454416478582,0.5163093504199929
0.08492985931367206,0.1271801464876223,0.4488884721268653
0.08543035981417256,-0.025971582550438407,0.1401718401011443
0.08593086031467306,-0.18492339012443793,-0.13988891857826039
0.08643136081517357,-0.31584876152445185,-0.3782251948947487
0.08693186131567406,-0.4269077130712181,-0.5010052284351771
0.08743236181617456,-0.48479472536238705,-0.5155625360203785
0.08793286231667506,-0.4983029376499926,-0.5293668377737084
0.08843336281717556,-0.4646954609308342,-0.5248260354628885
0.08893386331767605,-0.387497705491042,-0.528013569697929
0.08943436381817665,-0.2759590458243918,-0.5182871973269865
0.08993486431867706,-0.13192932250757172,-0.4306414309657104
0.09043536481917756,0.02855418383215756,-0.13123490325576412
0.09093586531967807,0.18709922385030334,0.14633263340679598
0.09143636582017856,0.3187308967819135,0.3793301554533651
0.09193686632067916,0.4228059365453123,0.504543691687957
0.09243736682117966,0.4828807056442918,0.5252050412178022
0.09293786732168006,0.49523203157653356,0.5283460703818399
0.09343836782218055,0.4669146104981133,0.5315501799903126
0.09393886832268115,0.38758674011209243,0.5308667611750193
0.09443936882318166,0.27366701004477084,0.5192111910587907
0.09493986932368216,0.12657529253308142,0.44008983739274365
0.09544036982418257,-0.02583114718376848,0.13344096109271428
0.09594087032468306,-0.1878602656915193,-0.14523206663011154
0.09644137082518366,-0.3182799561531511,-0.3824759646600261
0.09694187132568416,-0.4225156284176119,-0.5094521331989847
0.09744237182618466,-0.48771629788141685,-0.5234948330611885
0.09794287232668505,-0.49642138966649574,-0.5261855258346073
0.09844337282718565,-0.463276748265762,-0.5258458939424985
0.09894387332768616,-0.39375196900592985,-0.5240860791773492
0.09944437382818666,-0.2600543152249934,-0.5119092090617701
0.09994487432868716,-0.13032006147599576,-0.44236923791884014
0.10044537482918756,0.03202049872933999,-0.128642386510792
0.10094587532968816,0.18608895684181354,0.14674798872432562
0.10144637583018866,0.3289588359141951,0.3784938042926635
0.10194687633068916,0.4211275181555597,0.49622937434651065
0.10244737683118967,0.4878760962287919,0.5271503640915012
0.10294787733169015,0.4981589505531986,0.5283139868814398
0.10344837783219066,0.46122678815387624,0.5340972188470178
0.10394887833269116,0.38992402995012576,0.5337339650207282
0.10444937883319166,0.2723087320260227,0.5203080202240866
0.10494987933369217,0.1260144475376498,0.43773948352589337
0.10545037983419266,-0.033148966565761065,0.1353316718696136
0.10595088033469316,-0.1852975813147138,-0.15231013471312332
0.10645138083519366,-0.324685212023487,-0.3822702486687867
0.10695188133569417,-0.42697826001800915,-0.5019554979182443
0.10745238183619465,-0.4868826132860349,-0.5260902580921375
0.10795288233669516,-0.497563120212041,-0.5259224569303785
0.10845338283719566,-0.45920599870274487,-0.5289180802944323
0.10895388333769616,-0.38547665878109527,-0.5268260758231198
0.10945438383819667,-0.26659746488774183,-0.5161522764044888
0.10995488433869716,-0.1201257355751193,-0.43755369862950316
0.11045538483919766,0.03429856547780659,-0.13013874444213408
0.11095588533969816,0.18827914999446177,0.15644694542496648
0.11145638584019867,0.3264493481850019,0.39031503824214514
0.11195688634069915,0.42548252614948673,0.5056992861181409
0.11245738684119966,0.48470747729158475,0.5230518545444952
0.11295788734170016,0.49899382121084407,0.5257115140379037
0.11345838784220066,0.4664970286467449,0.5283551260940486
0.11395888834270117,0.39337780308049947,0.528573441529839
0.11445938884320166,0.26947504628096564,0.5207286536722826
0.11495988934370216,0.11784719828292478,0.42989763733015834
0.11546038984420266,-0.03787421365368978,0.12434866188062381
0.11596089034470317,-0.19393822437371966,-0.16395073593036594
0.11646139084520366,-0.3202424515606901,-0.3968154958321166
0.11696189134570416,-0.42806132352566445,-0.5021062343187757
0.11746239184620466,-0.48266624463260377,-0.5178341178448036
0.11796289234670516,-0.5001600538937591,-0.5289692018811832
0.11846339284720567,-0.4628631843233882,-0.5341056845516692
0.11896389334770616,-0.38287350972806533,-0.5224786440611447
0.11946439384820666,-0.2591971838358835,-0.5163739879833712
0.11996489434870716,-0.12157118857375109,-0.4338575086069418
0.12046539484920767,0.03646215355916201,-0.12620459940441917
0.12096589534970816,0.1944594179676302,0.1591346656154465
0.12146639585020866,0.32207079712794556,0.39054511745018333
0.12196689635070916,0.42552753074281086,0.49948266952913667
0.12246739685120966,0.4849701942571038,0.5224677746648468
0.12296789735171017,0.5023519869581865,0.5268672259724787
0.12346839785221066,0.4616635136714029,0.528518823388917
0.12396889835271116,0.3784669985238395,0.5305556349861421
0.12446939885321166,0.2665971403102183,0.512619654440515
0.12496989935371217,0.11972720397790794,0.4283719367792812
0.12547039985421266,-0.04335255346757238,0.11293314893423788
0.12597090035471314,-0.19369156826176,-0.1571796991667739
0.12647140085521363,-0.3262924640885802,-0.3967273787000154
0.12697190135571415,-0.4302472444713307,-0.5096929106240045
0.12747240185621464,-0.48244716355917533,-0.5259797198810661
0.12797290235671516,-0.500913750740472,-0.5258986137512276
0.12847340285721565,-0.4557431201546687,-0.528958073938951
0.12897390335771614,-0.38080689619301666,-0.5148359879418637
0.12947440385821665,-0.2620214808308464,-0.5158524296468646
0.12997490435871714,-0.11772049790915444,-0.4257845820673053
0.13047540485921766,0.041938513114507955,-0.11266949858341252
0.13097590535971815,0.19351268667386207,0.16396539046167613
0.13147640586021864,0.326780853202667,0.3934371781707866
0.13197690636071915,0.4284324310779007,0.5037539942237106
0.13247740686121964,0.487173531895059,0.5290924140550598
0.13297790736172016,0.49762963037038155,0.5306597827054154
0.13347840786222065,0.4665836935545058,0.5291315682341617
0.13397890836272114,0.38414933500459786,0.5309723598613125
0.13447940886322166,0.2654991508710525,0.5221681147023405
0.13497990936372214,0.1168862283501027,0.43279899320400644
0.13548040986422263,-0.041632030066009906,0.11355539377084936
0.13598091036472315,-0.19777626215562827,-0.1616675308565219
0.13648141086522364,-0.32757652146475846,-0.39884584447958943
0.13698191136572416,-0.4315183663916799,-0.5039672785032825
0.13748241186622465,-0.4878179941519851,-0.5280620952765309
0.13798291236672514,-0.4958264152681591,-0.5222927891142962
0.13848341286722565,-0.45817712203334277,-0.5219860941196598
0.13898391336772614,-0.3812850271803405,-0.5298185673547856
0.13948441386822666,-0.2626389008028959,-0.517852653854782
0.13998491436872715,-0.10390985766302578,-0.4230907089433359
0.14048541486922764,0.044422700367886474,-0.11350626104414659
0.14098591536972815,0.1935881813254447,0.1686643028381895
0.14148641587022864,0.3252462641342607,0.40229272727429866
0.14198691637072916,0.4313423337343597,0.5037672197093411
0.14248741687122965,0.4885363913773563,0.5261473255312479
0.14298791737173014,0.5031712125195132,0.5241268578075696
0.14348841787223066,0.4520848804704224,0.5253944652758815
0.14398891837273115,0.3760125258927145,0.5274822405480033
0.14448941887323163,0.255599023195759,0.5185850485958113
0.14498991937373215,0.10794409232163138,0.41754675611497005
0.14549041987423264,-0.04682485599882424,0.11342475019909325
0.14599092037473316,-0.19667386874480894,-0.1643852939180831
0.14649142087523365,-0.3290238125155977,-0.40048850134259206
0.14699192137573414,-0.43792210330276504,-0.5018352249455073
0.14749242187623465,-0.4877140073958554,-0.5268539146298242
0.14799292237673514,-0.4983165097064759,-0.5253971753257235
0.14849342287723566,-0.4628793807129262,-0.5291798274824927
0.14899392337773615,-0.37565004757167847,-0.530142279447831
0.14949442387823664,-0.250574070428547,-0.5172763706090572
0.14999492437873715,-0.11562269661520144,-0.4162248362940227
0.15049542487923764,0.04951345043733786,-0.10884100140942922
0.15099592537973816,0.2011113839362202,0.17033076809895442
0.15149642588023865,0.3261793394771709,0.40169376311883337
0.15199692638073914,0.4276316542202019,0.5040586975303836
0.15249742688123966,0.4918237468052953,0.5220835621311933
0.15299792738174015,0.5022355294925541,0.5280128992772646
0.15349842788224063,0.45824232836640383,0.5308532608489804
0.15399892838274115,0.37004025511482075,0.525357336224201
0.15449942888324164,0.25662557180930906,0.5212215073887547
0.15499992938374216,0.10335521016918973,0.41281483544670317
0.15550042988424265,-0.05413982737043226,0.09957898513571045
0.15600093038474314,-0.20413196885538454,-0.17644839491369133
0.15650143088524365,-0.33464344859012946,-0.4095272290991037
0.15700193138574414,-0.4311507212661259,-0.5049465766596016
0.15750243188624466,-0.4910453904879079,-0.5190748343959622
0.15800293238674515,-0.49814713898205365,-0.529803694229924
0.15850343288724564,-0.4530716974684418,-0.5331998546689736
0.15900393338774615,-0.37512176848852286,-0.5256372458916582
0.15950443388824664,-0.24568835378365828,-0.5118680940555396
0.16000493438874713,-0.104897886645727,-0.40086325746871926
0.16050543488924765,0.049913053730115044,-0.09893692694199084
0.16100593538974814,0.2011847432669684,0.17861117920425426
0.16150643589024866,0.33122779872232877,0.4142567198647521
0.16200693639074915,0.4331210114179229,0.5134832703675793
0.16250743689124963,0.4926863010768014,0.5269305476149926
0.16300793739175015,0.498007872694955,0.5325960220626981
0.16350843789225064,0.4598970000533261,0.5283589964285529
0.16400893839275116,0.3778322059685041,0.5277805811248839
