Time,Vin,Vout
0.004197691878581201,0.0009912075782250453,0.002836207581544309
0.0046981923790817,0.22079422689486186,0.12033842355278343
0.005198692879582201,0.4201850549990033,0.4341712207663016
0.0056991933800827005,0.5689602802127975,0.7159819150157233
0.006199693880583201,0.6817574968605264,0.9115433879116913
0.006700194381083701,0.7168833084509612,1.033506971736801
0.0072006948815842,0.6815510856366114,1.056880757104005
0.007701195382084701,0.5689625680372128,0.9483633402218669
0.008201695882585201,0.4212227117676423,0.7737863234286605
0.008702196383085701,0.21683424686930955,0.5200222322977078
0.0092026968835862,0.0002523618611663862,0.2052725677630383
0.0097031973840867,-0.22633724331614757,-0.11564148842753902
0.0102036978845872,-0.4221818200765199,-0.42843662027906243
0.010704198385087701,-0.5908555617659174,-0.7025539326690521
0.0112046988855882,-0.6768596094937517,-0.9182030786702108
0.0117051993860887,-0.7186512942414762,-1.0278948715727345
0.0122056998865892,-0.6812298859285325,-1.0682427442126596
0.012706200387089701,-0.5781581055477956,-0.9578830949368626
0.013206700887590201,-0.42078103997028843,-0.7747272710095933
0.0137072013880907,-0.21360643531105322,-0.5188819165745815
0.0142077018885912,0.00928668331916938,-0.20797326875188157
0.0147082023890917,0.2269638605198574,0.12727566283535502
0.015208702889592201,0.4307082185734659,0.44452317070331715
0.0157092033900927,0.5886283307905711,0.7138609261909822
0.016209703890593202,0.6786972044314256,0.9224251548048507
0.0167102043910937,0.7112292065916346,1.0348160229141026
0.0172107048915942,0.6854428600903338,1.0536855262232137
0.0177112053920947,0.5822940065308799,0.9439974128231414
0.0182117058925952,0.4111924508482403,0.7787702180215971
0.0187122063930957,0.22316468975970605,0.5081839814955379
0.0192127068935962,-0.006401492981948043,0.20488439681312742
0.019713207394096703,-0.2267887625330849,-0.13026254312632912
0.0202137078945972,-0.42382274501262207,-0.4404646159112633
0.020714208395097702,-0.5842589561108489,-0.7105117901147249
0.021214708895598202,-0.6810843621134897,-0.9261277731441852
0.0217152093960987,-0.7171740230785622,-1.0340955780582106
0.0222157098965992,-0.6874880983765089,-1.042873621070561
0.0227162103970997,-0.5816096676025281,-0.9477940069792832
0.0232167108976002,-0.41735165353578574,-0.7667071361557485
0.0237172113981007,-0.21529216647826685,-0.514707675684233
0.0242177118986012,0.0032868456618537953,-0.20098160444187474
0.0247182123991017,0.2254484878473743,0.12645176734759941
0.0252187128996022,0.4267340082139615,0.4456209073971363
0.025719213400102702,0.5904607295624512,0.7261390484360947
0.026219713900603202,0.691488934749593,0.9289154606104748
0.0267202144011037,0.7182091766482626,1.0277877475051247
0.0272207149016042,0.6833876347844927,1.0385223870330147
0.0277212154021047,0.5612383056709941,0.95127774243863
0.0282217159026052,0.42206005049295553,0.7712641868717063
0.0287222164031057,0.20925423824051764,0.5064513844035814
0.0292227169036062,-0.013491573580969142,0.187113564499075
0.0297232174041067,-0.23687258161526256,-0.13350138261538255
0.030223717904607202,-0.43366657023624844,-0.4582729819509946
0.030724218405107702,-0.5825465079629458,-0.7056542268247017
0.0312247189056082,-0.6777084320926992,-0.9308590715675282
0.0317252194061087,-0.7116007694879872,-1.0303366282573794
0.032225719906609204,-0.6771553992323847,-1.0441152761320323
0.0327262204071097,-0.5743806638529563,-0.9547035596770549
0.0332267209076102,-0.4060431353818622,-0.7684801743549362
0.0337272214081107,-0.20948039303393368,-0.5075130074491021
0.0342277219086112,0.013059606725236336,-0.19859883403887263
0.034728222409111706,0.23276568922709626,0.1321855494776294
0.0352287229096122,0.42262112559757276,0.4451921675071184
0.0357292234101127,0.5855054866865446,0.7299224422348292
0.0362297239106132,0.6852445316066609,0.9285840286523617
0.036730224411113704,0.7112656360857746,1.0308431691807844
0.03723072491161421,0.6861016598897557,1.043932679759956
0.0377312254121147,0.5632038887266014,0.9484943942800313
0.0382317259126152,0.4041171240967473,0.7650834023117603
0.0387322264131157,0.21230117610399618,0.5102520278814333
0.039232726913616206,-0.012920108232122276,0.18775733396385105
0.039733227414116695,-0.23691107769002046,-0.15067203657499942
0.0402337279146172,-0.437236213546394,-0.4650059140419835
0.0407342284151177,-0.5945713802443223,-0.7208007524803361
0.041234728915618205,-0.6853396969489249,-0.9356251552762355
0.04173522941611871,-0.7241193476164937,-1.03833853302415
0.0422357299166192,-0.6729164900337389,-1.0525349216424233
0.0427362304171197,-0.5678914364915254,-0.9392307598437082
0.0432367309176202,-0.4045391220143472,-0.7649195910132359
0.043737231418120706,-0.20369085618923377,-0.49442906729516095
0.044237731918621195,0.016648997922360687,-0.18244028151059596
0.0447382324191217,0.23927243362951917,0.15461434875772492
0.0452387329196222,0.4425556015894529,0.46554306430390113
0.045739233420122705,0.5924260447968585,0.7208482404516314
0.046239733920623194,0.6813240569041266,0.9385602956442802
0.0467402344211237,0.7238667756862526,1.0448948655344983
0.0472407349216242,0.6788153393114066,1.0504871083890515
0.0477412354221247,0.5666306943603715,0.9564839879862601
0.048241735922625206,0.40313650519684624,0.7726827807353331
0.048742236423125695,0.20930198572191205,0.5010376576473368
0.0492427369236262,-0.022774781766323304,0.19158482123188011
0.0497432374241267,-0.24687154906176476,-0.14821882136943024
0.050243737924627205,-0.4350881267316211,-0.4625027325664404
0.050744238425127694,-0.5942860629525095,-0.7314589215154776
0.0512447389256282,-0.6848339005218846,-0.9302287337168949
0.0517452394261287,-0.7151392946574607,-1.0284894825674773
0.0522457399266292,-0.6834323227066106,-1.046714064147572
0.052746240427129706,-0.5695789714692511,-0.9332191557580454
0.053246740927630196,-0.39909034892880746,-0.7569899082596888
0.0537472414281307,-0.21277545850981608,-0.48323641826172875
0.0542477419286312,0.026961278257414987,-0.17825889484297888
0.054748242429131705,0.24582470820780314,0.15859331173288124
0.055248742929632194,0.44199535821434155,0.46611864260199976
0.0557492434301327,0.5966480606929192,0.7349791088640059
0.0562497439306332,0.6889986410257429,0.9375212099439931
0.0567502444311337,0.7144830199535688,1.0371277248618544
0.057250744931634207,0.6746141596324372,1.046470892683966
0.057751245432134696,0.5618718703990333,0.947314668219027
0.0582517459326352,0.3997384839807555,0.7633228492270342
0.0587522464331357,0.1943581853966414,0.49928472175628863
0.059252746933636205,-0.017857736283656445,0.18749027358699308
0.059753247434136694,-0.2509532275550977,-0.16433926718954012
0.0602537479346372,-0.44309180544110194,-0.4683670782751899
0.0607542484351377,-0.5945989738820628,-0.7361626061408455
0.061254748935638204,-0.6855758856093623,-0.9359158521630387
0.06175524943613871,-0.7245866160797919,-1.043749973462222
0.062255749936639196,-0.6713748547392413,-1.0381800985058913
0.0627562504371397,-0.5618286346105129,-0.9380819831624934
0.0632567509376402,-0.40134882394726273,-0.7444579817732417
0.0637572514381407,-0.1941535398627863,-0.4854196595069654
0.0642577519386412,0.02430227561168693,-0.17451339957992165
0.0647582524391417,0.2547002331357657,0.15502780852437265
0.0652587529396422,0.43969219571983403,0.47527501639226916
0.0657592534401427,0.5926559662153769,0.7326186328381868
0.0662597539406432,0.6919539863344875,0.9267631856616914
0.0667602544411437,0.71914669264327,1.0348254488153814
0.0672607549416442,0.6768353725362223,1.0513360475740845
0.0677612554421447,0.5608205446114067,0.9397866758708222
0.06826175594264519,0.39393157252407784,0.7569279268012999
0.0687622564431457,0.19690165053461764,0.4904652652410062
0.0692627569436462,-0.022293752495207216,0.18648606163730194
0.0697632574441467,-0.2554056020222725,-0.1568987118566046
0.0702637579446472,-0.4508505106537391,-0.4697508423116474
0.07076425844514769,-0.5916842227674849,-0.7318193625966779
0.0712647589456482,-0.6950094870971857,-0.9365668923665413
0.0717652594461487,-0.7062988270993256,-1.0502287412036648
0.0722657599466492,-0.6712690963495312,-1.0497679356593643
0.07276626044714969,-0.5599150001051139,-0.9330970233661516
0.0732667609476502,-0.3947798661578811,-0.7542853342781064
0.0737672614481507,-0.1981525581118357,-0.48565673312277774
0.0742677619486512,0.035347758152670765,-0.18038074724109504
0.0747682624491517,0.24589133862431142,0.1635898575175202
0.0752687629496522,0.44587928496403506,0.47466215657217664
0.0757692634501527,0.6022256885513375,0.7533462587475336
0.0762697639506532,0.6930571310389073,0.936100496901493
0.0767702644511537,0.7218035587922925,1.0412550640543914
0.07727076495165419,0.6782025038865879,1.0445229860975798
0.0777712654521547,0.5600531421063811,0.9516158846065277
0.0782717659526552,0.3966982193161115,0.7539948123551912
0.0787722664531557,0.19276093666277616,0.47435627404202396
0.0792727669536562,-0.02939586762708544,0.14958235808859652
0.0797732674541567,-0.2593866941742519,-0.1570276495979227
0.0802737679546572,-0.4483245873439031,-0.4758076174112127
0.0807742684551577,-0.5893964655135491,-0.7520467580412251
0.0812747689556582,-0.688445679492765,-0.948173523187935
0.08177526945615869,-0.7236765436630499,-1.048855003673148
0.0822757699566592,-0.6754763624116241,-1.0326364400135002
0.0827762704571597,-0.5660541657529251,-0.9438114965565341
0.0832767709576602,-0.39327236095790924,-0.7451460952140802
0.0837772714581607,-0.19110306986637904,-0.47108660764396776
0.0842777719586612,0.033277233558120595,-0.16123939115294386
0.0847782724591617,0.2534240177833482,0.16390496660875795
0.0852787729596622,0.45539115106607075,0.46381437822569227
0.0857792734601627,0.5996246350599891,0.7528025039306098
0.08627977396066319,0.6987858785252006,0.9396265518029931
0.0867802744611637,0.7091313840833743,1.032275651071357
0.0872807749616642,0.6727167666043142,1.0483264160565025
0.0877812754621647,0.5547983516420375,0.9415709352950189
0.08828177596266519,0.39121601341123746,0.7494087779094324
0.0887822764631657,0.17969597227254297,0.4679891352904178
0.0892827769636662,-0.04606153000510656,0.14964731085060962
0.0897832774641667,-0.25900384410432264,-0.1724468077448841
0.0902837779646672,-0.4584183094921247,-0.4781819334796807
0.09078427846516769,-0.6022825581313342,-0.7451963920441326
0.0912847789656682,-0.6946771567815572,-0.9339330826084667
0.0917852794661687,-0.7125321662868702,-1.0358565669750255
0.0922857799666692,-0.6740907270090073,-1.040245486305239
0.09278628046716969,-0.5518792091192548,-0.9422270722827102
0.09328678096767029,-0.38725743468535295,-0.7356724833964354
0.0937872814681707,-0.1843927006924242,-0.47375295242547644
0.0942877819686712,0.04497916316730672,-0.16123707790454653
0.0947882824691717,0.2622135814753852,0.16926035731800498
0.09528878296967219,0.4600481820191393,0.4994956604219564
0.09578928347017279,0.6100887789432488,0.747614535547493
0.0962897839706733,0.6933011990998609,0.9408140979312395
0.0967902844711737,0.7157466312632174,1.0443129178289108
0.09729078497167419,0.6656652270417612,1.037367012317281
0.09779128547217479,0.550349186406983,0.9238015797084743
0.0982917859726753,0.38991816946514724,0.7329437203920585
0.0987922864731758,0.18043287244175896,0.46800000147749177
0.0992927869736762,-0.04243548919540616,0.13798904777047594
0.09979328747417669,-0.2582721486362512,-0.17743215275354787
0.10029378797467729,-0.4607584246182536,-0.4905233848990888
0.1007942884751778,-0.6051501120067097,-0.7529381365279817
0.1012947889756783,-0.692949972478984,-0.9403429651586696
0.10179528947617869,-0.7199969502558848,-1.0330444688631997
0.10229578997667929,-0.6653428756119992,-1.0313771005565737
0.1027962904771798,-0.553141291285694,-0.9338516417215559
0.1032967909776803,-0.38517568373157857,-0.7329085835695038
0.1037972914781808,-0.17920064290271814,-0.4624898828143559
0.10429779197868119,0.04392912331459432,-0.15577021429289017
0.10479829247918179,0.2618971231943862,0.17281037112654707
0.1052987929796823,0.4510868419268251,0.4992966238385418
0.1057992934801828,0.6053676066215863,0.7596466612169256
0.1062997939806833,0.6931299022876133,0.9496438601631014
0.10680029448118379,0.7152791712152881,1.0443991481298354
0.1073007949816843,0.6753537374475819,1.038513274261446
0.1078012954821848,0.5574215291696242,0.9286559450315346
0.1083017959826853,0.38357355616110467,0.7350936199213682
0.1088022964831858,0.17831126246212115,0.4595860490333726
0.10930279698368629,-0.04578971458588861,0.15065655781522092
0.1098032974841868,-0.2678938297560484,-0.18507440958818092
0.1103037979846873,-0.4638678413611655,-0.5038585823872528
0.1108042984851878,-0.6082100782835789,-0.7540512128471253
0.11130479898568829,-0.7027029868291788,-0.9480665578336321
0.1118052994861888,-0.7117458266707276,-1.0352671832944444
0.1123057999866893,-0.6629122127789139,-1.034103071963503
0.1128063004871898,-0.5557370258888389,-0.9156144797975821
0.1133068009876903,-0.37565528043224256,-0.7202111537353556
0.11380730148819079,-0.17196847524246012,-0.45518978850631425
0.1143078019886913,0.04359710201198852,-0.14520737107169115
0.1148083024891918,0.2647704358289465,0.19376242693253434
0.1153088029896923,0.45998411299484443,0.5157203067487138
0.11580930349019279,0.6090935686959985,0.7654566499777671
0.1163098039906933,0.6968336008708487,0.954301324599096
0.1168103044911938,0.7080444449273995,1.0456589774019442
0.1173108049916943,0.6705040902593175,1.0313608724365428
0.1178113054921948,0.5462786039201686,0.9355039032882095
0.1183118059926953,0.37481254087281196,0.7215845389541693
0.1188123064931958,0.16837493991366517,0.47150017936608646
0.1193128069936963,-0.056613250809358404,0.13530438614043735
0.1198133074941968,-0.2704451626157881,-0.20089301591311565
0.12031380799469729,-0.4634352754086927,-0.4959288997216505
0.1208143084951978,-0.6060478351273618,-0.7606669924820534
0.1213148089956983,-0.7014271433885103,-0.9585184381499954
0.1218153094961988,-0.7147409614055,-1.0501423895868054
0.1223158099966993,-0.6650105470857091,-1.0316443137043811
0.1228163104971998,-0.5495345881789424,-0.9262581165557214
0.1233168109977003,-0.37273863619639824,-0.7246874369626415
0.1238173114982008,-0.1641938955573751,-0.45843134655197904
0.1243178119987013,0.05874087924902396,-0.13375655155504515
0.12481831249920179,0.26493211205046435,0.19594159099328112
0.1253188129997023,0.465549658565757,0.5005682500788761
0.1258193135002028,0.6148869748627624,0.7710843467649348
0.1263198140007033,0.700135020331323,0.9520955172089828
0.12682031450120382,0.7179118033182157,1.0400394166874507
0.1273208150017043,0.6665600330475463,1.0373549626241156
0.1278213155022048,0.5536792375417525,0.9303050635152148
0.1283218160027053,0.3827332962370109,0.7223436872299125
0.1288223165032058,0.16817995082686216,0.4388839518625735
0.12932281700370632,-0.053721269869275924,0.13028678950670314
0.1298233175042068,-0.2711191701796906,-0.18226862918275114
0.1303238180047073,-0.4672119766115417,-0.5178425238963024
0.13082431850520782,-0.615804991464665,-0.7796905428854518
0.1313248190057083,-0.7009847557670625,-0.9420611131780137
0.13182531950620882,-0.7138526542390364,-1.0536243308827842
0.1323258200067093,-0.6670066683105108,-1.0433252152435206
0.1328263205072098,-0.5432821909719016,-0.9210771009823734
0.13332682100771032,-0.37734871212126136,-0.7189841527993592
0.1338273215082108,-0.16665474529743335,-0.43768569904719806
0.13432782200871132,0.059252790388691697,-0.12396496454395896
0.1348283225092118,0.2694973521014385,0.19320870763480863
0.1353288230097123,0.4643308977782167,0.5133671298103392
0.13582932351021282,0.6120788989964013,0.7624326516456503
0.1363298240107133,0.7063841452859582,0.9510090290076957
0.13683032451121382,0.7182394871817852,1.0503008565399756
0.1373308250117143,0.6578897023447456,1.0216091328570733
0.1378313255122148,0.5486991065628284,0.9208236360314543
0.13833182601271532,0.3760537507003666,0.7206789664837556
0.1388323265132158,0.15780551366337717,0.4548735715430012
0.1393328270137163,-0.06331539398984867,0.11957895219266845
0.13983332751421682,-0.28217937686034633,-0.201050190308024
0.1403338280147173,-0.46768998562740344,-0.5139880198362679
0.14083432851521782,-0.6129163092863519,-0.7812079290779361
0.1413348290157183,-0.7027129014279434,-0.9565073229198399
0.1418353295162188,-0.7113552493355741,-1.04015930809966
0.14233583001671932,-0.6564353657046036,-1.040389815173444
0.1428363305172198,-0.5437327284923535,-0.9128438325327229
0.14333683101772032,-0.36297331516654424,-0.702000442445577
0.1438373315182208,-0.16777662993570983,-0.426319373350533
0.1443378320187213,0.06788114631601319,-0.1114964922341975
0.14483833251922182,0.28797187081980036,0.20870001954181658
0.1453388330197223,0.47632695110593515,0.5176761765023397
0.14583933352022282,0.6071715779957774,0.7735826229517729
0.14633983402072331,0.6997164817729166,0.958420676741855
0.1468403345212238,0.7173493534579956,1.047198093795781
0.14734083502172432,0.6580174852920876,1.0150824527666644
0.1478413355222248,0.5411840218538572,0.9136732550161861
0.1483418360227253,0.3646464850492726,0.7148711408771892
0.14884233652322582,0.16203070445477888,0.42278762939037257
0.1493428370237263,-0.060625469658056985,0.12472042031733781
0.14984333752422682,-0.2934922257330075,-0.19784155027845315
0.1503438380247273,-0.48005760340169595,-0.5185663558179373
0.1508443385252278,-0.6129959013846383,-0.777987742854171
0.15134483902572832,-0.6985518018774269,-0.96129330884885
0.1518453395262288,-0.7167075294907905,-1.0538540918821127
0.15234584002672932,-0.6563518796195057,-1.0247860283419226
0.1528463405272298,-0.5370810320640995,-0.9189969441263148
0.1533468410277303,-0.35563034415421474,-0.7105381106941011
0.15384734152823082,-0.15111641970511558,-0.42640992112830656
0.1543478420287313,0.08057521818032204,-0.12060223608116531
0.15484834252923182,0.28411389192257547,0.2116263294531824
0.15534884302973231,0.4838951414061448,0.53478902786932
0.1558493435302328,0.61818199229225,0.7760734273785441
0.15634984403073332,0.7088353674168036,0.9675866269758251
0.1568503445312338,0.7129346638678795,1.049614799767314
0.1573508450317343,0.6572807030000222,1.0343671177211293
0.15785134553223482,0.5420939878783054,0.919128688724359
0.1583518460327353,0.36253470727760445,0.7075912717145828
0.15885234653323582,0.14609531608429188,0.43227489473221054
0.1593528470337363,-0.07882339790951852,0.10720862167667745
0.1598533475342368,-0.29575052687145936,-0.21623342912429158
0.16035384803473732,-0.4748319676682812,-0.5352054510373311
0.1608543485352378,-0.6205128864249767,-0.7776712368070323
0.16135484903573832,-0.7029250722382254,-0.9662681908918171
0.1618553495362388,-0.7134811186927416,-1.0455803269359518
0.1623558500367393,-0.6554522415198714,-1.0290807920521305
0.16285635053723982,-0.5370529469028423,-0.9244829230024598
0.1633568510377403,-0.3612524608769983,-0.7054203090610317
0.1638573515382408,-0.15096719260450264,-0.43196666452736504
0.16435785203874131,0.07854789050901735,-0.11482143247597926
0.1648583525392418,0.28793322727315523,0.2213499597549424
0.16535885303974232,0.47967563033239613,0.5383608300800493
0.1658593535402428,0.6125030063265154,0.7843833274301171
0.1663598540407433,0.7031032630156651,0.9636392894201667
0.16686035454124382,0.7113278391946072,1.0601386898503122
0.1673608550417443,0.6554157247476778,1.0404212160260522
0.16786135554224482,0.5394857189862947,0.9185730200299836
0.1683618560427453,0.3664978061813829,0.7130767406844728
0.1688623565432458,0.14729142883702975,0.42263665884235413
0.16936285704374632,-0.07700961786510725,0.10354945050237589
0.1698633575442468,-0.2937644300105042,-0.21682511197643986
0.17036385804474732,-0.48523033201299476,-0.5273585620831982
