Time,Vin,Vout
0.00593273935071356,0.004037882650781134,-0.005169736711018444
0.00643323985121406,0.14890453984946006,0.012147880507231052
0.00693374035171456,0.2807720505908289,-0.005817479686965784
0.00743424085221506,0.39331428462809526,0.005768974891979904
0.00793474135271556,0.4644523894289831,0.0006499485630832813
0.00843524185321606,0.4849998967567547,-0.005667264561163842
0.00893574235371656,0.45575294389752147,0.0013616300311054851
0.00943624285421706,0.39099978966873034,-0.0085847198502487
0.009936743354717559,0.27785267750861553,-0.003725508738317409
0.01043724385521806,0.14075740178187487,-0.0049575012503888915
0.01093774435571856,-0.0034615766052833482,-0.006586834747917077
0.011438244856219061,-0.14861749454981915,-0.016954391491339236
0.01193874535671956,-0.28450507945786263,-0.010008390225319167
0.01243924585722006,-0.3936058378494658,-0.02338947036646415
0.01293974635772056,-0.4539044186583292,-0.021962118252135503
0.01344024685822106,-0.479040667580071,-0.021501906878008875
0.01394074735872156,-0.46099176507009293,-0.017910826998948297
0.01444124785922206,-0.39001216518671983,-0.02626564366574069
0.01494174835972256,-0.28380877718718533,-0.0229638685303853
0.01544224886022306,-0.14695890320025995,-0.01970495375447125
0.01594274936072356,0.005535862841717838,-0.029549337249144256
0.016443249861224057,0.15389202944696784,-0.024093989801422012
0.01694375036172456,0.288142023322134,-0.030603868314502458
0.01744425086222506,0.38898989199950845,-0.03732680276856108
0.01794475136272556,0.45748430650797867,-0.03946410936374692
0.01844525186322606,0.4811992973626217,-0.04116659492179085
0.01894575236372656,0.4589942248754443,-0.038241014392256176
0.019446252864227062,0.38341062274519006,-0.038922694041219855
0.01994675336472756,0.2760978683422362,-0.02984742371597313
0.02044725386522806,0.14289776264194784,-0.050970361705028
0.020947754365728558,-0.005954605743583473,-0.030953494528311917
0.02144825486622906,-0.15312800115033978,-0.04099105269079802
0.021948755366729557,-0.2808347373575252,-0.05035052231092356
0.02244925586723006,-0.39664164906534305,-0.033404392041902986
0.022949756367730563,-0.4591274756188067,-0.03545669817197807
0.02345025686823106,-0.4753128324741304,-0.057102799370330935
0.023950757368731562,-0.4571103692313281,-0.043768361181839854
0.02445125786923206,-0.3836802852678449,-0.05745178253182353
0.02495175836973256,-0.2748173605536722,-0.048356690522061506
0.025452258870233058,-0.14698320159510941,-0.06453496513725689
0.02595275937073356,0.008248120902019578,-0.06939814402408326
0.026453259871234057,0.15089559201846137,-0.05954014366927742
0.02695376037173456,0.29139957381801895,-0.06458804198782105
0.027454260872235063,0.3916361956987637,-0.06436268758494988
0.02795476137273556,0.46050576779402147,-0.07440515639010063
0.028455261873236062,0.4819262052170953,-0.07143075043746784
0.02895576237373656,0.45430881883490065,-0.06947231906846223
0.02945626287423706,0.38627032019384716,-0.07178067745057903
0.029956763374737558,0.275648395530891,-0.07759136527181135
0.03045726387523806,0.14249431579392408,-0.07646944755879334
0.030957764375738557,-0.007429792080224632,-0.07266117073533561
0.03145826487623906,-0.15527323513224128,-0.07403931935480998
0.03195876537673956,-0.28847102940656116,-0.070429088705504
0.03245926587724006,-0.3967832309505949,-0.07340537620568384
0.03295976637774056,-0.46012766100721925,-0.07786804088293393
0.03346026687824106,-0.48227004092432424,-0.09356378202598109
0.03396076737874156,-0.4544130859912083,-0.08884718127410561
0.03446126787924206,-0.3817872150735707,-0.09272871270254363
0.03496176837974256,-0.27940499416997683,-0.08860613562428045
0.03546226888024306,-0.13738905803556548,-0.08831966643944691
0.03596276938074356,0.01076293806809035,-0.09614585237954101
0.03646326988124406,0.16343908557199466,-0.08577933208208052
0.03696377038174456,0.291693203559849,-0.09132904893647407
0.03746427088224506,0.3942998181973154,-0.08991404658924088
0.03796477138274556,0.46054006797627167,-0.09743994301369678
0.03846527188324606,0.4840929698874385,-0.11345032919822567
0.038965772383746565,0.4542511849972576,-0.10560703516695512
0.03946627288424706,0.38320875562932794,-0.09195251640563654
0.039966773384747564,0.28184065765870736,-0.10108925236060037
0.04046727388524806,0.1394575820311266,-0.10536788014117053
0.040967774385748564,-0.012046632446803731,-0.10055712342660826
0.04146827488624906,-0.15996278967077185,-0.09871014093730535
0.04196877538674956,-0.2956262673776291,-0.10361131687518832
0.04246927588725006,-0.39507880813367563,-0.11111443636170325
0.04296977638775056,-0.4638512319801428,-0.10104069243153423
0.043470276888251065,-0.47823406811505714,-0.11231956726992588
0.04397077738875156,-0.45740372511354416,-0.11707904787794145
0.044471277889252064,-0.3770930595021055,-0.11630938473970649
0.04497177838975256,-0.2731353447451581,-0.12143231514302082
0.045472278890253064,-0.14499679347879696,-0.11134098167016265
0.04597277939075356,0.010527051805958204,-0.12508895006488688
0.04647327989125406,0.1627264461208381,-0.1268671057196185
0.04697378039175456,0.29377016341019135,-0.12446926836747126
0.04747428089225506,0.399201659418481,-0.12878839230494632
0.04797478139275556,0.46446910284186343,-0.13196655869795082
0.04847528189325606,0.47988860694919355,-0.1281060523194008
0.048975782393756565,0.45350166742656667,-0.12615594961766075
0.04947628289425706,0.3770058408988656,-0.12563720181161595
0.049976783394757564,0.274373735414707,-0.13028459329366213
0.05047728389525806,0.130051342344987,-0.1355709835118774
0.05097778439575856,-0.012125660168513871,-0.13363581371798475
0.05147828489625906,-0.16777655484176496,-0.1388231476659022
0.05197878539675956,-0.29343216567585517,-0.1335112516131357
0.05247928589726006,-0.39922974085111634,-0.14728147377723955
0.05297978639776056,-0.4549403516393826,-0.1416195863446749
0.053480286898261065,-0.48165216960316076,-0.14522620061333913
0.05398078739876156,-0.4508680210374548,-0.14592164051461917
0.054481287899262064,-0.3779235069528831,-0.14645808095423152
0.05498178839976256,-0.268279314202307,-0.14109865657014298
0.05548228890026306,-0.13674850606157482,-0.14895876467516406
0.05598278940076356,0.013659279483213594,-0.1596222608343319
0.05648328990126406,0.16495923329075293,-0.14835807376443746
0.05698379040176456,0.2966527706657471,-0.15875243187356886
0.05748429090226506,0.4056088898757825,-0.15130893805618373
0.057984791402765565,0.45909082414825386,-0.15437331531652734
0.05848529190326606,0.47616576164635693,-0.16037763494199334
0.058985792403766564,0.45604548670489886,-0.16254455769890536
0.05948629290426706,0.3809030155025673,-0.17118211679136633
0.05998679340476756,0.26659324312609717,-0.15943678537040767
0.06048729390526806,0.12991478416624755,-0.16525829883782692
0.06098779440576856,-0.017260865093025157,-0.1598234688336808
0.06148829490626906,-0.16629625707711365,-0.15360706557921405
0.06198879540676956,-0.2998618573250337,-0.15828507557818344
0.062489295907270065,-0.40354172335901317,-0.15773297078709925
0.06298979640777055,-0.4600206145488804,-0.16676456297987638
0.06349029690827106,-0.482262149361648,-0.17520118190072392
0.06399079740877156,-0.4505022514026437,-0.16510189897779465
0.06449129790927206,-0.37466338095362006,-0.17365628477983117
0.06499179840977255,-0.2666326817605891,-0.17944446786963092
0.06549229891027306,-0.12406720865345319,-0.1894613870430208
0.06599279941077356,0.016919432849211536,-0.1788865983971878
0.06649329991127406,0.16829057658028912,-0.18356953384026292
0.06699380041177457,0.29888187564882646,-0.1743496146941963
0.06749430091227505,0.4023986665621251,-0.1841144166152422
0.06799480141277556,0.4678257464711503,-0.19111504924543002
0.06849530191327606,0.4815189219219247,-0.19002762932258083
0.06899580241377656,0.45017466044941185,-0.18220505770360032
0.06949630291427707,0.37277899154773503,-0.18359901437394247
0.06999680341477756,0.2697295213818983,-0.1834321076804297
0.07049730391527806,0.1274072742149141,-0.18989239632710403
0.07099780441577856,-0.019827033372438248,-0.1962693681550218
0.07149830491627907,-0.17014593106769846,-0.1948156474031111
0.07199880541677957,-0.30189755547198993,-0.18504947347269587
0.07249930591728006,-0.3950745382034882,-0.18872113396491252
0.07299980641778056,-0.46184283980388235,-0.20138384400433298
0.07350030691828106,-0.47394540209925207,-0.1984940081304412
0.07400080741878157,-0.4471033261974136,-0.20534893315780253
0.07450130791928206,-0.37514944712301285,-0.20145739133226598
0.07500180841978256,-0.2633226379794102,-0.20640804424014092
0.07550230892028306,-0.13333285906678122,-0.2133145203362295
0.07600280942078357,0.02194813970134976,-0.20719915523304308
0.07650330992128407,0.16788549236645964,-0.21288414817141546
0.07700381042178456,0.30260982400331077,-0.2181281783868503
0.07750431092228506,0.4065199428165944,-0.20735672742812475
0.07800481142278556,0.45989255251920197,-0.21821911069999247
0.07850531192328607,0.48246973745302074,-0.220246945733019
0.07900581242378656,0.44759978615627566,-0.20446711506479326
0.07950631292428706,0.37611292755662495,-0.2230351976717363
0.08000681342478756,0.26403642346957373,-0.21539519633698695
0.08050731392528807,0.12819186526095241,-0.21603622211440712
0.08100781442578857,-0.025551458018457714,-0.22503973426603088
0.08150831492628906,-0.16985161901286594,-0.22388376906902974
0.08200881542678956,-0.301446131596887,-0.22346670848805164
0.08250931592729006,-0.4047240245628601,-0.2284172234086102
0.08300981642779057,-0.46837667804232874,-0.233183472492496
0.08351031692829106,-0.47834704642797526,-0.2282672411551504
0.08401081742879156,-0.4537175977518849,-0.22422246575324678
0.08451131792929206,-0.37594972526395193,-0.21842440050981968
0.08501181842979257,-0.2616789913012396,-0.2322312820077623
0.08551231893029307,-0.12342979004846678,-0.23153131924702103
0.08601281943079356,0.022591694514758377,-0.23234486383213995
0.08651331993129406,0.1722862884829393,-0.23702819340116152
0.08701382043179456,0.3005284790429333,-0.23565668621657587
0.08751432093229507,0.4016519454448834,-0.2353181874676356
0.08801482143279556,0.4644284600087992,-0.2434563468494948
0.08851532193329606,0.48293709994911066,-0.2374532965030217
0.08901582243379656,0.4494826199207741,-0.24270903263180993
0.08951632293429707,0.3736443679188142,-0.23405034376493006
0.09001682343479755,0.26548229518703736,-0.23808585178124403
0.09051732393529806,0.12141185743162239,-0.24004376262163538
0.09101782443579856,-0.024478253723967756,-0.23918824845854003
0.09151832493629906,-0.17325266925149746,-0.238203776008407
0.09201882543679957,-0.3035263307906297,-0.2490609518812249
0.09251932593730006,-0.40311405589623095,-0.2477117915194044
0.09301982643780056,-0.46205975891722456,-0.24543694898226603
0.09352032693830106,-0.4798217472997141,-0.24300474448397502
0.09402082743880157,-0.4549628253026751,-0.25352255309921035
0.09452132793930206,-0.3733583383508309,-0.2554952119024416
0.09502182843980266,-0.2549779802571468,-0.24761728434779126
0.09552232894030306,-0.11869026560097211,-0.26625312928175543
0.09602282944080356,0.030277368726917914,-0.2686393171927531
0.09652332994130407,0.17036848935589405,-0.26601658461043615
0.09702383044180456,0.3054722595200812,-0.2724742457299488
0.09752433094230516,0.41002069602554164,-0.2728280149968634
0.09802483144280566,0.46784919151228044,-0.27571975204410243
0.09852533194330607,0.48485311814711685,-0.26679337824605776
0.09902583244380656,0.4453260238513761,-0.26882763616035477
0.09952633294430716,0.37266521244929485,-0.26772922983573194
0.10002683344480766,0.261777282969595,-0.26277445336587546
0.10052733394530816,0.12067381423836744,-0.2618934908367447
0.10102783444580857,-0.026360889705891583,-0.27123792123895474
0.10152833494630906,-0.17205640718891893,-0.2790970696066316
0.10202883544680966,-0.3025878337592921,-0.26709359290259693
0.10252933594731016,-0.4010310619575524,-0.28058039432140675
0.10302983644781066,-0.46023183149040514,-0.2762622911991391
0.10353033694831106,-0.4819352703786426,-0.2793249363777746
0.10403083744881166,-0.45351273119422536,-0.2760925633229448
0.10453133794931216,-0.3725881547119739,-0.2845720119497401
0.10503183844981266,-0.2584992450006269,-0.28744061827287976
0.10553233895031316,-0.11899465964704829,-0.2808143592350403
0.10603283945081356,0.03148355876008921,-0.29012920117308627
0.10653333995131416,0.16898528273456218,-0.28259192635211516
0.10703384045181466,0.30320154230829144,-0.29854018341802807
0.10753434095231516,0.4063899695625582,-0.2983073566276933
0.10803484145281567,0.473460722818604,-0.2886686594776479
0.10853534195331616,0.47991390636322895,-0.2973622136579707
0.10903584245381666,0.44769480333419387,-0.2910277445985086
0.10953634295431716,0.370203061865693,-0.29704679976047543
0.11003684345481766,0.25875168508138113,-0.2940469719445294
0.11053734395531817,0.11927203254995143,-0.2900160615627834
0.11103784445581866,-0.03030887965841097,-0.2914777146901555
0.11153834495631916,-0.17825698280760724,-0.2891810223562648
0.11203884545681966,-0.31065179334854837,-0.2955998385123115
0.11253934595732017,-0.4072290382343029,-0.2952307672851991
0.11303984645782066,-0.4646967373354236,-0.2976447689217906
0.11354034695832116,-0.47799350793850703,-0.29877207817620666
0.11404084745882166,-0.447453813760758,-0.29834570070207733
0.11454134795932217,-0.3635936114257243,-0.31398020084392214
0.11504184845982267,-0.2577777866133841,-0.31719222386540974
0.11554234896032316,-0.11534670456483641,-0.30415204141893826
0.11604284946082366,0.036993455300836794,-0.31138761605838927
0.11654334996132416,0.1810485495223423,-0.3080726431635935
0.11704385046182467,0.3145640117876303,-0.319842376304995
0.11754435096232516,0.4056942859960887,-0.3147181609102183
0.11804485146282566,0.47249654612161585,-0.31641706488847215
0.11854535196332616,0.47490767443921933,-0.3109955722743801
0.11904585246382667,0.45004183208696064,-0.3211639008562769
0.11954635296432717,0.36800277575897694,-0.32467119277326045
0.12004685346482766,0.2554256784525256,-0.31343684791477455
0.12054735396532816,0.1106995780745309,-0.3167958206833528
0.12104785446582866,-0.04040614037449879,-0.31243913499396
0.12154835496632917,-0.17982737616681788,-0.3222175641656744
0.12204885546682966,-0.31038698051550734,-0.32062791328805296
0.12254935596733016,-0.41067555322476545,-0.31983877015476886
0.12304985646783066,-0.4711668360304132,-0.3250256327901026
0.12355035696833117,-0.4736969636229502,-0.31185973698202385
0.12405085746883167,-0.44056338734239475,-0.33019110876619223
0.12455135796933216,-0.3710526675236499,-0.32575135263246763
0.12505185846983266,-0.25055134832802517,-0.33509369340470996
0.12555235897033315,-0.11669986789754246,-0.34074710486607707
0.12605285947083367,0.04041150725810839,-0.3324501799729612
0.12655335997133416,0.18960425103633435,-0.3406269535670742
0.12705386047183465,0.3110216193194868,-0.3524087592220775
0.12755436097233516,0.40653397759211807,-0.32472405452935404
0.12805486147283565,0.46718991933729714,-0.3466019249725475
0.12855536197333617,0.4788582316338216,-0.3357703240653948
0.12905586247383666,0.4490937855689695,-0.33854534113294527
0.12955636297433715,0.3671138530690116,-0.3380835241791022
0.13005686347483766,0.24483247926519483,-0.3464742787177689
0.13055736397533815,0.11546961004236116,-0.33952697807193
0.13105786447583867,-0.04069041394034358,-0.34761133049902315
0.13155836497633916,-0.18866801039249806,-0.3523300192483644
0.13205886547683965,-0.316529904269285,-0.3435431411283039
0.13255936597734017,-0.4165964975156168,-0.3417629540424128
0.13305986647784065,-0.4736416409861377,-0.34304896945912927
0.13356036697834117,-0.4828164493499622,-0.34282969487503184
0.13406086747884166,-0.44317554365741374,-0.35044902345471396
0.13456136797934215,-0.36703710692023783,-0.359420869510929
0.13506186847984267,-0.2504874894540278,-0.3661388114466044
0.13556236898034316,-0.11055654530399286,-0.36143651516435266
0.13606286948084367,0.03863780325060556,-0.3555140747888467
0.13656336998134416,0.19265933451856704,-0.3596632094043134
0.13706387048184465,0.3147201392421628,-0.3671007866545882
0.13756437098234517,0.4097937987726951,-0.3577266244003325
0.13806487148284566,0.4722776491232436,-0.3621096363708268
0.13856537198334617,0.4788377078513062,-0.367724368704565
0.13906587248384666,0.44735375559506474,-0.35920449259720955
0.13956637298434715,0.366779638903728,-0.35903394752410694
0.14006687348484767,0.25053454168988604,-0.36649897343677224
0.14056737398534816,0.10600808454514712,-0.3708124451102416
0.14106787448584865,-0.03774227451676037,-0.3629945178712755
0.14156837498634917,-0.18552538909587316,-0.3705437261813746
0.14206887548684966,-0.3129746121476922,-0.3778877739366649
0.14256937598735017,-0.4158497562282246,-0.3786315009555879
0.14306987648785066,-0.47023741653980927,-0.3722491913001282
0.14357037698835115,-0.47890755105466914,-0.37302905928303903
0.14407087748885167,-0.44286289113560057,-0.36438102811396994
0.14457137798935216,-0.3649433086613916,-0.37846575777888264
0.14507187848985267,-0.24947986714106762,-0.37461846592404685
0.14557237899035316,-0.10887277953453917,-0.3801687739780112
0.14607287949085365,0.04516125427270001,-0.3732336880482277
0.14657337999135417,0.1849016559021871,-0.36923764795921965
0.14707388049185466,0.3202373018697726,-0.38519319339892105
0.14757438099235518,0.41073482267012,-0.39172557682631615
0.14807488149285566,0.4679463508439502,-0.3913902015254691
0.14857538199335615,0.48265660016698964,-0.38498346996690713
0.14907588249385667,0.4400541480237816,-0.391036040974324
0.14957638299435716,0.35980641307190026,-0.38775876770630774
0.15007688349485765,0.2515160135282036,-0.392690302755368
0.15057738399535817,0.10534184377441798,-0.38049849330969576
0.15107788449585866,-0.044172743648351304,-0.3855472620988223
0.15157838499635917,-0.1932718127193075,-0.3840245669914641
0.15207888549685966,-0.3193534663005163,-0.3842667620173246
0.15257938599736015,-0.41589656010650106,-0.3898816233696841
0.15307988649786067,-0.467821207240242,-0.39697222290236195
0.15358038699836116,-0.4780530013301822,-0.3953379225503289
0.15408088749886167,-0.44148553248922884,-0.40281505926654704
0.15458138799936216,-0.3635383600741479,-0.40748372619293716
0.15508188849986265,-0.24574874759865648,-0.392999532678643
0.15558238900036317,-0.1063541004281679,-0.40047774150713294
0.15608288950086366,0.045542652396594795,-0.40122139913139143
0.15658339000136418,0.19411738869398082,-0.4115705264671876
0.15708389050186466,0.3207153782300527,-0.40018946214405565
0.15758439100236515,0.4103580672362435,-0.39790749044160467
0.15808489150286567,0.47164555555933163,-0.40425666456424114
0.15858539200336616,0.47822283261179027,-0.40385664995781273
0.15908589250386665,0.43870331920718675,-0.4056609079180581
0.15958639300436717,0.35879605048588264,-0.39913208159887675
0.16008689350486766,0.24246119752782988,-0.40825259792663865
0.16058739400536817,0.1053787229104292,-0.41855611219688366
0.16108789450586866,-0.04058833393719593,-0.41748467420071284
0.16158839500636915,-0.19222605745110036,-0.4142634225573145
0.16208889550686967,-0.31918560201155605,-0.4205261494597483
0.16258939600737016,-0.41535356344236457,-0.41835686172083175
0.16308989650787067,-0.4698974263055429,-0.41077392481847796
0.16359039700837116,-0.4746108666587579,-0.4154405172546507
0.16409089750887165,-0.4413712914580784,-0.42275200675819685
0.16459139800937217,-0.3625650178642803,-0.4250431577348646
0.16509189850987266,-0.23936154331256512,-0.4280168910221227
0.16559239901037315,-0.10166310828999282,-0.42297187231578626
0.16609289951087366,0.045183677164246046,-0.4214399077981864
0.16659340001137415,0.1944209018002184,-0.42860466104108047
0.16709390051187467,0.31833812015177526,-0.429117870177884
