Time,Vin,Vout
-0.0001808033699443757,0.08561288411586652,0.05141187570794482
0.00031969713055612426,2.9963265768670637,1.9695750675980568
0.0008201976310566242,5.725197424012498,6.532292152944969
0.0013206981315571243,7.912376671602271,10.7795422567897
0.0018211986320576241,9.225070992982172,13.407165394769809
0.002321699132558124,9.759871145063057,13.385341424701682
0.0028221996330586242,9.211837341537326,13.185145851847393
0.0033227001335591243,7.831763559990562,13.20920149804175
0.003823200634059624,5.635787443405674,12.786574008845397
0.0043237011345601244,2.9508642248156716,8.160263156415791
0.004824201635060624,-0.02652897195804338,3.194113899377183
0.0053247021355611246,-3.035002968931741,-1.8828831070478829
0.005825202636061624,-5.73807850258854,-6.652215196073996
0.006325703136562125,-7.814145892725926,-10.972195961445722
0.006826203637062624,-9.233377138019927,-13.133502029524678
0.007326704137563124,-9.701937700565969,-13.368762343507564
0.007827204638063624,-9.205330000579632,-13.20045366944761
0.008327705138564125,-7.851403165700015,-13.373965283829063
0.008828205639064625,-5.745191101173254,-12.761863245406852
0.009328706139565124,-2.9109872522964206,-8.199107611067284
0.009829206640065624,0.14246901819884614,-2.98492949832603
0.010329707140566123,3.0541467009554704,1.9062173526368273
0.010830207641066625,5.811477666521284,6.739002920161154
0.011330708141567124,7.938589773521724,10.848326682820172
0.011831208642067624,9.363675324171098,13.254936048834274
0.012331709142568124,9.75633239605603,13.33612771951451
0.012832209643068625,9.22916765270589,13.151765806497092
0.013332710143569125,7.80396698000094,13.243764821715125
0.013833210644069624,5.645307544558301,12.497173301794122
0.014333711144570124,2.8909793775501953,8.230021650375578
0.014834211645070624,-0.1135521150839509,3.100377364217848
0.015334712145571125,-3.08128868760081,-1.8995625823272042
0.01583521264607162,-5.878110356537254,-6.843869695508414
0.016335713146572124,-7.959456758860528,-10.73815996426579
0.016836213647072627,-9.241589014619588,-13.308502353611923
0.017336714147573123,-9.774743261780321,-13.431306916618988
0.017837214648073627,-9.3006254623461,-13.251815905290004
0.018337715148574123,-7.782459953170456,-13.477070089332523
0.018838215649074626,-5.655206155948195,-12.850717135248662
0.019338716149575122,-3.0297690209399226,-8.05408479705166
0.019839216650075625,0.14344667074332407,-3.1409592638689063
0.02033971715057612,3.1122813562062586,2.082155194132661
0.020840217651076624,5.863220083449756,6.767201254457602
0.021340718151577127,8.008153197848273,11.09779100565609
0.021841218652077624,9.42931578824247,13.327089834404013
0.022341719152578127,9.716350209142142,13.403011689320808
0.022842219653078623,9.315427231025994,13.24679856223301
0.023342720153579126,7.881159990628902,13.40436038924586
0.023843220654079622,5.572346956373618,12.453667128399388
0.024343721154580125,2.8015718913582868,7.937960936217821
0.02484422165508062,-0.15465552787830694,2.898925118614762
0.025344722155581124,-3.137013110313648,-2.0748786332747993
0.025845222656081628,-5.815843702769104,-6.902111606788035
0.026345723156582124,-7.959518882360421,-11.081306538899932
0.026846223657082627,-9.23254184394016,-13.184883428254523
0.027346724157583123,-9.644921317503732,-13.436502763660112
0.027847224658083626,-9.08702239773781,-13.438251585341728
0.028347725158584122,-7.838151342315293,-13.436669285507287
0.028848225659084625,-5.5572674121349666,-12.461177472051022
0.02934872615958512,-2.8186223940036013,-7.99480701339618
0.029849226660085625,0.23542519957397223,-2.987377266430696
0.030349727160586128,3.226984278980723,2.1586185226222447
0.030850227661086624,5.973981751921073,6.720930575303948
0.03135072816158713,7.907273689397148,11.243246987046264
0.03185122866208762,9.25509916454782,13.408404401844779
0.032351729162588126,9.764794848279692,13.367750840291794
0.03285222966308863,9.189048298965705,13.34760600200991
0.033352730163589125,7.689145313622762,13.276245614909683
0.03385323066408963,5.576224517086627,12.446724700607652
0.034353731164590125,2.8966060277534624,8.170886714505444
0.03485423166509063,-0.2584783068960599,2.7195102294235465
0.035354732165591124,-3.2189937411601153,-2.178413747268988
0.03585523266609163,-5.923174526025815,-7.013288593776807
0.03635573316659212,-7.936687321559424,-11.069427981554275
0.036856233667092626,-9.363647259129419,-13.18892916618229
0.03735673416759313,-9.773500622384248,-13.295416644123174
0.037857234668093626,-9.245711020344734,-13.250922463954273
0.03835773516859413,-7.7476088748723235,-13.111129113824719
0.038858235669094625,-5.482161851552427,-12.730952075412286
0.03935873616959513,-2.722264253516922,-7.825415679038202
0.039859236670095624,0.3355685325697591,-2.7883197180313637
0.04035973717059613,3.2700607086364353,2.1781508026662744
0.04086023767109662,5.935891125737225,6.988589423933691
0.041360738171597126,8.021604392898952,11.125643451667374
0.04186123867209762,9.41614823931574,13.372591531083863
0.042361739172598126,9.779882102134604,13.216921837730554
0.04286223967309863,9.29332911228266,13.183037171599146
0.043362740173599125,7.7060107913343545,13.235819406307144
0.04386324067409963,5.674341254115355,12.632722395334653
0.044363741174600124,2.7265443707655224,7.795093585529776
0.04486424167510063,-0.3011984673987935,2.7449661224367508
0.045364742175601123,-3.277119178794608,-2.3697293002623887
0.04586524267610163,-5.990524144454531,-6.972189339421598
0.04636574317660212,-7.952178490311903,-11.232678186909645
0.046866243677102626,-9.31743133293819,-13.15714229896904
0.04736674417760313,-9.65203975357477,-13.234618068660486
0.047867244678103625,-9.149224841836533,-13.348777638309324
0.04836774517860413,-7.672658795396192,-13.341598476288185
0.048868245679104624,-5.502385319545572,-12.49100192815144
0.04936874617960513,-2.7683107244481917,-7.661227290207972
0.049869246680105624,0.2797778657351706,-2.623203977724593
0.05036974718060613,3.251469094055695,2.3417053162580665
0.05087024768110662,5.97003222397516,7.032484342317965
0.051370748181607126,7.951867076176569,11.239685556197996
0.05187124868210763,9.423823089377851,13.34310565205604
0.052371749182608125,9.752011561374019,13.319227833307522
0.05287224968310863,9.146903357403584,13.310689536981007
0.053372750183609124,7.547564332355686,13.362463842071648
0.05387325068410963,5.445023529562533,12.517655603971814
0.054373751184610124,2.704997269343244,7.580901717315935
0.05487425168511063,-0.24768735215104426,2.532207488921222
0.05537475218561112,-3.39343113822629,-2.4794162962286848
0.055875252686111626,-5.967260448341318,-7.188298178399096
0.05637575318661213,-8.084435483543716,-11.189785516760802
0.056876253687112625,-9.285323930410119,-13.331072877576643
0.05737675418761313,-9.72360610702739,-13.297924991125953
0.057877254688113625,-9.157846464894014,-13.451239187213524
0.05837775518861413,-7.7770852720731485,-13.335534662541882
0.058878255689114624,-5.379255100854302,-12.820984594327406
0.05937875618961513,-2.665657008896294,-7.675857311603037
0.05987925669011562,0.3345381557084764,-2.4350467326752123
0.060379757190616126,3.2940593685541097,2.4047740421314985
0.06088025769111663,5.985213077126269,7.197526494498836
0.061380758191617125,8.025050788761215,11.214999905745604
0.06188125869211763,9.297441340206031,13.435477544524007
0.062381759192618125,9.689805529034226,13.33705708172716
0.06288225969311863,9.142102635333769,13.457699835392532
0.06338276019361913,7.631814847186605,13.283352577110687
0.06388326069411962,5.428595041440512,12.364318266398454
0.06438376119462012,2.7685017815783057,7.523333785130653
0.06488426169512063,-0.3123672420278233,2.5650526439377983
0.06538476219562113,-3.3700799675005264,-2.439170876583772
0.06588526269612163,-6.051990171336734,-7.301310175495249
0.06638576319662212,-8.1608934961992,-11.439829987777417
0.06688626369712262,-9.385300367942033,-13.179232901296329
0.06738676419762313,-9.584290705262077,-13.296502075981078
0.06788726469812363,-9.143117384522899,-13.499275804094125
0.06838776519862412,-7.641833227034921,-13.207768963988826
0.06888826569912462,-5.399183531871383,-12.45097291931213
0.06938876619962513,-2.5194992121853286,-7.383299956219797
0.06988926670012563,0.3618926958109643,-2.4459455893940274
0.07038976720062613,3.429422537610691,2.455472725810853
0.07089026770112662,5.971462968893981,7.468431796184223
0.07139076820162713,8.021158668606985,11.324526074656275
0.07189126870212763,9.426298187214648,13.263789112167903
0.07239176920262813,9.769187187188317,13.247878215707834
0.07289226970312862,9.162330442094817,13.385288774479797
0.07339277020362912,7.457997823006453,13.28378126064985
0.07389327070412963,5.355863325795882,12.29909611905933
0.07439377120463013,2.608579424495215,7.517817876937708
0.07489427170513063,-0.3964488209002584,2.3150213302038534
0.07539477220563112,-3.3709797945444206,-2.5354941927053263
0.07589527270613163,-6.1256725855929295,-7.326886854894954
0.07639577320663213,-8.06187253087362,-11.233316533735426
0.07689627370713263,-9.467970195687146,-13.164956449939487
0.07739677420763312,-9.839972659994476,-13.460131807800352
0.07789727470813362,-9.200706827950693,-13.386076129495653
0.07839777520863413,-7.5718102351067795,-13.397680492222223
0.07889827570913463,-5.440494700746604,-12.380114635286754
0.07939877620963513,-2.5703182222279253,-7.5645228879052295
0.07989927671013562,0.5080645818772898,-2.363035193324424
0.08039977721063613,3.364664426264251,2.5528951020101625
0.08090027771113663,6.135133805852575,7.323640501698719
0.08140077821163713,8.052476400871377,11.461308412897123
0.08190127871213762,9.35837023917704,13.3713064123309
0.08240177921263812,9.685129973580375,13.43185491870111
0.08290227971313863,9.050101125647288,13.27559288944134
0.08340278021363913,7.557474108756188,13.225306838102435
0.08390328071413962,5.343325350612092,12.387312772097442
0.08440378121464012,2.495050071887791,7.296364736294538
0.08490428171514063,-0.5455758920496764,2.301898919008782
0.08540478221564113,-3.4988278495127387,-2.5299847594544107
0.08590528271614163,-6.13335090041983,-7.3382150492457345
0.08640578321664212,-8.152047443181788,-11.289703285657398
0.08690628371714262,-9.324522345660741,-13.48593595640854
0.08740678421764313,-9.756813661387493,-13.355940794822734
0.08790728471814363,-9.003868179665183,-13.433911179810128
0.08840778521864412,-7.534988001635474,-13.319144267885418
0.08890828571914472,-5.384036720737432,-12.26295214259565
0.08940878621964513,-2.28835157191132,-7.350688562415449
0.08990928672014563,0.5469186970534152,-2.277016423017983
0.09040978722064613,3.5580998398105845,2.677209272485587
0.09091028772114662,6.092015165940208,7.549519954601158
0.09141078822164722,8.39124920813594,11.339176177724148
0.09191128872214772,9.42130176470416,13.441460115240766
0.09241178922264813,9.758067208106855,13.328241599896089
0.09291228972314862,8.994799209797543,13.380845475416518
0.09341279022364922,7.460867630703824,13.172226140793542
0.09391329072414972,5.224454819983764,12.151581550765197
0.09441379122465023,2.3522520974703354,7.3213389873533785
0.09491429172515063,-0.6467492448681508,2.148466760377017
0.09541479222565112,-3.566934381546391,-2.8122066102091825
0.09591529272615172,-6.159346074773829,-7.369510685750168
0.09641579322665222,-8.139065238531439,-11.480394019481968
0.09691629372715273,-9.344556916094257,-13.322164763244928
0.09741679422765312,-9.658630544013752,-13.43645719647603
0.09791729472815372,-9.085058253541419,-13.137306340473318
0.09841779522865422,-7.434677263978805,-13.29850757271043
0.09891829572915473,-5.204623774240066,-11.946268826705257
0.09941879622965523,-2.4708688724682704,-7.232784553264224
0.09991929673015562,0.5402530751656642,-2.160240755582026
0.10041979723065622,3.6631467560920483,2.6970792547834495
0.10092029773115672,6.332525095104624,7.6805794988152005
0.10142079823165723,8.148960184662704,11.522831732769205
0.10192129873215773,9.489656342616591,13.298248558064634
0.10242179923265822,9.746500677090669,13.253816050693175
0.10292229973315872,8.97390385245914,13.176285828099344
0.10342280023365923,7.552513698598988,13.398035639876161
0.10392330073415973,5.1713665922250245,12.247966978637505
0.10442380123466023,2.3532093228097066,7.028851148353674
0.10492430173516072,-0.5536421656999496,2.1192845824185116
0.10542480223566122,-3.6345337687876307,-2.728266749479376
0.10592530273616173,-6.188433476260255,-7.58830637081091
0.10642580323666223,-8.300161027661908,-11.564906275490818
0.10692630373716272,-9.463755434874107,-13.379355864688115
0.10742680423766322,-9.669282110907854,-13.245945251276087
0.10792730473816373,-8.91965556895405,-13.30097329116001
0.10842780523866423,-7.535803610117401,-13.43078381457482
0.10892830573916473,-5.161418776717348,-12.115810965907814
0.10942880623966522,-2.3614100611574327,-7.061875356876714
0.10992930674016572,0.6697417468945888,-2.0833345338327405
0.11042980724066623,3.785085673063005,2.8711263311496396
0.11093030774116673,6.271325428528041,7.719102536352117
0.11143080824166722,8.29635079940567,11.741614299791781
0.11193130874216772,9.41003885117384,13.415874789419496
0.11243180924266823,9.782844481105366,13.295827921961461
0.11293230974316873,8.919773229142562,13.279780114648851
0.11343281024366923,7.555861945150732,13.269860269062155
0.11393331074416972,5.139609178611045,11.96546764624064
0.11443381124467022,2.2176032674999324,7.07001690038631
0.11493431174517073,-0.7882675415631761,2.0923873759254383
0.11543481224567123,-3.565315323973083,-2.960808646850004
0.11593531274617172,-6.32335532361457,-7.666431932661534
0.11643581324667222,-8.16576022230145,-11.575099914580761
0.11693631374717273,-9.375709260129105,-13.415036164763675
0.11743681424767323,-9.667276337006673,-13.531990766709514
0.11793731474817373,-9.090309922741987,-13.251906201248001
0.11843781524867422,-7.3970631343718924,-13.305140799699556
0.11893831574917473,-5.0808754980112365,-11.85111302574783
0.11943881624967523,-2.331080471244622,-7.187065325018048
0.11993931675017573,0.7503265278034865,-1.8649644845994608
0.12043981725067622,3.663096179006784,3.007165679594058
0.12094031775117672,6.2583614278532,7.747037457413844
0.12144081825167723,8.291933604053405,11.72748571065208
0.12194131875217773,9.45116196079476,13.332762993386067
0.12244181925267823,9.72223024847306,13.290702044920307
0.12294231975317872,9.067720905789649,13.147646191956186
0.12344282025367923,7.341919094910948,13.196564971157278
0.12394332075417973,5.11166972650348,12.08687274125614
0.12444382125468023,2.2620602423226464,7.018951022273739
0.12494432175518073,-0.799754352817426,1.9434402435769227
0.1254448222556812,-3.7581432168100344,-3.007928248858844
0.1259453227561817,-6.34284941359636,-7.909939816389865
0.12644582325668222,-8.352693420494782,-11.73913551475381
0.1269463237571827,-9.501528585007481,-13.354211429036525
0.12744682425768322,-9.657604547926038,-13.422424901856049
0.1279473247581837,-9.020803578815833,-13.467547849150137
0.1284478252586842,-7.364281115400471,-13.371442665624231
0.12894832575918472,-5.07087199577569,-11.936167897905664
0.1294488262596852,-2.2299736025642822,-6.793882125743101
0.12994932676018572,0.8486911923889157,-1.8220413288091262
0.1304498272606862,3.8509672856035477,2.992008091607686
0.1309503277611867,6.24746932375997,7.76558397852387
0.13145082826168722,8.244264215811144,11.931483996670778
0.1319513287621877,9.45445837810454,13.385636181380654
0.13245182926268823,9.754014941386137,13.124395221927502
0.13295232976318871,9.032465188169502,13.398296255130253
0.1334528302636892,7.336206236196187,13.306035891868918
0.13395333076418972,5.1316243866844715,12.043321019800233
0.1344538312646902,2.238624425573988,6.854002039556311
0.1349543317651907,-0.7458423047530777,1.68277271541456
0.13545483226569122,-3.899786158735905,-3.1562407238878936
0.1359553327661917,-6.475309491807275,-7.8995663646805285
0.13645583326669222,-8.407833972034183,-11.863387500702364
0.1369563337671927,-9.533993066263339,-13.318871917633505
0.1374568342676932,-9.657190991984628,-13.42454028005002
0.13795733476819372,-8.97751239878146,-13.241151487201462
0.1384578352686942,-7.423859746360871,-13.37015844587655
0.13895833576919472,-5.039690095489453,-11.826218775578718
0.1394588362696952,-2.1642540464924664,-6.838784425885302
0.1399593367701957,0.8479410946946958,-1.8012964831627873
0.14045983727069622,3.8555326141212793,3.1950612325946492
0.1409603377711967,6.350455463314612,7.674501714042412
0.14146083827169723,8.316687176637181,11.861473779148072
0.14196133877219771,9.555190026860728,13.31976167652502
0.1424618392726982,9.63332770659978,13.42657066258137
0.14296233977319872,8.843061369583149,13.315816524613405
0.1434628402736992,7.341422940384649,13.249383931699525
0.1439633407741997,5.09018685106168,11.886841512921622
0.14446384127470022,2.118414118797407,6.8318017053072895
0.1449643417752007,-0.910998093730942,1.7158776414793786
0.14546484227570122,-3.93522908290037,-3.227236744152632
0.1459653427762017,-6.35807393650249,-7.86055932018471
0.1464658432767022,-8.343916729670244,-11.994803484785217
0.14696634377720272,-9.569451305777626,-13.576641255552008
0.1474668442777032,-9.666206305804426,-13.171148116047846
0.14796734477820372,-9.030391022003265,-13.344893877753135
0.1484678452787042,-7.187201344196811,-13.406138099644462
0.1489683457792047,-4.935481553284809,-11.818367195421215
0.14946884627970522,-2.1115281446207077,-6.73793911052504
0.1499693467802057,0.9169227815321723,-1.5660921892549315
0.15046984728070623,3.8318032974657608,3.2720808370321475
0.15097034778120672,6.501075112603844,7.858819813514588
0.1514708482817072,8.380820491484076,11.778202944442944
0.15197134878220772,9.549456229892595,13.378983667672395
0.1524718492827082,9.640939105452242,13.272917999884532
0.1529723497832087,8.94355014409829,13.208274020664023
0.15347285028370922,7.334898675420394,13.273539592112101
0.1539733507842097,4.9407089072264085,11.79321795166586
0.15447385128471022,2.1907988728916266,6.621350465214597
0.1549743517852107,-1.0379391555465665,1.519748992838439
0.1554748522857112,-3.9056765465999495,-3.359092794245633
0.15597535278621172,-6.454554997993423,-8.255884873030237
0.1564758532867122,-8.50945002741294,-12.033790468725362
0.15697635378721272,-9.542237134108484,-13.358944585246096
0.1574768542877132,-9.55726785484735,-13.302653484035218
0.1579773547882137,-8.90331206625156,-13.099503693180232
0.15847785528871422,-7.232971351576706,-13.306384979468456
0.1589783557892147,-4.922403822993618,-11.585168623787599
0.1594788562897152,-2.0414608955608156,-6.453712914673965
0.15997935679021572,0.9056104453959916,-1.7706714412916613
0.1604798572907162,3.874447221922918,3.514513529768289
0.16098035779121672,6.483186014742545,8.245704807692855
0.1614808582917172,8.543386433313016,12.011366453925941
0.1619813587922177,9.49840802383343,13.335522893200181
0.16248185929271822,9.683924880378695,13.330576221497049
0.1629823597932187,8.774764615268566,13.224537307252202
0.16348286029371922,7.281860851897568,13.397473903953685
0.1639833607942197,4.815630051730187,11.747803525760705
0.1644838612947202,1.9701172362726873,6.610758184911829
0.16498436179522072,-0.989470164486368,1.6976411293048772
0.1654848622957212,-3.81840461287107,-3.6186529774813985
0.16598536279622172,-6.366611152834373,-8.262302817949454
0.16648586329672221,-8.485675401393868,-11.98404205270852
0.1669863637972227,-9.57546024411767,-13.301456320646826
0.16748686429772322,-9.665960353826108,-13.203555671976066
0.1679873647982237,-8.880677449084295,-13.535416276906545
0.1684878652987242,-7.375165263629809,-13.373567797299971
0.16898836579922472,-4.860646073458612,-11.45002209015767
