Time,Vin,Vout
-0.0006346681893241637,-0.0005222782171644801,0.00784715792594517
-0.00013416768882366372,0.16234036235850696,0.11062567192127809
0.00036633281167683623,0.29587625050122296,0.26663738166466583
0.0008668333121773363,0.41913410731602596,0.33003351024110555
0.0013673338126778361,0.4898005414566626,0.955987295029822
0.0018678343131783362,0.5056092683587652,4.035110009817109
0.0023683348136788363,0.48645629535300156,11.83835973735711
0.0028688353141793363,0.4130521995128538,12.919901453432624
0.003369335814679836,0.29241822294511205,12.76780542295049
0.0038698363151803365,0.15798425675957406,12.962644785566562
0.004370336815680836,0.0012238434412101392,12.862321326458037
0.004870837316181337,-0.15620530120817092,12.838266216052038
0.005371337816681836,-0.2985152297211681,12.993935929401628
0.005871838317182337,-0.4102883380214568,12.790429330912835
0.006372338817682836,-0.49198704943398197,12.710306670626917
0.006872839318183336,-0.5138842601245328,12.881958355497838
0.007373339818683836,-0.4907504663767411,12.842428820629557
0.007873840319184337,-0.41001637222736037,13.010495015454012
0.008374340819684837,-0.29960850842514897,13.139922884959002
0.008874841320185336,-0.16026284124806714,12.720586855708794
0.009375341820685836,0.009995562074517515,12.917601831888986
0.009875842321186335,0.15900813932224975,13.16978002651201
0.010376342821686837,0.30452543766200796,12.821591504467836
0.010876843322187336,0.4127229527323164,12.844004437036537
0.011377343822687836,0.4861490126444545,12.944681590892408
0.011877844323188336,0.5166942124664294,12.813885056134058
0.012378344823688837,0.4853747032932918,13.078887067666038
0.012878845324189337,0.4098929293060045,12.750247172949836
0.013379345824689836,0.29328983895619226,12.760492247714456
0.013879846325190336,0.15334626535288867,12.929389764884089
0.014380346825690836,-0.005481541993451338,12.733614439556613
0.014880847326191337,-0.16408914894959103,13.025529897602203
0.015381347826691835,-0.30410475934359665,12.969553951153678
0.01588184832719234,-0.411661605696416,13.147387765396845
0.016382348827692836,-0.4915385003495929,12.793945086553238
0.01688284932819334,-0.5097246248289664,13.215542281234205
0.017383349828693835,-0.4834666520163658,13.046511888759317
0.017883850329194338,-0.4103006162164315,12.97289274119235
0.018384350829694834,-0.29856119547781257,13.04880045881162
0.018884851330195337,-0.15155999629633196,12.825871640587359
0.019385351830695834,0.007274921168026816,12.919332908481156
0.019885852331196337,0.16529396306408342,13.018825732437177
0.020386352831696833,0.30548652432757145,13.07802565924105
0.020886853332197336,0.4166600700893391,13.124896266596538
0.02138735383269784,0.49168865581096693,12.998251965010452
0.021887854333198335,0.511498685664837,13.124500990000971
0.02238835483369884,0.4865504365989794,12.518121548510248
0.022888855334199334,0.4082482655290979,12.841624750348291
0.023389355834699838,0.2935623310718692,12.585763038791773
0.023889856335200334,0.15009901242323237,12.833438059559354
0.024390356835700837,-0.002168450043556482,12.697097532799491
0.024890857336201333,-0.1617273915877066,12.765585115131477
0.025391357836701836,-0.30649724905928477,12.950736638440892
0.02589185833720234,-0.4174658860241796,13.02648847006331
0.026392358837702835,-0.4921930289411826,12.804553659469901
0.02689285933820334,-0.5075136322686561,12.84928934139444
0.027393359838703835,-0.48682246789068867,13.142501556922944
0.027893860339204338,-0.40546635895477817,12.901169019496788
0.028394360839704834,-0.2932101232283477,13.119175115791105
0.028894861340205337,-0.14896734469028014,12.809095206857789
0.029395361840705833,0.005799558223642175,12.924380919011945
0.029895862341206336,0.16615837890030943,12.912426723395031
0.03039636284170684,0.3120925034817772,12.804189997276127
0.030896863342207335,0.4156254534010291,12.813668789696715
0.03139736384270783,0.4910841045488306,12.83292562605169
0.031897864343208335,0.5103502437819745,12.948787863636927
0.03239836484370884,0.48172517980040347,12.972294925055236
0.032898865344209334,0.406450129485302,13.111762469540448
0.03339936584470984,0.288526423640951,12.87854020264574
0.03389986634521033,0.14601732805929382,13.016371614612842
0.034400366845710836,-0.011155462009031851,12.764384750429668
0.03490086734621133,-0.16622708711850603,12.93672442132245
0.035401367846711836,-0.31044459011416825,13.006026200998017
0.03590186834721233,-0.421286231570826,12.942594991035714
0.036402368847712835,-0.49055881504692317,12.960403937158913
0.03690286934821334,-0.5081050720893324,12.878543159997323
0.037403369848713834,-0.485597410593551,12.83749241877379
0.03790387034921434,-0.40779149806811504,13.1072463140781
0.03840437084971483,-0.28260189488364085,12.942896777065375
0.038904871350215336,-0.1496096535352514,12.960884647654497
0.03940537185071583,0.011340908051676108,12.69209069692253
0.039905872351216336,0.17155539140529869,12.975187252865034
0.04040637285171683,0.3074079685101424,13.006517395651143
0.040906873352217335,0.42196751414216854,12.957904705329367
0.04140737385271783,0.48573284457360677,12.930509736562673
0.041907874353218334,0.510917829542109,12.778190401704975
0.04240837485371884,0.48119930532917166,12.992289667551745
0.042908875354219334,0.4077119219188659,12.956284642860236
0.04340937585471984,0.2851067347802094,12.929132719751152
0.04390987635522033,0.1461919954289161,12.935794484581447
0.044410376855720836,-0.01528078521866949,12.944146196954101
0.04491087735622133,-0.1702162726206574,12.99005094894351
0.045411377856721835,-0.31923349141995083,12.936704381467056
0.04591187835722233,-0.4240430699035911,13.084205109370686
0.046412378857722834,-0.49113620013881715,12.823380292947629
0.04691287935822334,-0.5144845988782712,12.93674507427628
0.047413379858723834,-0.4790218190709345,13.059045217999753
0.04791388035922434,-0.40914251850242916,12.898340343995931
0.04841438085972483,-0.28229470945760626,12.788552748529517
0.048914881360225336,-0.14436438566595916,12.902184965641975
0.04941538186072583,0.018404707835166328,13.045507814199683
0.049915882361226335,0.17446112351558574,12.706625456402318
0.05041638286172683,0.31606906116733197,12.850501363519546
0.050916883362227335,0.4214224021504601,12.964176403563856
0.05141738386272784,0.4850973186684668,12.861879249204314
0.051917884363228334,0.5125395675524015,12.836767044178602
0.05241838486372884,0.47899940884206604,12.85665024367619
0.05291888536422933,0.4127157050397651,12.820508973926628
0.053419385864729836,0.2848746784048635,12.630913637767843
0.05391988636523033,0.14098256854382568,12.708749108487622
0.054420386865730835,-0.020318258003160304,12.978143965415954
0.05492088736623133,-0.17469979638337602,12.791015621306032
0.055421387866731835,-0.3167752273402424,12.796437208634568
0.05592188836723234,-0.4250918552852869,13.03665606747342
0.056422388867732834,-0.4977205057218578,12.975420255953004
0.05692288936823334,-0.5045505406689405,12.911645305864928
0.05742338986873383,-0.48546398958034126,13.057826594763677
0.057923890369234336,-0.40144133390509307,13.056938250159968
0.05842439086973483,-0.286334092910128,12.653023483518199
0.058924891370235336,-0.13603313252261334,13.016292677233082
0.05942539187073583,0.01292106522722191,12.908813030095514
0.059925892371236335,0.17215312486590806,12.62414828964873
0.06042639287173684,0.31187347861082343,12.715501563910557
0.060926893372237334,0.4217101921474426,12.865447391126013
0.06142739387273784,0.48683230324969795,12.996820212336308
0.06192789437323833,0.5087503759442425,12.782688172557583
0.062428394873738836,0.48257268547510807,12.937146643552092
0.06292889537423935,0.4028406304190354,13.10946704327969
0.06342939587473984,0.28517015493786435,13.137092063997802
0.06392989637524034,0.14142609747395882,12.911905419133106
0.06443039687574084,-0.018849625690069042,12.934840902666364
0.06493089737624134,-0.179340998662247,12.821342128544208
0.06543139787674185,-0.3185145794670436,13.002780056388502
0.06593189837724234,-0.42684936628371967,12.986525794139887
0.06643239887774284,-0.49573107009823264,12.933875119991836
0.06693289937824334,-0.508240042390368,13.18359173348646
0.06743339987874385,-0.4790396894586496,12.908598885848646
0.06793390037924434,-0.3988985545847214,12.970825463082608
0.06843440087974484,-0.28245473774761143,12.727828380156012
0.06893490138024534,-0.13961085101233925,12.958467159296013
0.06943540188074585,0.02133900473206911,12.971410186840568
0.06993590238124635,0.18143560143568283,12.926235186496253
0.07043640288174684,0.3192542775987748,12.96863826229268
0.07093690338224734,0.4250919336667255,12.915436471742014
0.07143740388274784,0.49305688225009636,12.8647096445993
0.07193790438324835,0.5131073499100605,12.854926147921832
0.07243840488374884,0.4773915278070783,13.021398675205496
0.07293890538424934,0.4021202836965508,13.12864192448966
0.07343940588474984,0.278278501502631,12.844809435484184
0.07393990638525035,0.13679673643356322,12.969925359118031
0.07444040688575085,-0.025457988680353327,12.849153670522934
0.07494090738625134,-0.1861892682855645,13.119382681029116
0.07544140788675184,-0.3130007766039878,12.96655819195026
0.07594190838725234,-0.4341148182720652,13.037293516745212
0.07644240888775285,-0.4931400263528185,13.053136265817649
0.07694290938825334,-0.5109193438277806,12.928141110412138
0.07744340988875384,-0.4753871946059099,12.993151580968695
0.07794391038925434,-0.3987130503576026,12.827981291276426
0.07844441088975485,-0.2819985621683453,12.970923863760841
0.07894491139025535,-0.13569708258537758,12.714175874040967
0.07944541189075584,0.022460256238100298,12.949879374659522
0.07994591239125634,0.18388859418976955,12.61674215561998
0.08044641289175684,0.316888007880499,12.944953757523734
0.08094691339225735,0.43489241338197393,12.941279814120453
0.08144741389275784,0.49400218368222204,12.70706793732559
0.08194791439325834,0.5148049690814803,12.966883719552014
0.08244841489375884,0.4801087383139856,12.688314152146749
0.08294891539425935,0.3991666481760275,12.633671709690795
0.08344941589475983,0.27670243890475715,12.70725316909239
0.08394991639526034,0.13676536244068746,12.995158868161004
0.08445041689576084,-0.02557413722790906,12.827308016103245
0.08495091739626134,-0.1802911599687393,12.802418347718085
0.08545141789676185,-0.3244429113713652,12.836112246270417
0.08595191839726234,-0.43142513030400936,13.031166692097653
0.08645241889776284,-0.4933601462178096,12.791776217896446
0.08695291939826334,-0.5113129041161354,12.752045952318673
0.08745341989876385,-0.4730568314467505,12.906415277759871
0.08795392039926433,-0.39662734252581644,12.823087560660372
0.08845442089976494,-0.2730032194373794,13.009837578344545
0.08895492140026534,-0.1287145612367207,12.978120599622535
0.08945542190076584,0.02989129071025264,12.866287931335654
0.08995592240126635,0.18322157770196734,13.109676733412241
0.09045642290176684,0.32468507383999495,12.66904686153292
0.09095692340226744,0.4341036384345408,12.874922988209233
0.09145742390276794,0.5016079144677368,13.001448131766203
0.09195792440326835,0.5082533231866188,13.065384664587599
0.09245842490376883,0.46825112991857193,12.8110484113711
0.09295892540426944,0.40209552759032174,13.068793374006743
0.09345942590476994,0.27186734782526806,12.759679726240737
0.09395992640527044,0.13340744759953949,13.012307325848564
0.09446042690577085,-0.03554933750266648,13.072988524329677
0.09496092740627134,-0.1806535769719113,13.115735342081107
0.09546142790677194,-0.32530079863733385,12.595580467331727
0.09596192840727244,-0.4337159196405855,12.943706842923369
0.09646242890777294,-0.5004845416423359,12.951816153065746
0.09696292940827334,-0.509369230761399,13.05637022410926
0.09746342990877394,-0.47789182177386713,12.922854229725402
0.09796393040927444,-0.39501215769875075,12.77601457750454
0.09846443090977494,-0.27284340721658534,13.022855537700966
0.09896493141027544,-0.1254296759084837,12.88029320495919
0.09946543191077584,0.029745912117432324,13.080549220074587
0.09996593241127644,0.1904841403400177,13.04967057480623
0.10046643291177694,0.32786912305238236,12.900603920726567
0.10096693341227744,0.4299040127474123,13.114335808671237
0.10146743391277795,0.4888045534919648,12.72052803509767
0.10196793441327844,0.516301173686362,12.850958994903024
0.10246843491377894,0.4775421331104691,13.146458214082626
0.10296893541427944,0.39504495991733024,12.80700555852289
0.10346943591477994,0.2750708924740282,12.736476082933603
0.10396993641528045,0.12866254640858785,13.071861297369521
0.10447043691578094,-0.03271494347339686,12.751145185361253
0.10497093741628144,-0.1902075921386002,12.876636496411214
0.10547143791678194,-0.32558914716765036,12.796083368369775
0.10597193841728245,-0.4372978284372569,13.057859624905708
0.10647243891778294,-0.4868056271478503,12.871644108378238
0.10697293941828344,-0.5080545284715376,12.772878157970505
0.10747343991878394,-0.4762067691226102,12.925799325154028
0.10797394041928444,-0.3920343484786129,13.015561823932005
0.10847444091978495,-0.2742209832972343,13.109300503992214
0.10897494142028544,-0.127616055360139,12.945035744732115
0.10947544192078594,0.03458363732710077,12.953702833482401
0.10997594242128644,0.190767095460676,12.836979565064853
0.11047644292178695,0.3291125955449091,13.156195308951252
0.11097694342228744,0.44037482535947486,12.722382429632939
0.11147744392278794,0.4980840115456767,13.040770468041904
0.11197794442328844,0.5138615453906988,12.913823490456656
0.11247844492378894,0.468786582622595,12.99595872593996
0.11297894542428945,0.3873053571606374,12.861612630812877
0.11347944592478994,0.27351189369686224,12.973267097965492
0.11397994642529044,0.11860205248467093,12.880275045562312
0.11448044692579094,-0.038159759348415374,12.982015070708757
0.11498094742629145,-0.19438723495602445,12.745288866793931
0.11548144792679194,-0.32642143538174345,12.925575135810796
0.11598194842729244,-0.4318333239614665,12.680881384188261
0.11648244892779294,-0.4908162074471401,12.977116360903894
0.11698294942829345,-0.5110619751969406,12.836288891252053
0.11748344992879395,-0.4759018287679493,12.898859899112848
0.11798395042929444,-0.3906878360092074,12.919384504064126
0.11848445092979494,-0.2759620341461999,12.810516125609512
0.11898495143029544,-0.11891562420112806,12.98722512484395
0.11948545193079595,0.035569574798960224,12.887660890592619
0.11998595243129644,0.1907541348569976,12.792382880633362
0.12048645293179694,0.33231943056525576,12.899582375633432
0.12098695343229744,0.4371698409041781,12.96595477237535
0.12148745393279795,0.4982839731811317,12.744101336751367
0.12198795443329845,0.5076585924805919,12.788836557459438
0.12248845493379894,0.4709001884395357,12.85804527851771
0.12298895543429944,0.40065939466785455,12.893748489403281
0.12348945593479994,0.26866143054387404,13.069071546353907
0.12398995643530045,0.1293110014214392,12.962288487162542
0.12449045693580095,-0.03916162520198852,12.959713685523475
0.12499095743630144,-0.19955107094076366,12.813289445287126
0.12549145793680191,-0.33140952480896335,13.044989311440201
0.12599195843730243,-0.4339353174922708,12.95895734719691
0.12649245893780292,-0.49646273532901286,12.90153359079194
0.12699295943830344,-0.5146054384779463,12.885914171156767
0.12749345993880393,-0.46978334506317104,12.971547960955748
0.12799396043930442,-0.39184439677248134,12.817957152843029
0.12849446093980493,-0.2633569941212291,13.008508758695323
0.12899496144030542,-0.11333229182956223,12.734538435122046
0.12949546194080594,0.04097714669848376,12.91547289195476
0.12999596244130643,0.1976980532328645,13.015498559206556
0.13049646294180692,0.33600291018152983,12.923468752071745
0.13099696344230743,0.4442897613876853,12.818223947083721
0.13149746394280792,0.4983361462919954,12.64142907988119
0.13199796444330844,0.5054645358328068,12.832869565895935
0.13249846494380893,0.47620586888791655,12.92830558438449
0.13299896544430942,0.38773883771779977,12.929800865129131
0.13349946594480994,0.2651081803961688,12.914257457442899
0.13399996644531043,0.11603682123480377,12.933114165035622
0.13450046694581091,-0.04609536988305738,12.854165557931204
0.13500096744631143,-0.20390182508280782,12.873412581284539
0.13550146794681192,-0.33685537246803965,12.852030999184896
0.13600196844731244,-0.4433292274504034,12.956130958518052
0.13650246894781293,-0.4919167145562141,12.988918189321803
0.13700296944831342,-0.5085312631805693,12.95372595111919
0.13750346994881393,-0.4713881854558671,13.059121933856247
0.13800397044931442,-0.3855112211809227,12.780989900755726
0.13850447094981494,-0.26241356356633155,12.787026268519458
0.13900497145031543,-0.11361754862947956,13.115016694528222
0.13950547195081592,0.038279040931825555,12.947110345995972
0.14000597245131643,0.20855321252031436,12.867060148156813
0.14050647295181692,0.33153663959546475,12.689310180054546
0.14100697345231744,0.43422304531733064,12.961154916895973
0.14150747395281793,0.4975631951408506,12.95391472659021
0.14200797445331842,0.5157699128524319,12.985631912537702
0.14250847495381894,0.4633001676479587,13.17214809380788
0.14300897545431943,0.3847590294057328,12.952855648194184
0.14350947595481992,0.25953866574660767,12.866135722135246
0.14400997645532043,0.11884885781561223,13.097333236289868
0.14451047695582092,-0.04810182419863955,13.08426634916163
0.14501097745632144,-0.206698786247278,12.83685526866743
0.14551147795682193,-0.3416119984512722,12.756605981725293
0.14601197845732242,-0.4432495088583693,12.7881971321816
0.14651247895782293,-0.49757259152874206,12.858589535236392
0.14701297945832342,-0.5092744359895163,12.912565176692924
0.14751347995882394,-0.4670829457428187,12.83626265018827
0.14801398045932443,-0.38299117327286875,12.846716167671596
0.14851448095982492,-0.2571142529567683,12.87608899893829
0.14901498146032544,-0.11057171344720335,13.003983477750417
0.14951548196082592,0.05225140346449038,12.9575798050062
0.15001598246132644,0.2005926102315728,12.873687108326486
0.15051648296182693,0.3459616290207543,13.225206697672345
0.15101698346232742,0.44358668112067867,12.815905078106685
0.15151748396282794,0.503998354652441,12.968487992062622
0.15201798446332843,0.5133342620139784,13.057886013203728
0.15251848496382892,0.4677169238878391,12.895216650262704
0.15301898546432943,0.3828655980095818,12.984239242100072
0.15351948596482992,0.25664316978565815,12.902906266413247
0.15401998646533044,0.11145126870594438,12.936670469704083
0.15452048696583093,-0.05118726537374047,12.805975653317926
0.15502098746633142,-0.20958052346239717,12.668573236718574
0.15552148796683193,-0.3413154820773682,12.85642013018116
0.15602198846733242,-0.44962944530323945,13.038672496253028
0.15652248896783294,-0.5000827942495893,12.831538331676628
0.15702298946833343,-0.5166387334531934,12.93999949045499
0.15752348996883392,-0.46409258814338933,12.901872324724915
0.15802399046933444,-0.38912782377644983,13.059559563147506
0.15852449096983492,-0.25545026053739595,12.786332471595724
0.15902499147033541,-0.1049701916441892,12.967752833480846
0.15952549197083593,0.05072495002727456,12.794220676129928
0.16002599247133642,0.20434678678720009,12.86827249807416
0.16052649297183694,0.3412867283862542,12.79461313447605
0.16102699347233743,0.44234845249137306,13.068241093052304
0.16152749397283792,0.4923934774970348,12.901088074622102
0.16202799447333843,0.5119325035895036,12.95058152507543
0.16252849497383892,0.46496878345498655,13.024663946983592
0.16302899547433944,0.37938305185151844,12.763259967544789
0.16352949597483993,0.26293114387071437,12.944333002803967
0.16402999647534042,0.10359853188803107,12.970653134358162
0.16453049697584093,-0.05347880944657434,12.995089417218855
0.16503099747634142,-0.2123761318355838,12.919085927927911
