Time,Vin,Vout
0.0006555010919707966,0.0036956397042398775,-0.10472571881667557
0.0007556011920708966,3.410339233884156,0.17940559981947382
0.0008557012921709965,6.119148062028974,0.8852767020762553
0.0009558013922710966,8.381182894441025,2.631809910107528
0.0010559014923711965,10.01407774490914,5.217636400906872
0.0011560015924712967,10.504444256478168,7.7542480671062775
0.0012561016925713966,9.837914022276449,10.380142808436345
0.0013562017926714966,8.570658161072021,12.572225484493067
0.0014563018927715966,6.21070662703057,13.285781587865197
0.0015564019928716965,3.2702347718737848,13.28699930531307
0.0016565020929717965,-0.006697973275292734,12.3896150048673
0.0017566021930718967,-3.2145898825527546,9.783052064611608
0.0018567022931719967,-6.30947813233633,6.362571599267554
0.001956802393272097,-8.533697248144549,2.200401639217507
0.0020569024933721966,-10.012064596045828,-2.233892962021059
0.0021570025934722964,-10.435643629696152,-6.480874888414746
0.0022571026935723965,-9.94104267851147,-9.992242739629386
0.0023572027936724967,-8.42149148916055,-12.700392682088028
0.0024573028937725965,-6.063161341149691,-13.323975171852439
0.0025574029938726967,-3.175021322702703,-13.616201938770285
0.0026575030939727964,-0.11098187036876705,-12.604118890611266
0.0027576031940728966,3.2539287663651426,-10.185732215491507
0.002857703294172997,6.271554395425645,-6.57967598580728
0.0029578033942730965,8.530681948023895,-2.358361159041791
0.0030579034943731967,10.034486948554749,2.0565587637632916
0.0031580035944732965,10.36382777929515,6.353449997253727
0.0032581036945733967,9.97876008840513,10.168159962801646
0.0033582037946734964,8.451072890048772,12.586237196864596
0.0034583038947735966,6.000826485496504,13.453945039875421
0.003558403994873697,3.1705523375271456,13.227304798197169
0.0036585040949737965,-0.04427704910266814,12.728834042166245
0.0037586041950738967,-3.311182345090832,10.237909952860106
0.0038587042951739965,-6.340460297359451,6.6795436922680915
0.003958804395274096,-8.525644549164547,2.477971676007481
0.004058904495374197,-10.0265536960981,-2.021073093877166
0.004159004595474297,-10.353979536031371,-6.286025608225607
0.004259104695574396,-9.916762271476584,-10.105053422063591
0.004359204795674497,-8.499657820981932,-12.668530885917132
0.004459304895774597,-6.021636647295185,-13.523650608851934
0.0045594049958746965,-3.2051054433190336,-13.42191631234637
0.004659505095974796,0.23558434860754018,-12.725534416497217
0.004759605196074897,3.313645759130672,-10.189539893640339
0.004859705296174997,6.3362820429422,-6.53708335685975
0.004959805396275096,8.535153747631504,-2.377938771097639
0.005059905496375197,9.980967551973885,2.0342804173472304
0.005160005596475297,10.505796278085967,6.525568886040179
0.0052601056965753965,9.834894872920719,10.05023753207804
0.005360205796675496,8.234414788063166,12.773702301121906
0.005460305896775597,6.014614517124776,13.429268129881887
0.005560405996875697,3.107234192649614,13.518516398143676
0.005660506096975796,-0.2637261326012315,12.838323325813256
0.005760606197075897,-3.3567681666110842,10.048620947980694
0.005860706297175997,-6.278520135139828,6.811347102439218
0.0059608063972760965,-8.514951991343688,2.4419824257680207
0.006060906497376196,-10.027671082471542,-2.095158241408804
0.006161006597476297,-10.45713863551128,-6.6071993981311605
0.006261106697576397,-9.96787000405354,-10.217904060252733
0.006361206797676496,-8.45768409626609,-12.83162065221684
0.006461306897776597,-5.9890430399293155,-13.403113674353584
0.006561406997876697,-3.048639066019568,-13.591402294641176
0.0066615070979767965,0.23782817436676074,-12.676948325087828
0.006761607198076896,3.5442555819916595,-9.999891483171892
0.006861707298176997,6.369102135847969,-6.592484035995316
0.006961807398277097,8.670293870069237,-2.310851341066333
0.007061907498377196,9.898930603031697,2.391284514874015
0.007162007598477297,10.362415873064528,6.4871174502842965
0.007262107698577397,9.832569967007482,10.128219051437263
0.0073622077986774965,8.277784075689722,12.891478906861568
0.007462307898777596,5.956522280899866,13.35461080431223
0.007562407998877697,3.0044975193432806,13.389624879586451
0.007662508098977797,-0.2368065573590962,12.532525035840669
0.007762608199077896,-3.3954255010672205,10.20746247570628
0.007862708299177998,-6.38108167658152,6.390506901294013
0.007962808399278097,-8.625410069389043,2.194772794052735
0.008062908499378196,-10.047747057557855,-2.3599615368005535
0.008163008599478296,-10.507702121289642,-6.6866188716542885
0.008263108699578397,-9.893813392575636,-10.17060438545704
0.008363208799678497,-8.36597129621457,-12.782800195828326
0.008463308899778596,-5.924973675384847,-13.274496250102036
0.008563408999878697,-2.9451996958643893,-13.362847169003414
0.008663509099978796,0.18766393143665483,-12.363397050564734
0.008763609200078896,3.503631729342102,-10.014267900259584
0.008863709300178997,6.33360439776015,-6.47655508178783
0.008963809400279096,8.511681795873093,-2.306209862692603
0.009063909500379197,10.015245436956691,2.318828594100916
0.009164009600479297,10.441567282038514,6.51703925811568
0.009264109700579396,9.912246469868599,10.186785818441487
0.009364209800679497,8.176913480139373,12.910479303387659
0.009464309900779597,5.883669546832975,13.31144318964832
0.009564410000879696,3.015395301305256,13.466154807903838
0.009664510100979797,-0.2700431076742269,12.548298831034492
0.009764610201079896,-3.570348541379835,10.030584743770923
0.009864710301179996,-6.440031329704379,6.486186561539828
0.009964810401280097,-8.683590144266322,2.3148940505857176
0.010064910501380196,-10.082245638769816,-2.4488710534114935
0.010165010601480296,-10.472982470718856,-6.537145362535208
0.010265110701580397,-9.852161275848367,-10.251990404876198
0.010365210801680496,-8.3471273858081,-12.974996149960921
0.010465310901780597,-6.032041126729118,-13.465840492652545
0.010565411001880697,-2.8167781724985868,-13.348200213865624
0.010665511101980796,0.3920603343120586,-12.60466671559406
0.010765611202080897,3.4762873934399243,-9.880969257925175
0.010865711302180997,6.450726539205712,-6.2747182953844165
0.010965811402281096,8.494927079903642,-2.076507889933895
0.011065911502381197,10.070855618774727,2.165735461439207
0.011166011602481296,10.492650387552207,6.737210525078633
0.011266111702581396,9.849473584615057,10.288310665408545
0.011366211802681497,8.326604736718494,12.725853395543943
0.011466311902781596,5.786977674968577,13.408364294974483
0.011566412002881696,2.955971215145983,13.403092665959074
0.011666512102981797,-0.4001190198657343,12.470389249790863
0.011766612203081896,-3.452687008610655,9.993994911400293
0.011866712303181997,-6.501785173632588,6.282299768140269
0.011966812403282097,-8.580608795903741,1.9816418862605942
0.012066912503382196,-9.927216510954787,-2.397382953498793
0.012167012603482297,-10.50219328340275,-6.638282089088853
0.012267112703582397,-9.81981796396484,-10.293443483271936
0.012367212803682496,-8.251642071068913,-12.87804003102163
0.012467312903782597,-5.734984963022252,-13.414125057752326
0.012567413003882696,-2.9086310683128094,-13.502678075467053
0.012667513103982796,0.43166341585243956,-12.6694907350505
0.012767613204082897,3.642315122790016,-9.947114774822062
0.012867713304182996,6.584825276888394,-6.29471328616326
0.012967813404283096,8.685661583711969,-1.9799741168647316
0.013067913504383197,9.975757211811219,2.4538152628569234
0.013168013604483296,10.394366314110124,6.799548949593377
0.013268113704583397,9.747646984189805,10.248518518088082
0.013368213804683497,8.215021148489583,12.910618931105102
0.013468313904783596,5.795348306671104,13.552592374978538
0.013568414004883697,2.9264872542625238,13.35545570967838
0.013668514104983797,-0.3397964520495553,12.455932691530858
0.013768614205083896,-3.7564656418985853,9.864500759382503
0.013868714305183997,-6.629585166960342,6.410550686215499
0.013968814405284096,-8.805441231349421,1.9681212441576832
0.014068914505384196,-10.093263483966291,-2.604249174670387
0.014169014605484297,-10.573726981456232,-6.699804487070332
0.014269114705584396,-9.764875791065895,-10.349373890376375
0.014369214805684496,-8.088581932432096,-12.860426468141894
0.014469314905784597,-5.703587092207743,-13.491954022917838
0.014569415005884696,-2.928048389418259,-13.489126347544211
0.014669515105984797,0.45842378513794513,-12.462106635198126
0.014769615206084897,3.6910501084292777,-9.913324392951544
0.014869715306184996,6.596900432265909,-6.271603854147357
0.014969815406285097,8.733544286284998,-1.9819096005856627
0.015069915506385197,9.911897780663615,2.649109462891358
0.015170015606485296,10.406067859741757,6.786381703863647
0.015270115706585397,9.74067256115206,10.490774558402098
0.015370215806685496,8.174838695374826,12.914015878088899
0.015470315906785596,5.758091879168567,13.572936716338534
0.015570416006885697,2.6632293724834812,13.308182307930508
0.015670516106985798,-0.4593960165251696,12.346243083924174
0.015770616207085898,-3.786538559887376,9.756427038393852
0.015870716307186,-6.591043196367718,6.151114937192012
0.015970816407286096,-8.787225318971121,1.8986768070411661
0.016070916507386197,-10.14475616149871,-2.69032766268701
0.016171016607486297,-10.468783933255395,-6.89927803151282
0.016271116707586394,-9.826765677246708,-10.318325828470435
0.016371216807686495,-8.320302792358737,-12.685282202162568
0.016471316907786596,-5.652473082059391,-13.404489318042538
0.016571417007886696,-2.8225845394120466,-13.36841850869418
0.016671517107986797,0.5319017553982582,-12.475135817297224
0.016771617208086897,3.8153993698182336,-9.744287253015855
0.016871717308186998,6.566006454969252,-6.035306927227436
0.0169718174082871,8.59763929676418,-1.8730080965097196
0.0170719175083872,10.338369000397886,2.57756707210447
0.0171720176084873,10.350069662115919,6.738431596403949
0.017272117708587394,9.77017856957645,10.43762069467808
0.017372217808687494,8.087830241409456,12.903109684543786
0.017472317908787595,5.715861029748396,13.249570129385793
0.017572418008887696,2.6801642512097867,13.322056131782965
0.017672518108987796,-0.4493938344482064,12.244401839138623
0.017772618209087897,-3.776660507886058,9.778094505931968
0.017872718309187997,-6.673600732782769,6.000759526970368
0.017972818409288098,-8.74553724560462,1.7543119779166834
0.0180729185093882,-10.064409631993016,-2.663881210440435
0.0181730186094883,-10.449470802170683,-7.066194822693425
0.0182731187095884,-9.697415668698229,-10.457241777821698
0.018373218809688494,-8.23355284556936,-12.93171762883792
0.018473318909788594,-5.6464163791998,-13.490408261111657
0.018573419009888695,-2.6317303394499434,-13.492341664291288
0.018673519109988795,0.5632283074657737,-12.19047140696417
0.018773619210088896,3.750664621047535,-9.686585165131428
0.018873719310188997,6.639455913334812,-6.101563791294758
0.018973819410289097,8.710487557203065,-1.8020221465506538
0.019073919510389198,10.004789370298514,2.691329438345943
0.0191740196104893,10.490112674930543,6.9258785458478105
0.0192741197105894,9.685716558664454,10.54408769883961
0.0193742198106895,8.101994841837369,13.006591153448323
0.019474319910789593,5.514873508607731,13.459305429389092
0.019574420010889694,2.6898821744552714,13.54100459926067
0.019674520110989795,-0.7230216395719959,12.40554599625968
0.019774620211089895,-3.7997890672667567,9.687560129916587
0.019874720311189996,-6.691455233652732,5.918368831097518
0.019974820411290097,-8.802405491304041,1.7121417785824637
0.020074920511390197,-10.14431925854961,-2.872253597459105
0.020175020611490298,-10.470859653070148,-6.982694118089497
0.0202751207115904,-9.693500158626144,-10.460865459969412
0.0203752208116905,-8.112014100461401,-13.005614889987903
0.0204753209117906,-5.5557408830204436,-13.423720813027424
0.020575421011890693,-2.57865528717785,-13.460945746699293
0.020675521111990794,0.7753015056648404,-12.398609583989536
0.020775621212090895,3.8148417914638766,-9.711565390387896
0.020875721312190995,6.658296859536127,-5.910093968695402
0.020975821412291096,8.907045422230132,-1.6474181916397586
0.021075921512391196,10.163952058162284,2.8395954313471616
0.021176021612491297,10.442835252243254,7.031386625044205
0.021276121712591398,9.753914676743179,10.545562932554258
0.021376221812691498,7.858572395787992,12.859506271804753
0.0214763219127916,5.62389230606278,13.288698865055773
0.0215764220128917,2.5831421407754167,13.396575378455262
0.021676522112991793,-0.7763776063770372,12.283727001225234
0.021776622213091894,-3.888528489684493,9.684916673685237
0.021876722313191994,-6.582988144346753,5.881697598627928
0.021976822413292095,-8.839937556300756,1.6471601338388133
0.022076922513392196,-10.2220377015081,-2.93705610406639
0.022177022613492296,-10.333520087890205,-7.029397870284838
0.022277122713592397,-9.64627790346991,-10.488279411259256
0.022377222813692497,-7.958028071474124,-13.09680186721473
0.022477322913792598,-5.568895028821299,-13.461221718652443
0.0225774230138927,-2.558367397290468,-13.464479878152861
0.0226775231139928,0.7115304227178274,-12.409088621122303
0.0227776232140929,3.912164635247607,-9.598870905770234
0.022877723314192994,6.729935610787303,-6.168051265042811
0.022977823414293094,8.961082470090268,-1.5762834458167834
0.023077923514393195,10.05221490832466,3.0090653413616333
0.023178023614493296,10.439843951680988,7.0995790149442435
0.023278123714593396,9.572839623818883,10.587160031648768
0.023378223814693497,7.98985044461088,12.812242466277889
0.023478323914793597,5.522287465761236,13.279520047621494
0.023578424014893698,2.6257456303994378,13.245418419805233
0.0236785241149938,-0.8396654087245784,12.319492406071692
0.0237786242150939,-3.890728891021537,9.692482089146868
0.023878724315194,-6.7744021044248885,5.820771360765124
0.023978824415294094,-8.98785882085096,1.5855553300201546
0.024078924515394194,-10.230087150808618,-2.8960540997605806
0.024179024615494295,-10.489293000211267,-7.285679915024165
0.024279124715594395,-9.703227201538787,-10.889573343166036
0.024379224815694496,-7.951518822830838,-13.07320020650979
0.024479324915794597,-5.596159008993054,-13.308728964866281
0.024579425015894697,-2.562394094084252,-13.367987858159491
0.024679525115994798,0.8102615965206065,-12.290152987682921
0.0247796252160949,3.971136641622659,-9.561497245192049
0.024879725316195,6.740390524422961,-5.898749772408154
0.0249798254162951,8.960988947716631,-1.3390755136953478
0.025079925516395193,10.062139711295545,2.951126787520992
0.025180025616495294,10.437128859949164,7.029687147502222
0.025280125716595395,9.670228456454256,10.657058059206415
0.025380225816695495,8.036124259669919,13.118597630803249
0.025480325916795596,5.499015217168775,13.365328272793292
0.025580426016895697,2.40016426654223,13.252402767744977
0.025680526116995797,-0.7678591040047659,12.241024220633621
0.025780626217095898,-3.8953051475476466,9.543413820224085
0.025880726317196,-6.841622446500409,5.90456604717578
0.0259808264172961,-8.955833827855894,1.5167917065072443
0.0260809265173962,-10.190630394073303,-3.1536863138924818
0.026181026617496293,-10.292149485810793,-7.2989742531997805
0.026281126717596394,-9.644431633540382,-10.623805623780358
0.026381226817696495,-7.9928021654820345,-13.130697139724127
0.026481326917796595,-5.517517518977642,-13.392815442831552
0.026581427017896696,-2.2900415536996137,-13.307413116119847
0.026681527117996796,0.9746123071636065,-12.208840078608079
0.026781627218096897,4.083708269252156,-9.365683208302553
0.026881727318196998,6.811070859452016,-5.672121818636842
0.026981827418297098,8.853033006759413,-1.31008668062777
0.0270819275183972,10.287462930858272,3.110180705588309
0.0271820276184973,10.335233729285333,7.298693808053299
0.027282127718597393,9.685176288004907,10.689849299685571
0.027382227818697494,7.965160079455176,13.379493673503537
0.027482327918797594,5.420374192934408,13.342539779680797
0.027582428018897695,2.399912067710199,13.378230944342002
0.027682528118997796,-0.9649949803896174,12.002141720412022
0.027782628219097896,-4.099657822332556,9.330152769800035
0.027882728319197997,-6.905733420949774,5.745532800699396
0.027982828419298097,-8.960596544913864,1.2881705435571058
0.028082928519398198,-10.198674143890981,-3.1814529603407706
0.0281830286194983,-10.594851785999825,-7.208432348049936
0.0282831287195984,-9.596829293905587,-10.882783414733654
0.0283832288196985,-8.013040216400753,-13.189753370710632
0.028483328919798594,-5.388464539272606,-13.333874567770808
0.028583429019898694,-2.3652042413812224,-13.375051823382694
0.028683529119998795,0.955201104839789,-12.130698440054786
0.028783629220098896,4.067510405267273,-9.470424683345337
0.028883729320198996,6.946844507465023,-5.688448719887697
0.028983829420299097,8.98502874773014,-1.422199762372033
0.029083929520399197,10.162679462125094,3.208271785864577
0.029184029620499298,10.350070218531094,7.267420099277643
0.0292841297205994,9.596490312972291,10.746839800974843
0.0293842298206995,7.866509858536037,13.232203099524877
0.0294843299207996,5.394579500839395,13.469160940114406
0.029584430020899694,2.2717621161557187,13.366741625527453
0.029684530120999794,-0.8688405259897806,12.247412612091285
0.029784630221099895,-4.196957141047964,9.417596192899593
0.029884730321199995,-6.7960204956419314,5.618926810573512
0.029984830421300096,-8.983667270282037,1.3923036321414963
0.030084930521400197,-10.204259071494997,-3.2406506242368525
0.030185030621500297,-10.33294742358445,-7.499323823061814
0.030285130721600398,-9.611107997234182,-10.980002465763715
0.0303852308217005,-7.755432871198307,-13.216744400803055
0.0304853309218006,-5.154790337300896,-13.276334557808717
0.0305854310219007,-2.2841190592034577,-13.302568379522208
0.030685531122000793,1.0420609362066002,-12.008072448290765
0.030785631222100894,4.132817167335348,-9.18973290144937
0.030885731322200995,7.047820547967092,-5.468693408811028
0.030985831422301095,8.933774523116583,-1.254285461979439
0.031085931522401196,10.265295522222889,3.119252271539642
0.031186031622501297,10.380339872142082,7.481254467926576
0.0312861317226014,9.675683378735405,10.920544201413382
0.0313862318227015,7.862122412920046,13.237348128182257
0.0314863319228016,5.228576576568338,13.454057360600157
0.0315864320229017,2.37364591700211,13.711575412299052
0.0316865321230018,-1.0247262592009352,12.176544831693887
0.03178663222310189,-4.299012169258797,9.353427962919943
0.031886732323201994,-6.9714743614392205,5.5034840755653995
0.031986832423302095,-9.066249613605544,1.0675560045572519
0.032086932523402195,-10.270241129069777,-3.254407046594301
0.032187032623502296,-10.492656034945247,-7.316742320989325
0.032287132723602396,-9.674593960855981,-10.90537094487508
0.0323872328237025,-7.75900474681279,-13.170234592089741
0.0324873329238026,-5.2908754473560595,-13.375181864238959
0.0325874330239027,-2.266931503529109,-13.200760257553538
0.03268753312400279,1.0329460528712073,-11.911141984219984
0.03278763322410289,4.246592518083643,-9.24949124288727
0.03288773332420299,7.014075560519388,-5.426412430238437
0.032987833424303094,8.996191719627195,-1.1700722004580009
0.033087933524403194,10.158956573490007,3.3066761349638885
0.033188033624503295,10.343021221618478,7.553022271489075
0.033288133724603396,9.636713963166292,10.933842195885731
0.033388233824703496,7.966894267435843,13.066458579718631
0.0334883339248036,5.285528601110119,13.39676126998635
0.0335884340249037,2.1980265785153867,13.434196777175293
0.0336885341250038,-1.0464434236447797,11.964068904214153
0.03378863422510389,-4.201711374541301,9.114448806069593
0.03388873432520399,-7.049649445085301,5.534349992359642
0.03398883442530409,-9.145474604280453,1.1046960573667237
0.034088934525404194,-10.142151474504606,-3.332389783741448
