Time,Vin,Vout
-0.0020754461750542193,0.0013484206712459598,0.0003152903049530187
-0.002065436165044209,0.016926758158528066,0.006277817795385817
-0.0020554261550341994,0.0314598434276164,0.0028979627432357204
-0.0020454161450241893,0.04762983232453975,0.006376455295841975
-0.002035406135014179,0.0665130337349722,-0.005907388259275139
-0.0020253961250041694,0.0820091065949448,0.0020884331285994447
-0.0020153861149941592,0.0893590870549508,0.0037615377354502126
-0.002005376104984149,0.11307901343184622,-0.0017585138075777815
-0.0019953660949741394,0.12544624127754986,-0.001220903130280421
-0.0019853560849641292,0.14165556615350589,0.011222723175727489
-0.001975346074954119,0.15549216424393658,0.010017366670373317
-0.0019653360649441193,0.1755342988846187,0.01089320768691297
-0.001955326054934119,0.1866561500647347,0.017144245576271616
-0.0019453160449241192,0.2070603287705315,0.024442274311004545
-0.0019353060349141193,0.2173185472511235,0.023727050856567223
-0.0019252960249041193,0.23563469225675163,0.030957001901731996
-0.0019152860148941193,0.24495803691538445,0.023283870831047406
-0.0019052760048841192,0.2675912047182761,0.03395041068388875
-0.0018952659948741192,0.2747166844537322,0.0394830329913657
-0.0018852559848641193,0.28309070395080416,0.04157236510170889
-0.0018752459748540193,0.307476035302083,0.039969761857922316
-0.0018652359648440192,0.31485759587137274,0.05935545346719065
-0.0018552259548340192,0.3281672499052036,0.0567007674707431
-0.0018452159448240192,0.34210003905480657,0.06934085628674692
-0.0018352059348140193,0.35222144128292954,0.07750220739442393
-0.0018251959248040193,0.3641439200761064,0.0870147998584436
-0.0018151859147940192,0.3754665151687486,0.10285587633771927
-0.0018051759047840192,0.38422090530228614,0.1031712216661851
-0.0017951658947740192,0.40319837249858115,0.12441478740957741
-0.0017851558847640193,0.40957498348553645,0.1268123901500523
-0.0017751458747539191,0.4170427246028554,0.13061398357192752
-0.0017651358647439194,0.4252938736221429,0.14088628989973168
-0.0017551258547339192,0.4327438516463592,0.15050506428526392
-0.0017451158447239193,0.4427340083939843,0.16452796958831073
-0.0017351058347139193,0.44916305854095273,0.17687271559841802
-0.0017250958247039191,0.46040419746153094,0.18044910223550067
-0.0017150858146939194,0.46285563961040266,0.19384833722065486
-0.0017050758046839192,0.4708361196141205,0.21045123253455586
-0.0016950657946739193,0.47855195390199534,0.2264168504287899
-0.0016850557846639193,0.4854824080622684,0.23662403417331648
-0.0016750457746538194,0.48632331456905614,0.24529214125043114
-0.0016650357646438192,0.4889136459903475,0.2610010491084231
-0.0016550257546338193,0.49295497419923373,0.27454972941635364
-0.0016450157446238193,0.4975361829063907,0.2859772641876354
-0.0016350057346138194,0.49865063677395155,0.30895719290464974
-0.0016249957246038194,0.5051317127539028,0.32007778434794254
-0.0016149857145938192,0.5094177288103516,0.3179028401801666
-0.0016049757045838193,0.5063986033061729,0.34666569162377336
-0.0015949656945738193,0.5102974248412405,0.3634502611249044
-0.0015849556845638191,0.5110257628502914,0.3724431224153943
-0.0015749456745537192,0.5106424335494949,0.3826584148456645
-0.0015649356645437193,0.5112511841551739,0.39203135122317373
-0.0015549256545337193,0.5108011504857435,0.41680368531084394
-0.0015449156445237191,0.5072814792094472,0.4264236847167159
-0.0015349056345137194,0.5087296514697774,0.433746789345759
-0.0015248956245037192,0.5017046124217389,0.4578971183826908
-0.0015148856144937192,0.5025501450205427,0.4666654312549554
-0.0015048756044837193,0.49584182353827977,0.4751345004479753
-0.0014948655944737191,0.49775417508093267,0.4896210369194794
-0.0014848555844637194,0.49269449560634365,0.506393213678699
-0.0014748455744536192,0.48930727575280303,0.5182564245043885
-0.0014648355644436193,0.4860757786350571,0.5192220374162767
-0.0014548255544336193,0.481461543041192,0.5441062298920168
-0.0014448155444236194,0.4754197519372216,0.5469654101154735
-0.0014348055344136192,0.46491583279900023,0.5563606667228151
-0.0014247955244036192,0.4573577017064357,0.5707760197263275
-0.0014147855143936193,0.45314696312021685,0.5826559968127959
-0.0014047755043836193,0.4360740312223981,0.5917005865307213
-0.0013947654943736194,0.43430277370857584,0.6004146725031151
-0.0013847554843636192,0.4249597521547329,0.6074567141725182
-0.0013747454743535193,0.4142075773524749,0.6217461385767924
-0.0013647354643435193,0.4050576839134644,0.6272042218819127
-0.0013547254543335194,0.3917140309578044,0.6287973130728323
-0.0013447154443235192,0.3858694609665369,0.6372656351908619
-0.0013347054343135192,0.3686662838973649,0.6489111607864947
-0.0013246954243035193,0.3596686809851411,0.6488906840980835
-0.0013146854142935193,0.35232322892232176,0.6534864004923165
-0.0013046754042835194,0.33672119872320294,0.6599359971928991
-0.0012946653942735192,0.325863699593708,0.6681052535281722
-0.0012846553842635192,0.3102871933400044,0.6727757422902738
-0.0012746453742534193,0.2991397707759082,0.6789334811184121
-0.0012646353642434193,0.28609225093104246,0.6680571134039366
-0.0012546253542334192,0.2705458762537969,0.6698757145789664
-0.0012446153442234194,0.26248158654209386,0.6741268641790966
-0.0012346053342134193,0.24295004584861413,0.6797093759977695
-0.0012245953242034193,0.23550455197221115,0.6708694659703212
-0.0012145853141934193,0.21626551846010705,0.6799899981417917
-0.0012045753041834192,0.2053036010861922,0.6777228908402512
-0.0011945652941734194,0.18522953667258,0.676364221325695
-0.0011845552841634193,0.1699553868542498,0.6789231378607085
-0.0011745452741533193,0.15331363729046527,0.6716468496269868
-0.0011645352641433192,0.1339448318743402,0.6685105132662601
-0.0011545252541333194,0.1255522755652274,0.6717048716687776
-0.0011445152441233192,0.10679365083482249,0.6612027761328624
-0.0011345052341133193,0.0950894718923172,0.6509921839329432
-0.0011244952241033193,0.07698758617538284,0.6477645659045888
-0.0011144852140933192,0.06313684029638215,0.6351808434658067
-0.0011044752040833194,0.04380755999953443,0.6425320405777851
-0.0010944651940733192,0.032992854723767624,0.6202248306511406
-0.0010844551840633193,0.015520115072216798,0.6153026537989471
-0.0010744451740532194,0.002777046506890225,0.6060851979396804
-0.0010644351640432192,-0.02039174824950736,0.597794659398025
-0.0010544251540332192,-0.03523257446842721,0.5850550635315923
-0.0010444151440232193,-0.04819469091719541,0.5805414360560786
-0.0010344051340132193,-0.06592930118316814,0.5606922320485701
-0.0010243951240032194,-0.08188560119994874,0.5444976339425339
-0.0010143851139932192,-0.09843829247025603,0.5368991876460342
-0.0010043751039832192,-0.11433269366906343,0.5178938456231374
-0.0009943650939732193,-0.12654575185518754,0.5059677755275083
-0.0009843550839632193,-0.14691513172564657,0.49494473912106585
-0.0009743450739531192,-0.16518128524093634,0.4793671703121362
-0.0009643350639431192,-0.17753932923363788,0.4690892828332511
-0.0009543250539331193,-0.1907965208985925,0.44690491410714106
-0.0009443150439231193,-0.20835162766095752,0.42215901294558367
-0.0009343050339131193,-0.22181452610447736,0.41733246169306315
-0.0009242950239031192,-0.23313548259604971,0.39892200256986504
-0.0009142850138931192,-0.2532179484010135,0.37969987145729234
-0.0009042750038831193,-0.265766233785747,0.35979818402379643
-0.0008942649938731193,-0.27336726490316926,0.34312800193880777
-0.0008842549838631193,-0.28917603221181176,0.3246049662927714
-0.0008742449738530192,-0.2999508897393338,0.3033301693662232
-0.0008642349638430193,-0.3152552856683026,0.28486092269811036
-0.0008542249538330193,-0.32625480088463343,0.25985804934151646
-0.0008442149438230193,-0.3435362932315545,0.24978191166975477
-0.0008342049338130194,-0.3533030136353409,0.22491991163861885
-0.0008241949238030192,-0.36705911793413426,0.2100069478194182
-0.0008141849137930192,-0.3757657433491054,0.18513255347365903
-0.0008041749037830193,-0.38865638854295403,0.18337942832199933
-0.0007941648937730193,-0.4009937677702158,0.14242010199521396
-0.0007841548837630194,-0.4020990777398907,0.12495667761527492
-0.0007741448737529192,-0.4136534836883155,0.10500450138446703
-0.0007641348637429193,-0.42736661442301344,0.08628947983977163
-0.0007541248537329193,-0.4345099188327308,0.05587451081891498
-0.0007441148437229194,-0.44334348538267326,0.03585629614725025
-0.0007341048337129192,-0.4430557005186938,0.03018009873235718
-0.0007240948237029192,-0.46072008450463564,-0.003479221445347561
-0.0007140848136929193,-0.46555537483837306,-0.029327729327811563
-0.0007040748036829193,-0.47149481058985965,-0.043070896188120614
-0.0006940647936729194,-0.47941212519095733,-0.07817626805450348
-0.0006840547836629192,-0.47971591849211814,-0.09703968055226972
-0.0006740447736528193,-0.49123593194950016,-0.11637953837751555
-0.0006640347636428193,-0.4930908123792785,-0.12770410137849492
-0.0006540247536328194,-0.5029747817176332,-0.15653345192047374
-0.0006440147436228192,-0.49860302671088347,-0.17919773954387913
-0.0006340047336128192,-0.5037278972306035,-0.2090699991906026
-0.0006239947236028193,-0.5071282443798906,-0.2197071226314762
-0.0006139847135928193,-0.5106941051884818,-0.2339529468445047
-0.0006039747035828194,-0.5135709047719368,-0.25473633273223456
-0.0005939646935728192,-0.5145631664610932,-0.2814242276701539
-0.0005839546835628192,-0.516201711927761,-0.29365518201551705
-0.0005739446735527193,-0.508005933122307,-0.31717780079025526
-0.0005639346635427193,-0.511839144872062,-0.33289233056301315
-0.0005539246535327192,-0.5171747652940665,-0.35576594382914506
-0.0005439146435227192,-0.5116223018782541,-0.37270394552863717
-0.0005339046335127193,-0.5096707623131372,-0.3959785336784442
-0.0005238946235027193,-0.5036541697412796,-0.408900732346455
-0.0005138846134927193,-0.5014420954010045,-0.4287469673664296
-0.0005038746034827192,-0.5041456798429607,-0.4489846754537541
-0.0004938645934727192,-0.4963557807782729,-0.46654073357937514
-0.00048385458346271925,-0.4841262366607157,-0.47980990805710355
-0.00047384457345261933,-0.48606066332918124,-0.4954649826577577
-0.0004638345634426194,-0.4845483787230599,-0.5102793273853051
-0.0004538245534326192,-0.46646200017161704,-0.5258554517324893
-0.00044381454342261924,-0.4727068641754898,-0.5491704181074698
-0.0004338045334126193,-0.47203135634739,-0.5573337222998359
-0.00042379452340261933,-0.4558227517474397,-0.567609916247163
-0.00041378451339261937,-0.447408683666444,-0.5788986807031206
-0.0004037745033826192,-0.4407329100577184,-0.5962991915241822
-0.00039376449337261924,-0.4360924059923218,-0.6059481107293901
-0.0003837544833626193,-0.41913269072472037,-0.6087220474701318
-0.00037374447335251936,-0.41701348377749775,-0.6306428588425487
-0.0003637344633425192,-0.40359756728642154,-0.6323546512812489
-0.00035372445333251923,-0.40022595814716705,-0.6504379332530702
-0.0003437144433225193,-0.3825785641331534,-0.6556278728571298
-0.0003337044333125193,-0.3757139120032834,-0.6605153696529427
-0.00032369442330251936,-0.3598119707370297,-0.673228695524977
-0.0003136844132925192,-0.3458257378640293,-0.676653816503915
-0.00030367440328251923,-0.3360970825834872,-0.6822666678273336
-0.00029366439327251927,-0.32409286219496886,-0.6941784693618773
-0.0002836543832625193,-0.31425018362351004,-0.693592232408473
-0.0002736443732524192,-0.30060930926334767,-0.69911729102933
-0.0002636343632424192,-0.28098766093921107,-0.7033784039812548
-0.00025362435323241926,-0.27460083843423094,-0.6984096072669849
-0.0002436143432224193,-0.2620561184059374,-0.6989732485267168
-0.00023360433321241935,-0.2391345474030479,-0.699273994458218
-0.00022359432320241917,-0.23046215635980766,-0.7072989458992087
-0.00021358431319241922,-0.21166496010414357,-0.7027580231011517
-0.00020357430318241926,-0.20354273420395835,-0.7059954570134785
-0.0001935642931724193,-0.18030081930898798,-0.6983858188846124
-0.00018355428316241935,-0.16528971226786573,-0.6998995122397712
-0.0001735442731523192,-0.15546171531412364,-0.6938465333232917
-0.00016353426314231925,-0.14113713064775849,-0.6936441901984427
-0.0001535242531323193,-0.12476826638087508,-0.6875702644106253
-0.00014351424312231934,-0.10597545581441452,-0.6816225346519165
-0.00013350423311231938,-0.09087240701582351,-0.6793260082991116
-0.0001234942231023192,-0.077931035363545,-0.6718360598947908
-0.00011348421309231947,-0.06254200156100102,-0.6752464667681575
-0.00010347420308231929,-0.0432198997744378,-0.6561733977831702
-9.346419307231912e-05,-0.02890478547752158,-0.6420823989288063
-8.345418306231938e-05,-0.019654995801421746,-0.6366021769176846
-7.344417305221946e-05,0.0019527723703296979,-0.6269787612318709
-6.343416304221928e-05,0.014670011038922298,-0.6221046589508928
-5.342415303221911e-05,0.03541340218603876,-0.600475340909293
-4.341414302221937e-05,0.051368429453388015,-0.5950137342719458
-3.3404133012219193e-05,0.07028310370390622,-0.5876728239046111
-2.3394123002219453e-05,0.08020711716981717,-0.570391826904564
-1.3384112992219279e-05,0.09893495342765726,-0.5544099592230962
-3.374102982219105e-06,0.11705158954457048,-0.5431226964305966
6.635907027780635e-06,0.12844566402143026,-0.5337850982019947
1.664591703778081e-05,0.1454604361673741,-0.5133811100663745
2.665592704788073e-05,0.15383033648928796,-0.4994045076656525
3.6665937057880904e-05,0.1777832222841852,-0.4879354912194454
4.6675947067880644e-05,0.18818586605608298,-0.46722300832097197
5.668595707788082e-05,0.20447410582622363,-0.44939215194160015
6.669596708788056e-05,0.21941552998024466,-0.4245183124750545
7.670597709788073e-05,0.24025533660660353,-0.41417597546286883
8.671598710788091e-05,0.2565160610617036,-0.39528251850340645
9.672599711788065e-05,0.2665395268622035,-0.3824957526070186
0.00010673600712788082,0.274304339737635,-0.35288875763684735
0.00011674601713788056,0.28276051057635243,-0.33869272436552084
0.00012675602714798092,0.3056270995977506,-0.31655883505129906
0.00013676603715798066,0.3147445731645988,-0.300477248663122
0.00014677604716798083,0.3271302275327633,-0.2802716895142802
0.00015678605717798057,0.34536634609958433,-0.26247184861624334
0.00016679606718798074,0.34974066195842535,-0.2335746658247644
0.00017680607719798092,0.36811035595341907,-0.22141702429606763
0.00018681608720798066,0.3766568582533368,-0.19799637815750312
0.00019682609721798083,0.38214722127871964,-0.17098224667532794
0.00020683610722798057,0.39446750973244915,-0.1545528620396522
0.00021684611723798075,0.41041571198185617,-0.1283266008507267
0.00022685612724808067,0.42068134865366524,-0.10922199150881097
0.00023686613725808084,0.4251649979213615,-0.08389854018602293
0.0002468761472680806,0.43979656431923686,-0.06448509112492859
0.00025688615727808076,0.4415111280458036,-0.03753220415623775
0.00026689616728808093,0.4553577301947643,-0.03013591635395766
0.00027690617729808067,0.4557249743063668,-0.010036480517518067
0.00028691618730808085,0.46662902260503303,0.01621028846755093
0.0002969261973180806,0.46658622397889615,0.03824983203784234
0.00030693620732808076,0.473444937027542,0.06213484344874992
0.00031694621733808093,0.47819207718249773,0.09165925630608192
0.00032695622734818085,0.4864193338738834,0.10497769957907856
0.0003369662373581806,0.5013597877811937,0.13323915539491446
0.00034697624736818077,0.4940161038997736,0.15462692875275785
0.00035698625737818094,0.504603020551642,0.17236972859138522
0.0003669962673881807,0.5053955143165937,0.20276404108046928
0.00037700627739818086,0.5067567245021277,0.21362287031515587
0.0003870162874081806,0.510933819778873,0.2386237962220652
0.00039702629741818077,0.5093429793782729,0.2598496602121837
0.0004070363074281805,0.5137577476923927,0.28194363093849517
0.0004170463174381807,0.506770360474985,0.30884503270683944
0.0004270563274482806,0.5155971153542488,0.32428487082206514
0.0004370663374582808,0.5180227944418909,0.3461576346950436
0.0004470763474682805,0.508346013025404,0.3612786064088626
0.0004570863574782807,0.5122510479727721,0.3815450110350013
0.00046709636748828087,0.5126175170570489,0.3969470844627477
0.0004771063774982806,0.5025467694370261,0.4227830386296508
0.0004871163875082808,0.5054248474884231,0.4293503667690384
0.0004971263975182805,0.49593810539654426,0.45267113501807926
0.0005071364075282807,0.49257873960241927,0.47319293137233176
0.0005171464175382809,0.49460427116207856,0.48299295641081175
0.0005271564275483808,0.484105166640691,0.49627979275284645
0.0005371664375583805,0.4832025648622156,0.5156511058809141
0.0005471764475683807,0.4767837591979229,0.5266888914567609
0.0005571864575783809,0.47209413059112787,0.547379337151284
0.0005671964675883806,0.462930910051651,0.555419730170752
0.0005772064775983808,0.45409585161051064,0.5718828595064616
0.0005872164876083805,0.45412809465260695,0.5836815512054832
0.0005972264976183807,0.4404107080973617,0.596961373979636
0.0006072365076283809,0.43394276429483436,0.6046517740065628
0.0006172465176383806,0.42049612542909304,0.6079901817496016
0.0006272565276484805,0.4131952748736011,0.6220662887206387
0.0006372665376584807,0.4057166396865054,0.6429045025167124
0.0006472765476684809,0.38768378591231867,0.6501529376386764
0.0006572865576784806,0.38444724555967796,0.6535119786771388
0.0006672965676884808,0.3693149600184141,0.6701200003609121
0.0006773065776984805,0.3560536169748976,0.6675782332185002
0.0006873165877084807,0.3493404492470042,0.672347012569418
0.0006973265977184809,0.3367419259877854,0.6839557755366986
0.0007073366077284806,0.32557922695128205,0.691480025387614
0.0007173466177384808,0.31200244331074467,0.6896551496819595
0.0007273566277485807,0.2911869268948326,0.6876689805939159
0.0007373666377585809,0.2863071158735316,0.7043994309412202
0.0007473766477685806,0.2725631901476764,0.7024610677615479
0.0007573866577785808,0.25281431665854354,0.7040774135404521
0.0007673966677885806,0.23789990880763623,0.7041527256525287
0.0007774066777985807,0.23128180567461332,0.70311298232478
0.0007874166878085809,0.21318702699962788,0.7099480259828391
0.0007974266978185806,0.19972277175960418,0.7076641488449097
0.0008074367078285808,0.1787309101921912,0.7053948117883265
0.0008174467178385806,0.17381918735108995,0.7008455688385761
0.0008274567278486809,0.15148362763809217,0.6999149555691687
0.0008374667378586807,0.1367013931623492,0.6975370184679492
0.0008474767478686808,0.1217299130137427,0.6833471890203267
0.0008574867578786806,0.11073723037497886,0.6792622437171048
0.0008674967678886807,0.09237214869407691,0.6847992945857678
0.0008775067778986809,0.08151285571228345,0.6705081411865018
0.0008875167879086807,0.060865045208429364,0.6594130017550167
0.0008975267979186808,0.04598959223800625,0.6553071050894167
0.0009075368079286806,0.030711069339967347,0.6454238796469995
0.0009175468179386807,0.0072933256118527775,0.638597693507915
0.0009275568279487807,-0.00539063904030896,0.6328610475159296
0.0009375668379587808,-0.0197377509746515,0.6139796309401305
0.0009475768479687806,-0.034423375470010564,0.6075611471790308
0.0009575868579787808,-0.05067141162095249,0.5920401568550776
0.0009675968679887809,-0.0657423655038321,0.5782878176465168
0.0009776068779987807,-0.0867852877067397,0.5655647688022903
0.0009876168880087808,-0.10038975652022006,0.5566768664911161
0.0009976268980187806,-0.11910971460668868,0.5383817510793941
0.0010076369080287808,-0.13167572007005424,0.5300343923774758
0.001017646918038781,-0.14947580863710438,0.5191885018626946
0.0010276569280488809,-0.1678220016088275,0.4982426728458998
0.0010376669380588806,-0.17213784480037714,0.48369634293026725
0.0010476769480688808,-0.19190164449493619,0.46203332188148044
0.001057686958078881,-0.2143770463280323,0.4517749006649007
0.0010676969680888807,-0.2261424576660082,0.43222484726048477
