Time,Vin,Vout
0.00209715542242026,0.0047723755201311766,0.009034929917893375
0.00259765592292076,0.15368346431455787,0.0012387900182889873
0.00309815642342126,0.2895661571302832,0.009246200335678032
0.00359865692392176,0.4032763532285595,0.0002581064206020641
0.00409915742442226,0.4744820190835988,0.003772449506282556
0.00459965792492276,0.4956919066616161,-0.0032015384181080923
0.00510015842542326,0.4637119656931903,0.0012609416171538211
0.00560065892592376,0.39715116035782305,0.0018477277750800552
0.00610115942642426,0.28732043708528715,0.0031537523419915476
0.00660165992692476,0.15147413925652373,-0.003731782074126748
0.00710216042742526,-0.007771123870633634,0.0040714127641426
0.00760266092792576,-0.15113546026692923,-0.00040965891057869315
0.00810316142842626,-0.29083455257111795,0.0005116449386974169
0.00860366192892676,-0.39557499425450854,-0.009801226245759588
0.00910416242942726,-0.47638262653821134,-0.022929847139403388
0.00960466292992776,-0.49000732527450297,-0.026259160324503563
0.01010516343042826,-0.46562417391780225,-0.039413721004485876
0.01060566393092876,-0.3990776693573173,-0.03712218665083974
0.01110616443142926,-0.29202871546217263,-0.052125639927317315
0.01160666493192976,-0.1465499065576924,-0.0577381904434968
0.01210716543243026,-0.0009315049717627601,-0.06984129572048858
0.01260766593293076,0.1555386546338566,-0.07385169282421533
0.01310816643343126,0.29414535419956805,-0.08116820555306961
0.01360866693393176,0.4019440235955035,-0.06979295190213299
0.01410916743443226,0.47527215377494036,-0.07538946286175743
0.01460966793493276,0.49722893509521016,-0.07980374482657036
0.01511016843543326,0.4669788384528007,-0.08079482372366718
0.01561066893593376,0.3986414384754812,-0.07235247694498159
0.01611116943643426,0.2829835260362287,-0.07297267323478415
0.01661166993693476,0.1473449127303175,-0.07345726629631393
0.017112170437435258,-0.011218946301833276,-0.07930386851155312
0.01761267093793576,-0.15942921678996727,-0.07816550374416686
0.018113171438436257,-0.29458600010229774,-0.08494975739873936
0.01861367193893676,-0.40711883157280726,-0.0820196138078137
0.019114172439437263,-0.4707199289782287,-0.09465144628567433
0.01961467293993776,-0.4901311941082582,-0.1002382490088018
0.020115173440438262,-0.46257262639392355,-0.10232662846373958
0.02061567394093876,-0.3976524501737452,-0.11384671277776771
0.02111617444143926,-0.2868224484811026,-0.11816979779402535
0.021616674941939758,-0.14464838633234292,-0.13041203953147495
0.02211717544244026,0.006391746806911935,-0.14582777803931546
0.022617675942940757,0.15506297522660756,-0.1442182820079782
0.02311817644344126,0.2935020863034439,-0.1423360561162753
0.023618676943941763,0.4044226928494133,-0.13805943736587092
0.02411917744444226,0.4730053465351071,-0.1478546554933001
0.024619677944942762,0.4897401660875651,-0.14036322380581462
0.02512017844544326,0.466648631205878,-0.14049652020074208
0.02562067894594376,0.3966242318257908,-0.1316307578961876
0.026121179446444258,0.28109105980232096,-0.1478040022173236
0.02662167994694476,0.144197772637961,-0.14581703545830757
0.027122180447445257,-0.007405225929665061,-0.1446592631866997
0.02762268094794576,-0.15721674617178788,-0.1472415169247695
0.028123181448446263,-0.29392012756387725,-0.13809088344610765
0.02862368194894676,-0.40618525106159553,-0.15830050781385263
0.029124182449447263,-0.4728656778684689,-0.15616654899128793
0.02962468294994776,-0.49373340500399715,-0.16197877353109516
0.030125183450448262,-0.4730300114593124,-0.1777352293521968
0.030625683950948758,-0.396130975144076,-0.17964194191897773
0.03112618445144926,-0.28150475132676567,-0.18927639729585094
0.03162668495194976,-0.14488766623272853,-0.19964084582177197
0.03212718545245026,0.013563957246881619,-0.20838519391002355
0.03262768595295076,0.1598171923202558,-0.2120822311021752
0.03312818645345126,0.2992403708375169,-0.20616983067847458
0.03362868695395176,0.4062603455497246,-0.2104422634909015
0.03412918745445226,0.46958164120423346,-0.20369668027696924
0.03462968795495276,0.4892455373619423,-0.2098417405810952
0.035130188455453265,0.4692844986033338,-0.19989505064091714
0.03563068895595376,0.3920142389184092,-0.20762473722843217
0.036131189456454264,0.28185139103665874,-0.2011796630192587
0.03663168995695476,0.13845054966727907,-0.20282374101233766
0.037132190457455264,-0.010281212693187523,-0.20250813459735384
0.03763269095795576,-0.1648356411934649,-0.20623357727203537
0.03813319145845626,-0.30586847226765723,-0.19841691755186391
0.03863369195895676,-0.4103791575595462,-0.2144859992244616
0.03913419245945726,-0.47115862611077747,-0.22568578869870545
0.039634692959957765,-0.48903041418073684,-0.2259060795006112
0.04013519346045826,-0.46217247646044685,-0.22911344953643917
0.040635693960958764,-0.39481200814992573,-0.2412131836471288
0.04113619446145926,-0.2773057534939605,-0.2421440295510826
0.041636694961959764,-0.14085644732477687,-0.25953479190744333
0.04213719546246026,0.015169683532265003,-0.2446496071944326
0.04263769596296076,0.164492064814329,-0.2694224279180558
0.04313819646346126,0.3013992166119239,-0.2747875398490058
0.04363869696396176,0.4089211658023617,-0.26048030375029185
0.04413919746446226,0.47294546859191183,-0.27180325522897686
0.04463969796496276,0.4933884854612849,-0.2612085902511895
0.045140198465463265,0.46396139287057725,-0.257920013780669
0.04564069896596376,0.3873947982342522,-0.257231058068032
0.046141199466464264,0.27664658320402435,-0.2630155946981721
0.04664169996696476,0.13840589137333356,-0.24821766424311992
0.04714220046746526,-0.014809145346330325,-0.2574303076915858
0.04764270096796576,-0.16558710001319688,-0.2586165494990042
0.04814320146846626,-0.29503795329722476,-0.25356282830690374
0.04864370196896676,-0.40912405252311884,-0.2658948522208965
0.04914420246946726,-0.47323589422528145,-0.2633285430851441
0.049644702969967765,-0.4960829915677087,-0.27206865071625347
0.05014520347046826,-0.468844436312045,-0.2859827901805102
0.050645703970968764,-0.39360325926540196,-0.2982631601196453
0.05114620447146926,-0.2806492104890641,-0.29142041095685084
0.05164670497196976,-0.1371267184720952,-0.30454478906204085
0.05214720547247026,0.021931697343872073,-0.3118392288928003
0.05264770597297076,0.16185944445207787,-0.3083605527325904
0.05314820647347126,0.3083689567737302,-0.31534630455525725
0.05364870697397176,0.40873686517359165,-0.3195147499482066
0.054149207474472265,0.4737958019353717,-0.3180965095835978
0.05464970797497276,0.4907686344978707,-0.30618066002629624
0.055150208475473264,0.4601414804707957,-0.31360521900236515
0.05565070897597376,0.3949461148779958,-0.30927149023580386
0.05615120947647426,0.27470378188633837,-0.29850787442012394
0.05665170997697476,0.13892369349184838,-0.2997646533448907
0.05715221047747526,-0.016352893557961608,-0.2980183838737972
0.05765271097797576,-0.16328000458922962,-0.29876864234429557
0.05815321147847626,-0.30595265800062477,-0.3134055294029719
0.058653711978976765,-0.40829399471221645,-0.30924273783503686
0.05915421247947726,-0.4740450666788146,-0.31226524424668456
0.059654712979977764,-0.4904526581600231,-0.31920052048910663
0.06015521348047826,-0.46340895998912035,-0.32402024436363586
0.060655713980978763,-0.3851113596014207,-0.32326112259278555
0.06115621448147926,-0.26928350472311313,-0.35384375405698515
0.06165671498197976,-0.1355099453749874,-0.3455696034741858
0.06215721548248026,0.018060494892156814,-0.34545368124078935
0.06265771598298076,0.17255079709529395,-0.3434206888743023
0.06315821648348126,0.30637004697570097,-0.35329502190761564
0.06365871698398176,0.4100850825527851,-0.34757797379604066
0.06415921748448226,0.4780846510098313,-0.35268199018213153
0.06465971798498275,0.4967285260740733,-0.35400434641074496
0.06516021848548326,0.45799499743337935,-0.34759833519566613
0.06566071898598376,0.3921409619464275,-0.34738204418454927
0.06616121948648425,0.2783253481609714,-0.3372278431109517
0.06666171998698475,0.1409568150861314,-0.3380134667550378
0.06716222048748526,-0.013540476449532404,-0.34708043297667446
0.06766272098798576,-0.16961442477752514,-0.34121041692226856
0.06816322148848626,-0.3090723216767365,-0.3390177063257459
0.06866372198898675,-0.4123493341434475,-0.34741631035360326
0.06916422248948725,-0.47447400306159593,-0.3481877854740387
0.06966472298998776,-0.49338408461964567,-0.3605486492939516
0.07016522349048826,-0.4635314755228501,-0.3645892109069423
0.07066572399098875,-0.38926088604543685,-0.37164189981748685
0.07116622449148925,-0.2705309177071581,-0.37529440478075604
0.07166672499198976,-0.13441824399359814,-0.38752562340550917
0.07216722549249026,0.023647631931273668,-0.39654199640143756
0.07266772599299076,0.16831291998344755,-0.390233816870001
0.07316822649349125,0.3090700939160064,-0.39210834110277293
0.07366872699399175,0.411887802325986,-0.38427198657117734
0.07416922749449226,0.46878346205454774,-0.3926579910779905
0.07466972799499276,0.4929691715647495,-0.38354402513524144
0.07517022849549325,0.4602070083045269,-0.38703213248466356
0.07567072899599375,0.3806165896032373,-0.3770708374906422
0.07617122949649426,0.27375132419455434,-0.37253147376601936
0.07667172999699476,0.12847468012251773,-0.3813732213031294
0.07717223049749526,-0.02192727956530873,-0.3806884489150351
0.07767273099799575,-0.1707976336425773,-0.37207799699130945
0.07817323149849625,-0.3050123075877564,-0.381759340144474
0.07867373199899676,-0.41337043984052046,-0.39147834386237895
0.07917423249949726,-0.4801924753994582,-0.39903233002342076
0.07967473299999775,-0.49813959215399306,-0.3931999373449889
0.08017523350049825,-0.4590603227438583,-0.40713782055152076
0.08067573400099876,-0.3837033859457979,-0.41291430899114345
0.08117623450149926,-0.26960617715644114,-0.4104921738812675
0.08167673500199976,-0.1251640036590797,-0.4192334079570213
0.08217723550250025,0.022266423794865327,-0.4149000471254422
0.08267773600300075,0.17551452360087658,-0.4228781268158801
0.08317823650350126,0.31178979322899697,-0.420729165815888
0.08367873700400176,0.41376904438282275,-0.4323387240528084
0.08417923750450225,0.47214372005794264,-0.4340674918425003
0.08467973800500275,0.492156786984604,-0.4227422995416428
0.08518023850550326,0.46443150048418136,-0.4098070259977548
0.08568073900600376,0.3768299700395079,-0.41330444947870326
0.08618123950650425,0.2686635754186235,-0.40629219060101807
0.08668174000700475,0.12609943514330663,-0.40265540003489947
0.08718224050750525,-0.025418934064593685,-0.4094895167019292
0.08768274100800576,-0.1787080129741711,-0.4097701021767662
0.08818324150850626,-0.30547169825289155,-0.4156050450171493
0.08868374200900675,-0.4188736723990127,-0.41850942853084194
0.08918424250950725,-0.47769460354032883,-0.41424137893646057
0.08968474301000776,-0.49047394549689655,-0.4250624554376406
0.09018524351050826,-0.4611726656623272,-0.4373715426077554
0.09068574401100875,-0.37566566652582006,-0.44504406156818327
0.09118624451150935,-0.2667980057053273,-0.43561725143522
0.09168674501200975,-0.12548467287178128,-0.4503014801681224
0.09218724551251026,0.022211368275190504,-0.4430994631051048
0.09268774601301076,0.1758309228221069,-0.4502927905955232
0.09318824651351125,0.31712002860302796,-0.4548278308999566
0.09368874701401185,0.4164774368536284,-0.46283075688125236
0.09418924751451235,0.47500621533782555,-0.43747123469789756
0.09468974801501276,0.4938988271369148,-0.45123398034285395
0.09519024851551325,0.45661683159938393,-0.43547494948368415
0.09569074901601385,0.38128639193066177,-0.4525335159094492
0.09619124951651435,0.26722134343946163,-0.4359609580935167
0.09669175001701485,0.12425489397110066,-0.43603898775631444
0.09719225051751526,-0.029448915408778985,-0.43829035049774506
0.09769275101801575,-0.18195654578218798,-0.4328125258868328
0.09819325151851635,-0.31864615220083103,-0.43887586716332394
0.09869375201901685,-0.41497453550606794,-0.4419537662747887
0.09919425251951736,-0.4761189392676647,-0.43880423914134087
0.09969475302001775,-0.4935253753724013,-0.4522720711314925
0.10019525352051835,-0.4550329631817821,-0.460917262344479
0.10069575402101885,-0.3784325114151265,-0.45238568969259085
0.10119625452151935,-0.26679902785513887,-0.46409555256074575
0.10169675502201986,-0.11954531337475756,-0.4707104678595457
0.10219725552252025,0.032724128122574164,-0.47909361282553325
0.10269775602302085,0.18239306711047248,-0.48235979058671263
0.10319825652352135,0.3196164044677388,-0.479488043750856
0.10369875702402186,0.41078346497924567,-0.48379857641556595
0.10419925752452236,0.47667655889572463,-0.47738568209383947
0.10469975802502285,0.4964093046898803,-0.47700130529279483
0.10520025852552335,0.4580888756911937,-0.4756836087919622
0.10570075902602385,0.3732425592712666,-0.46635411895540707
0.10620125952652436,0.26824649948103996,-0.4572005924132552
0.10670176002702486,0.12174512763669963,-0.4629563712289411
0.10720226052752535,-0.03609034011984904,-0.46081910548045035
0.10770276102802585,-0.18395983861733228,-0.45621185870028425
0.10820326152852636,-0.31629043355096714,-0.46110452733889906
0.10870376202902686,-0.4159890396206573,-0.4585040107624408
0.10920426252952735,-0.4837299991692263,-0.46907353893029474
0.10970476303002785,-0.49225798999893217,-0.47263501890073173
0.11020526353052836,-0.45960200614463675,-0.4775768430509463
0.11070576403102886,-0.38151597253937714,-0.4887839396387582
0.11120626453152936,-0.2655281520615156,-0.5028002544432
0.11170676503202985,-0.12065808630079042,-0.49459734531702526
0.11220726553253035,0.03534834567035266,-0.4970511839415056
0.11270776603303086,0.18973539742772075,-0.4966096614227161
0.11320826653353136,0.3169647331030021,-0.5046393898729968
0.11370876703403185,0.4174662415830849,-0.5065169898445006
0.11420926753453235,0.4699708448008326,-0.4896301661718809
0.11470976803503286,0.4965082857630195,-0.49861067063078524
0.11521026853553336,0.4582282535698695,-0.489869570194238
0.11571076903603386,0.3751742871529685,-0.48584792582961206
0.11621126953653435,0.26260911293961686,-0.48676886194186136
0.11671177003703485,0.11868732140308319,-0.49351931723523657
0.11721227053753536,-0.0380236946355213,-0.47528202124560215
0.11771277103803586,-0.18901595952800415,-0.4837513736658019
0.11821327153853635,-0.3185944237616164,-0.4772626117373498
0.11871377203903685,-0.42426780611810877,-0.4814311874644518
0.11921427253953736,-0.4796993472801403,-0.49657639305411283
0.11971477304003786,-0.49427274265456494,-0.4938948990538248
0.12021527354053836,-0.45642914042343596,-0.5003722540339973
0.12071577404103885,-0.3771032094804386,-0.5177047221995897
0.12121627454153935,-0.2534366350874932,-0.507667108045265
0.12171677504203986,-0.12207768046717014,-0.5139779347003779
0.12221727554254036,0.03206014586693513,-0.5187921340685399
0.12271777604304085,0.18888717369708302,-0.5251949881096614
0.12321827654354135,0.3135219105690853,-0.5301849885228611
0.12371877704404186,0.4180072212887332,-0.5211738709857564
0.12421927754454236,0.484064923111538,-0.5257536109131713
0.12471977804504286,0.4926930098023925,-0.5115477904802735
0.12522027854554335,0.4556886264122813,-0.5029074828046224
0.12572077904604387,0.3749683932119492,-0.5020342921894456
0.12622127954654436,0.26106325338524267,-0.5054477217194778
0.12672178004704487,0.1104419880141313,-0.49784938251312183
0.12722228054754536,-0.04375772204679265,-0.49133449545355556
0.12772278104804585,-0.18801707784764754,-0.5052692502508728
0.12822328154854634,-0.3194818098385122,-0.5048627335866834
0.12872378204904686,-0.4204432524290198,-0.5057499242151254
0.12922428254954735,-0.48294964221605796,-0.49935495832542987
0.12972478305004786,-0.48622569670817106,-0.5154867434005717
0.13022528355054835,-0.45667783622973784,-0.5134123656356316
0.13072578405104884,-0.37506049270044917,-0.5210439321666871
0.13122628455154936,-0.25751180703528387,-0.528018511919185
0.13172678505204985,-0.10918975293175795,-0.52632566679224
0.13222728555255037,0.038429415501267924,-0.5376571666381563
0.13272778605305086,0.1899574085553256,-0.5574923799486354
0.13322828655355134,0.3204157859598531,-0.538490483231211
0.13372878705405186,0.4150766380355029,-0.5414714260406717
0.13422928755455235,0.48237098073230594,-0.5301134451208801
0.13472978805505287,0.49231316249362334,-0.5326789375746702
0.13523028855555336,0.4498940537466782,-0.5277193027602521
0.13573078905605385,0.37237471805941147,-0.5246458933081375
0.13623128955655436,0.2531956868236631,-0.5178850575515371
0.13673179005705485,0.10852343189035886,-0.5103147922559306
0.13723229055755534,-0.04193064695870622,-0.5136227080853296
0.13773279105805586,-0.19068208857008673,-0.5197052246182319
0.13823329155855635,-0.3217946917487938,-0.5093724124535339
0.13873379205905687,-0.42309345928801684,-0.509481954651556
0.13923429255955735,-0.48178166282233664,-0.5334199324912955
0.13973479306005784,-0.4940508132132673,-0.5375628695555749
0.14023529356055836,-0.45046658994640837,-0.5299291519487243
0.14073579406105885,-0.37124810693985727,-0.5416501726021248
0.14123629456155937,-0.2538848967373799,-0.5479606246443202
0.14173679506205986,-0.10392721187790466,-0.5491877649868959
0.14223729556256035,0.041022474864409776,-0.5494129001759586
0.14273779606306086,0.19226529800611594,-0.5529204812161934
0.14323829656356135,0.3268908034918069,-0.5483601986648574
0.14373879706406187,0.4233218053322749,-0.5522699928018708
0.14423929756456236,0.483310945442959,-0.5483420105255985
0.14473979806506285,0.4949316116191323,-0.5364159755891517
0.14524029856556336,0.45469016220415015,-0.5413653566548138
0.14574079906606385,0.3711752569063765,-0.5422921992585767
0.14624129956656434,0.24892253212176474,-0.5408050855408578
0.14674180006706486,0.10689236434400226,-0.5356342305284552
0.14724230056756535,-0.04898396872931346,-0.528373070695506
0.14774280106806587,-0.19893163781328196,-0.5299842871392022
0.14824330156856635,-0.329749624934442,-0.5251764384794926
0.14874380206906684,-0.42160755756232504,-0.5366639536796496
0.14924430256956736,-0.4747331306841841,-0.5352515138187727
0.14974480307006785,-0.4906343679886373,-0.5442242937869204
0.15024530357056837,-0.45856558334870107,-0.5459538102592663
0.15074580407106886,-0.37530772075225316,-0.5546807799798674
0.15124630457156935,-0.25211596510402434,-0.5525220992878251
0.15174680507206986,-0.10982689148742542,-0.5638379032327119
0.15224730557257035,0.04402909246675571,-0.5733692101455328
0.15274780607307087,0.199389030512512,-0.5632994375656651
0.15324830657357136,0.3279026091414657,-0.5602934546806417
0.15374880707407185,0.42248336830436123,-0.5676126698980583
0.15424930757457236,0.48245674735477034,-0.56355962482289
0.15474980807507285,0.4895697246712751,-0.5596913731648395
0.15525030857557334,0.4501471082176311,-0.5504389878869901
0.15575080907607386,0.36825668743057566,-0.543426798447167
0.15625130957657435,0.2476572599199433,-0.5537741773152663
0.15675181007707487,0.10242067208058461,-0.5374380011482969
0.15725231057757535,-0.05151100148240371,-0.5384172647603812
0.15775281107807584,-0.19799548370893236,-0.5480537932690757
0.15825331157857636,-0.32476982221939965,-0.5525295559821404
0.15875381207907685,-0.43021285983338303,-0.5436547762630229
0.15925431257957737,-0.48052183616063276,-0.5356950718024913
0.15975481308007786,-0.4957312858899161,-0.5532368847171802
0.16025531358057835,-0.45179479195238603,-0.559768249092293
0.16075581408107886,-0.3670401000907186,-0.5661304371218742
0.16125631458157935,-0.2503273546586757,-0.5763500241286796
0.16175681508207984,-0.10345263976226107,-0.5797629549002258
0.16225731558258036,0.04710481063524188,-0.5758417947808733
0.16275781608308085,0.19979864762157615,-0.5696507038973383
0.16325831658358136,0.33098480232692307,-0.578288071440367
0.16375881708408185,0.4246404166510125,-0.5735421882943548
