Time,Vin,Vout
0.0,0.0,0.0
0.0005005005005005005,0.15452813153044453,0.06755134942778762
0.001001001001001001,0.2927449707823218,0.23735354085992974
0.0015015015015015015,0.4038486778285385,0.4092027551659553
0.002002002002002002,0.473960282709644,0.5394705485887328
0.0025025025025025025,0.497846574035656,0.6161851636810342
0.003003003003003003,0.4747037911111657,0.6348278196562861
0.0035035035035035035,0.4019212893341899,0.5870255092022276
0.004004004004004004,0.2922308241013188,0.4851986721906801
0.0045045045045045045,0.15254461924177376,0.33371739829285296
0.005005005005005005,-0.0015214963105922089,0.1502330843126103
0.0055055055055055055,-0.15602901897382127,-0.048150978115798576
0.006006006006006006,-0.29402032905372943,-0.24132826419504744
0.0065065065065065065,-0.40467666467258423,-0.4119489871512503
0.007007007007007007,-0.4745121612864706,-0.5411818850803249
0.0075075075075075074,-0.4977940366375909,-0.6171872692802599
0.008008008008008008,-0.4743461733723823,-0.6354636874099662
0.008508508508508508,-0.40100593599014317,-0.5868931434265853
0.009009009009009009,-0.29089708940094067,-0.48441080490423705
0.00950950950950951,-0.15107497965964975,-0.33267675045301087
0.01001001001001001,0.0030904610287138326,-0.14888438152825667
0.01051051051051051,0.15755758693691987,0.049543177422880405
0.011011011011011011,0.29529568732513695,0.2425778806747135
0.011511511511511512,0.40550465151663007,0.41277297691802184
0.012012012012012012,0.4750640398632971,0.5417056953677911
0.012512512512512512,0.4977414992395257,0.6169932685892775
0.013013013013013013,0.4739885556335987,0.634879594737402
0.013513513513513514,0.40009058264609587,0.5855410714138688
0.014014014014014014,0.2895633547005623,0.48240384072936876
0.014514514514514514,0.14960534007752668,0.33041704348512846
0.015015015015015015,-0.004659425746835845,0.14631673979152615
0.015515515515515516,-0.15908615490001948,-0.05215413174417202
0.016016016016016016,-0.29657104559654457,-0.2450460971629268
0.016516516516516516,-0.4063326383606753,-0.41481549289158004
0.017017017017017015,-0.4756159184401235,-0.5434480716538433
0.017517517517517518,-0.4976889618414605,-0.6180179690779581
0.018018018018018018,-0.4736309378948154,-0.6355143844804716
0.018518518518518517,-0.3991752293020492,-0.585408040037176
0.01901901901901902,-0.28822962000018393,-0.4816159942978438
0.01951951951951952,-0.14813570049540187,-0.32937641354323216
0.02002002002002002,0.006228390464957205,-0.1449680353987917
0.02052052052052052,0.16061472286311845,0.053546333523654344
0.02102102102102102,0.29784640386795164,0.24629571502486913
0.021521521521521522,0.40716062520472146,0.4156394826694446
0.022022022022022022,0.4761677970169503,0.5439718810920339
0.02252252252252252,0.49763642444339534,0.6178239665484
0.023023023023023025,0.4732151533123817,0.6348522299352933
0.023523523523523524,0.3982598759580022,0.5840559668179272
0.024024024024024024,0.28689588529980536,0.47960903026774154
0.024524524524524523,0.14666606091327805,0.32711670727259906
0.025025025025025023,-0.007797355183078211,0.1424003953362231
0.025525525525525526,-0.16207392792901323,-0.05613383731736873
0.026026026026026026,-0.2991217621393596,-0.2487639301489089
0.026526526526526525,-0.4079886120487671,-0.4176819986158524
0.02702702702702703,-0.476719675593777,-0.5457142582254352
0.027527527527527528,-0.49758388704533013,-0.6188486688758251
0.028028028028028028,-0.47256619828202756,-0.635096046014775
0.028528528528528527,-0.3973445226139549,-0.5839229366485409
0.029029029029029027,-0.2855621505994281,-0.47882118369134896
0.02952952952952953,-0.14519642133115407,-0.3260760766321842
0.03003003003003003,0.00936631990120064,-0.14105168926897402
0.03053053053053053,0.16350335712749886,0.05749252626236101
0.031031031031031032,0.30039712041076705,0.2500135493741956
0.03153153153153153,0.4088165988928127,0.41850598842092096
0.03203203203203203,0.4772715541706034,0.5462380668175959
0.032532532532532535,0.49753134964726503,0.6186546645079476
0.03303303303303303,0.4719172432516735,0.6341209742674381
0.033533533533533534,0.3964291692699081,0.5825708622210871
0.03403403403403403,0.28422841589905007,0.476814219806113
0.03453453453453453,0.14372678174903025,0.32381637106143285
0.035035035035035036,-0.01093528461932209,0.13848405088138696
0.03553553553553553,-0.16493278632598443,-0.06006996246034275
0.036036036036036036,-0.30167247868217445,-0.2524817631358185
0.03653653653653654,-0.4096445857368587,-0.4205485043402015
0.037037037037037035,-0.47782343274742983,-0.5479804447956242
0.03753753753753754,-0.4974788122491998,-0.6196793686731392
0.03803803803803804,-0.4712682882213191,-0.6343647921490887
0.03853853853853854,-0.3955138159258615,-0.5824378332609008
0.03903903903903904,-0.28289468119867023,-0.47602637308499707
0.03953953953953954,-0.14225714216690644,-0.3227757397196952
0.04004004004004004,0.01250424933744266,-0.13713534313855125
0.04054054054054054,0.16636221552447203,0.06142865302605022
0.04104104104104104,0.3029478369535818,0.2537313837224806
0.04154154154154154,0.4104725725809041,0.4213724941721985
0.04204204204204204,0.47837531132425615,0.5485042525446158
0.04254254254254254,0.4974262748511346,0.6194853624681403
0.043043043043043044,0.470619333190965,0.6333897185994466
0.04354354354354354,0.39459846258181536,0.5810857576231748
0.044044044044044044,0.28156094649829366,0.4740194093442165
0.04454454454454455,0.1407875025847823,0.32051603485174257
0.04504504504504504,-0.014073214055562236,0.13456770642726043
0.045545545545545546,-0.16779164472295593,-0.06400608760338389
0.04604604604604605,-0.30422319522498953,-0.256199596123848
0.046546546546546545,-0.4113005594249507,-0.42341501006488036
0.04704704704704705,-0.47892718990108346,-0.5502466313642879
0.047547547547547545,-0.4973737374530694,-0.620510068469717
0.04804804804804805,-0.46997037816061027,-0.6336335382834261
0.04854854854854855,-0.39368310923776606,-0.5809527298744043
0.04904904904904905,-0.2802272117979156,-0.47323156247902776
0.04954954954954955,-0.13931786300265692,-0.3194754028056506
0.050050050050050046,0.01564217877368535,-0.13321899700734433
0.05055055055055055,0.1692210739214415,0.06536477978977784
0.05105105105105105,0.3054985534963978,0.257449218069584
0.05155155155155155,0.4121285462689953,0.42423899992302905
0.05205205205205205,0.47947906847790944,0.5507704382732064
0.052552552552552555,0.4973212000550042,0.6203160604291794
0.05305305305305305,0.4693214231302573,0.6326584629315474
0.053553553553553554,0.39276775589371965,0.5796006530240322
0.05405405405405406,0.27889347709753576,0.4712245988818068
0.05455455455455455,0.13784822342053463,0.31721569864366994
0.055055055055055056,-0.017211143491807107,0.1306513619740166
0.05555555555555555,-0.1706505031199254,-0.06794221274625963
0.056056056056056056,-0.3067739117678047,-0.2599174291131472
0.05655655655655656,-0.41295653311304203,-0.4262815157901115
0.057057057057057055,-0.4800309470547358,-0.5525128179313068
0.05755755755755756,-0.4972686626569387,-0.6213407682653503
0.058058058058058054,-0.468672468099902,-0.632902284417535
0.05855855855855856,-0.3918524025496722,-0.5794676264892196
0.05905905905905906,-0.2775597423971577,-0.47043675187367523
0.059559559559559556,-0.13637858383841078,-0.3161750658899443
0.06006006006006006,0.018780108209928467,-0.12930265087513831
0.06056056056056056,0.17207993231841295,0.06930090655381106
0.06106106106106106,0.3080492700392121,0.2611670524153412
0.06156156156156156,0.41378451995708765,0.42710550567319533
0.062062062062062065,0.480582825631563,0.5530366240035002
0.06256256256256257,0.4972161252588738,0.6211467583912249
0.06306306306306306,0.4680235130695483,0.6319272072640079
0.06356356356356356,0.39093704920562655,0.5781155484235405
0.06406406406406406,0.2762260076967816,0.46842978841868593
0.06456456456456457,0.13490894425628444,0.31391536243730417
0.06506506506506507,-0.020349072928051,0.1267350175218269
0.06556556556556556,-0.17350936151689672,-0.07187833788872089
0.06606606606606606,-0.3093246283106197,-0.2636352621038519
0.06656656656656657,-0.4146125068011309,-0.4291480215161074
0.06706706706706707,-0.4811347042083922,-0.5547790044966052
0.06756756756756757,-0.49716358786080894,-0.6221714680598974
0.06806806806806806,-0.46737455803919215,-0.6321710305511582
0.06856856856856856,-0.39002169586158136,-0.5779825231054652
0.06906906906906907,-0.2748922729964034,-0.46764194126912134
0.06956956956956957,-0.1334393046741622,-0.31287472897248114
0.07007007007007007,0.021918037646171798,-0.12538630474182286
0.07057057057057058,0.17493879071538485,0.07323703331837056
0.07107107107107107,0.31059998658202764,0.26488488675965727
0.07157157157157157,0.41544049364517543,0.42997201142250213
0.07207207207207207,0.48168658278522153,0.5553028097355661
0.07257257257257257,0.49711105046274423,0.6219774563544457
0.07307307307307308,0.46672560300883437,0.6311959515970395
0.07357357357357357,0.38910634251753634,0.5766304438215548
0.07407407407407407,0.2735585382960254,0.4656349779546726
0.07457457457457457,0.13196966509204003,0.3106150262327418
0.07507507507507508,-0.02348700236429261,0.12281867307084426
0.07557557557557558,-0.17636821991387186,-0.07581446303057171
0.07607607607607608,-0.31187534485343926,-0.2673530950960678
0.07657657657657657,-0.4162684804892207,-0.43201452724304235
0.07707707707707707,-0.4822384613620511,-0.5570451910600882
0.07757757757757758,-0.49705851306467974,-0.6230021678531942
0.07807807807807808,-0.46607664797847764,-0.6314397766840913
0.07857857857857858,-0.38819098917348893,-0.5764974197232583
0.07907907907907907,-0.2722248035956462,-0.46484713066555516
0.07957957957957958,-0.13050002550991788,-0.3095743920531847
0.08008008008008008,0.025055967082415496,-0.12146995860722282
0.08058058058058058,0.17779764911235338,0.07717316008363254
0.08108108108108109,0.31315070312484955,0.26860272110241357
0.08158158158158157,0.417096467333267,0.4328385171708009
0.08208208208208208,0.4827903399388799,0.5575689954694585
0.08258258258258258,0.4970059756666152,0.6228081543189662
0.08308308308308308,0.465427692948123,0.6304646959308327
0.08358358358358359,0.38727563582944236,0.5751453392180017
0.08408408408408408,0.27089106889526665,0.4628401674896113
0.08458458458458458,0.12902942051521746,0.3073123885747961
0.08508508508508508,-0.026624931800536378,0.11890232862120134
0.08558558558558559,-0.17922707831083778,-0.0797505881715698
0.08608608608608609,-0.31442606139625795,-0.27107092808987976
0.08658658658658659,-0.41792445417731433,-0.43488103297107616
0.08708708708708708,-0.48318994641148655,-0.5591353481166937
0.08758758758758758,-0.49695343826855115,-0.6238328676451204
0.08808808808808809,-0.4647787379177676,-0.6307085228161887
0.08858858858858859,-0.3863602824853978,-0.5750123163426824
0.0890890890890891,-0.26955733419488526,-0.46205232006309827
0.08958958958958958,-0.12748035347630565,-0.3060824055148226
0.09009009009009009,0.028193896518657273,-0.11755361247124792
0.09059059059059059,0.1806565075093223,0.08110928684980814
0.09109109109109109,0.31570141966766646,0.272320555443525
0.0915915915915916,0.4187524410213596,0.43570502291795354
0.0920920920920921,0.48344450833688174,0.5593154475460647
0.09259259259259259,0.4969009008704873,0.6236388522848881
0.09309309309309309,0.46412978288741236,0.6297334402655803
0.0935935935935936,0.38544492914135337,0.573660234612786
0.0940940940940941,0.26822359949450764,0.46004535702335697
0.0945945945945946,0.1259312864373896,0.3036333568006707
0.09509509509509509,-0.029762861236780402,0.114985984172982
0.09559559559559559,-0.18208593670780687,-0.08368671331162003
0.0960960960960961,-0.3169767779390751,-0.2747887610853716
0.0965965965965966,-0.41958042786540506,-0.43774753870032357
0.0970970970970971,-0.4836990702622765,-0.5607141270501655
0.09759759759759759,-0.49684836347242334,-0.6246635674356026
0.0980980980980981,-0.46348082785705735,-0.6299772689472656
0.0985985985985986,-0.3845295757973092,-0.5735272129637929
0.0990990990990991,-0.2668898647941302,-0.45925750946190785
0.0995995995995996,-0.12438221939847786,-0.30240337227885905
0.10010010010010009,0.03133182595490137,-0.11363726633377771
0.1006006006006006,0.18351536590629156,0.08504541361702748
0.1011011011011011,0.31825213621048387,0.27603838978292694
0.1016016016016016,0.4204084147094507,0.43857152866382554
0.1021021021021021,0.48395363218767135,0.5608942252034048
0.10260260260260261,0.4967958260743602,0.6244695502523172
0.1031031031031031,0.4628318728267021,0.6290021846014012
0.1036036036036036,0.3836142224532649,0.5721751300058572
0.1041041041041041,0.2655561300937543,0.45725054655579883
0.1046046046046046,0.12283315235956593,0.29995432502564845
0.10510510510510511,-0.03290079067302552,0.11106963972628411
0.1056056056056056,-0.18494479510477713,-0.08762283845052554
0.1061061061061061,-0.3195274944818931,-0.27850659408259903
0.1066066066066066,-0.42123640155349573,-0.4406140444309138
0.10710710710710711,-0.48420819411306654,-0.5622929059845905
0.10760760760760761,-0.4967432886762969,-0.6254942672245428
0.10810810810810811,-0.46218291779634557,-0.6292460150771828
0.1086086086086086,-0.382698869109221,-0.5720421095866391
0.1091091091091091,-0.264222395393374,-0.4564626988620878
0.10960960960960961,-0.12128408532065421,-0.29872433904388973
0.11011011011011011,0.03446975539114639,-0.10972092019475373
0.11061061061061062,0.186374224303266,0.08898154038545267
0.1111111111111111,0.32080285275330206,0.2797562241205881
0.11161161161161161,0.4220643883975432,0.441438034408299
0.11211211211211211,0.4844627560384619,0.5624730028597326
0.11261261261261261,0.4966907512782339,0.6253002482213259
0.11311311311311312,0.4615339627659911,0.6282709289384526
0.1136136136136136,0.3817835157651774,0.5706900253971551
0.11411411411411411,0.26288866069299677,0.4544557360868359
0.11461461461461461,0.11973501828174252,0.29627529324955454
0.11511511511511512,-0.036038720109267244,0.10715329528119463
0.11561561561561562,-0.187803653501751,-0.09155896358820209
0.11611611611611611,-0.3220782110247112,-0.2822244270816133
0.11661661661661661,-0.4228923752415894,-0.443480550162929
0.11711711711711711,-0.4847173179638574,-0.5638716849201065
0.11761761761761762,-0.49663821388017115,-0.6263249670118614
0.11811811811811812,-0.46088500773563684,-0.6285147612058102
0.11861861861861862,-0.3808681624211313,-0.5705570062113012
0.11911911911911911,-0.2615549259926197,-0.4536678882637122
0.11961961961961962,-0.11818595124283085,-0.2950453058100455
0.12012012012012012,0.03760768482738813,-0.10580457405409398
0.12062062062062062,0.1892330827002361,0.09291766715516905
0.12112112112112113,0.3233535692961239,0.283474058456449
0.12162162162162161,0.42372036208563574,0.4443045401513006
0.12212212212212212,0.4849718798892532,0.5640517805149101
0.12262262262262262,0.49658567648210855,0.626130946191974
0.12312312312312312,0.4602360527052828,0.6275396732768175
0.12362362362362363,0.379952809077088,0.5692049207866603
0.12412412412412413,0.26022119129223903,0.4516609256163692
0.12462462462462462,0.11663688420391924,0.292596261472278
0.12512512512512514,-0.03917664954551336,0.1032369508377555
0.12562562562562563,-0.19066251189872124,-0.0954950887245193
0.12612612612612611,-0.3246289275675297,-0.28594226008242085
0.12662662662662663,-0.4245483489296846,-0.4463470558964652
0.12712712712712712,-0.48522644181464913,-0.5654504638568515
0.12762762762762764,-0.49653313908404606,-0.6271556667975082
0.12812812812812813,-0.4595870976749289,-0.6277835073330728
0.12862862862862862,-0.37903745573304737,-0.5690719028377647
0.12912912912912913,-0.2588874565918622,-0.45087307766687634
0.12962962962962962,-0.11508781716500766,-0.29136627257745423
0.13013013013013014,0.04074561426363951,-0.10188822791176838
0.13063063063063063,0.19209194109720648,0.09685379392627938
0.13113113113113112,0.32590428583893916,0.28719189279048796
0.13163163163163163,0.42537633577373135,0.44717104589277334
0.13213213213213212,0.4854810037400453,0.5656305581688105
0.13263263263263264,0.4964806016859832,0.6269616441643161
0.13313313313313313,0.45893814264457516,0.6268084176166059
0.13363363363363362,0.3781221023890044,0.567719816174342
0.13413413413413414,0.2575537218914854,0.44886611514436037
0.13463463463463463,0.11353875012609607,0.28891722969370637
0.13513513513513514,-0.04231457898176051,0.09932060639600668
0.13563563563563563,-0.19352137029569183,-0.09943121385938163
0.13613613613613612,-0.3271796441103487,-0.28966009308508023
0.13663663663663664,-0.42620432261777824,-0.4492135616315891
0.13713713713713713,-0.48573556566544174,-0.5670292427949128
0.13763763763763764,-0.4964280642879212,-0.6279863665814478
0.13813813813813813,-0.45828918761422166,-0.6270522534588744
0.13863863863863865,-0.37720674904495655,-0.5675867994660811
0.13913913913913914,-0.2562199871911088,-0.44807826707162796
0.13963963963963963,-0.11198968308718456,-0.2876872393462118
0.14014014014014015,0.043883543699881546,-0.0979718817677177
0.14064064064064064,0.19495079949417726,0.10078992069886966
0.14114114114114115,0.3284550023817655,0.2909097271226876
0.14164164164164164,0.42703230946182535,0.4500375516326358
0.14214214214214213,0.48599012759083987,0.5672093358213349
0.14264264264264265,0.4963755268898595,0.6277923421383567
0.14314314314314314,0.4576402325838684,0.6260771619578943
0.14364364364364365,0.3762913957009139,0.5662347115601951
0.14414414414414414,0.25488625249073227,0.4460713046707311
0.14464464464464463,0.11044061604826753,0.2852381979137368
0.14514514514514515,-0.045452508418002566,0.09540426195599781
0.14564564564564564,-0.19638022869266275,-0.10336733899275165
0.14614614614614616,-0.3297303606531753,-0.2933779260895929
0.14664664664664664,-0.42786029630587263,-0.45208006736832745
0.14714714714714713,-0.4862446895162366,-0.5686080217344054
0.14764764764764765,-0.49632298949179793,-0.6288170663636501
0.14814814814814814,-0.45699127755351526,-0.6263209995831315
0.14864864864864866,-0.3753009751259312,-0.565988590027993
0.14914914914914915,-0.2535525177903558,-0.4452834564780236
0.14964964964964964,-0.10889154900935619,-0.2840082061164148
0.15015015015015015,0.04702147313612359,-0.0940555356219319
0.15065065065065064,0.19780965789114835,0.10472604747300973
0.15115115115115116,0.3308382462199598,0.2944786424628831
0.15165165165165165,0.4286882831499201,0.45290405737085687
0.15215215215215216,0.486499251441635,0.5687881134724149
0.15265265265265265,0.4962704520937366,0.6286230401141631
0.15315315315315314,0.45634232252316237,0.6253459063007382
0.15365365365365366,0.3741543999838669,0.5642881123239052
0.15415415415415415,0.2522187830899795,0.4432764941954466
0.15465465465465467,0.1073424819704363,0.28155916613227416
0.15515515515515516,-0.04859043785424464,0.09148791751773268
0.15565565565565564,-0.19923908708963406,-0.10730346412452882
0.15615615615615616,-0.33191052226114665,-0.29676625732731576
0.15665665665665665,-0.4295162699939677,-0.4549465731067481
0.15715715715715717,-0.4867538133670322,-0.5701868006754104
0.15765765765765766,-0.4962179146956755,-0.6296477661440965
0.15815815815815815,-0.45569336749280964,-0.6255897457058115
0.15865865865865866,-0.3730078248418027,-0.5638067088993484
0.15915915915915915,-0.25088504838960335,-0.44248864588608927
0.15965965965965967,-0.10579341493152503,-0.28032917288812664
0.16016016016016016,0.050159402572359756,-0.09013918947439488
0.16066066066066065,0.20066851628812354,0.10866217424873735
0.16116116116116116,0.33298279830233385,0.29783530987144313
0.16166166166166165,0.43034425683801497,0.4557705631074128
0.16216216216216217,0.48700837529242963,0.5703668911219487
0.16266266266266266,0.4961653772976146,0.6294537380917031
0.16316316316316315,0.4550444124624574,0.6246146506451888
0.16366366366366367,0.37186124969974316,0.562106230444266
