Time,Vin,Vout
-0.0006877041707156733,0.005052813182454644,-0.1982782260742019
-0.00018720367021517333,0.15958809732389587,-0.015481068203367464
0.0003132968302853266,0.2927281000569561,0.20106282045400684
0.0008137973307858267,0.4090372119471644,0.22756923944859858
0.0013142978312863265,0.48226173366396236,1.0804679996610107
0.0018147983317868266,0.5011441768993896,4.296784502205052
0.0023152988322873267,0.4742570775193755,12.691641741735449
0.0028157993327878267,0.4090054327588947,13.560696435307609
0.0033162998332883263,0.2928341642561833,13.515998636770641
0.003816800333788827,0.15568240735222333,13.849930758045472
0.0043173008342893265,0.0021390032388410433,13.451495044526533
0.004817801334789827,-0.15894271696182888,13.473156340554311
0.005318301835290327,-0.2954527847981736,13.539379182114825
0.005818802335790827,-0.40598860010786736,13.680310376249883
0.006319302836291327,-0.4788812819892511,13.584487588196343
0.006819803336791826,-0.49771761553149535,13.597098486638297
0.007320303837292326,-0.47324418983979494,13.6794142088167
0.007820804337792827,-0.4069120550924354,13.360061615902348
0.008321304838293327,-0.2920141932183703,13.601507245260091
0.008821805338793827,-0.1506460565551106,13.56113329432387
0.009322305839294326,0.0066000553124482665,13.435595606443274
0.009822806339794826,0.16138276026805598,13.794772013046764
0.010323306840295327,0.29620783510822624,13.726106344630892
0.010823807340795827,0.40892974908820195,13.621712615116198
0.011324307841296326,0.48046997134288444,13.663539773185018
0.011824808341796826,0.49846778179588275,13.498756003347578
0.012325308842297327,0.4738749993979399,13.431335198438179
0.012825809342797827,0.4102116913138902,13.835963474685554
0.013326309843298327,0.2898572308339927,13.999418573279632
0.013826810343798826,0.1555387583570857,13.575568092762447
0.014327310844299326,-0.00740894193872478,13.536069743444855
0.014827811344799827,-0.15953281164691807,13.61960180845629
0.015328311845300325,-0.30481528078213405,13.710790410622968
0.01582881234580083,-0.40168099879256364,13.620965076840886
0.016329312846301326,-0.47683595542694196,13.530120613831679
0.01682981334680183,-0.505069723933066,13.853181485945592
0.017330313847302325,-0.48095292135344303,13.57144383063193
0.01783081434780283,-0.3985344767434496,13.604060168720194
0.018331314848303325,-0.29156027017083447,13.577913103081396
0.018831815348803828,-0.1497667985675092,13.728190543108017
0.019332315849304324,0.007980486750622762,13.68292406715022
0.019832816349804827,0.15947329185585993,13.772474930517244
0.020333316850305323,0.2973986653873801,13.517189495255717
0.020833817350805826,0.4047347538282874,13.58804313367631
0.02133431785130633,0.4821496838730791,13.648047820625651
0.021834818351806826,0.49894287789597036,13.754513319206612
0.02233531885230733,0.4773109826305154,13.682870290686912
0.022835819352807825,0.40354342275653476,13.559933916890362
0.023336319853308328,0.2825075100136851,13.530539625599074
0.023836820353808824,0.1496443961422494,13.589197414613677
0.024337320854309327,-0.010520700465389539,13.463898517696402
0.024837821354809823,-0.1580403610422511,13.703643272660399
0.025338321855310326,-0.2995930129668789,13.733786594661973
0.02583882235581083,-0.41220322472588933,13.700972860865475
0.026339322856311326,-0.47893369633443095,13.656904067231599
0.02683982335681183,-0.495615766655578,13.484103919497342
0.027340323857312325,-0.474960427787039,13.732526438569273
0.027840824357812828,-0.3994657362274087,13.54798074547158
0.028341324858313324,-0.28727323693012946,13.5913429332908
0.028841825358813827,-0.1483169183514751,13.506039440888012
0.029342325859314324,0.007906757281195808,13.674978728026232
0.029842826359814827,0.1652465078950881,13.573706390939599
0.03034332686031533,0.30564306653579465,13.534703235639347
0.030843827360815826,0.40935888275045634,13.441736271145283
0.03134432786131632,0.48023571042364843,13.49407889151902
0.031844828361816825,0.4962520085676046,13.567016855361173
0.03234532886231733,0.47286058128943775,13.33481866791343
0.032845829362817824,0.40382031800751295,13.710739389450717
0.03334632986331833,0.28679336856445486,13.787917671571151
0.033846830363818824,0.14742675025389038,13.566888448679801
0.03434733086431933,-0.010386944848476723,13.599340621911255
0.03484783136481982,-0.1648823101246538,13.422159867993885
0.035348331865320326,-0.30120581853048617,13.4587767973232
0.03584883236582082,-0.4092069052033907,13.737740268875035
0.036349332866321325,-0.47716801762424876,13.50084846325622
0.03684983336682183,-0.5043817647800359,13.599241990608242
0.037350333867322325,-0.47232422858436074,13.823445607796723
0.03785083436782283,-0.3981295055695325,13.636576425583128
0.038351334868323324,-0.28051071388861865,13.406854044991613
0.03885183536882383,-0.1450548604202515,13.658566257593295
0.03935233586932432,0.012141266018176831,13.818327214086835
0.039852836369824826,0.16374643262510621,13.805128530002252
0.04035333687032532,0.3087777523893061,13.505633871320939
0.040853837370825825,0.41167908655391217,13.49775035453734
0.04135433787132632,0.4825380430727988,13.693193141658364
0.041854838371826825,0.5002479835281199,13.735476454459276
0.04235533887232733,0.4751963179449331,13.66372238272513
0.042855839372827824,0.3949540007041414,13.535904740890398
0.04335633987332833,0.2805318055407033,13.687198863468542
0.04385684037382882,0.13850001668140463,13.560047714154718
0.044357340874329326,-0.013195119531468262,13.580659634899488
0.04485784137482982,-0.1645804792694782,13.719889120201648
0.045358341875330326,-0.30740553496284506,13.634804489585282
0.04585884237583082,-0.41835499396061343,13.604722481838763
0.046359342876331325,-0.4767410794060739,13.562320633139851
0.04685984337683183,-0.5057675400531537,13.679985900715177
0.047360343877332324,-0.47210789727180014,13.869517547000015
0.04786084437783283,-0.4029743682252643,13.502462451541064
0.04836134487833332,-0.2786188869384091,13.645937984876639
0.048861845378833826,-0.1373417753443871,13.772147573931344
0.04936234587933432,0.01622043960294009,13.694252564026478
0.049862846379834826,0.16987595271134578,13.547962326873353
0.05036334688033532,0.3093686956905985,13.644434007990153
0.050863847380835825,0.4162716542395797,13.822777981039776
0.05136434788133633,0.4862240458781382,13.515919505866195
0.051864848381836824,0.5029458872826661,13.580729915634775
0.05236534888233733,0.47002120726230123,13.54185543798524
0.05286584938283782,0.39573302650923037,13.740440652386878
0.053366349883338327,0.28141575869312047,13.483758995533323
0.05386685038383882,0.1395186945148904,13.675703656238785
0.054367350884339326,-0.021650482127699204,13.7686120372722
0.05486785138483982,-0.1696911525525041,13.805887376193692
0.055368351885340325,-0.31011496409000777,13.47299071437696
0.05586885238584083,-0.41803605734869,13.708387809199817
0.056369352886341324,-0.484780466765901,13.712701732779674
0.05686985338684183,-0.5021714835887461,13.53494034766534
0.057370353887342324,-0.46940470529135353,13.74614338174626
0.05787085438784283,-0.3926291657016342,13.988619134270412
0.05837135488834332,-0.27729197578695053,13.611967682515354
0.058871855388843826,-0.13829084465032151,13.644454804420741
0.05937235588934432,0.01997260663396922,13.862435657329305
0.059872856389844825,0.1745823351257665,13.552870709186596
0.06037335689034533,0.30974154657872516,13.656903189215475
0.060873857390845824,0.419412428173473,13.605777962376333
0.06137435789134633,0.4860426166594541,13.48852567177805
0.061874858391846824,0.49947354711553354,13.447309066695235
0.06237535889234733,0.47300371892800824,13.719228868861656
0.06287585939284783,0.3921344839741968,14.042459913761865
0.06337635989334832,0.279119446702551,13.27341251579771
0.06387686039384882,0.13762624996343836,13.552704824709283
0.06437736089434933,-0.02026994698947051,13.722483448098956
0.06487786139484983,-0.17850046708778536,13.725183429299575
0.06537836189535033,-0.31365813677654336,13.60584996166602
0.06587886239585082,-0.41802238790662344,13.519429855340618
0.06637936289635132,-0.4904866588859941,13.444478821852503
0.06687986339685183,-0.5006500911043078,13.755301865667368
0.06738036389735233,-0.4727385266317709,13.552493523368515
0.06788086439785282,-0.391693814507322,13.978782082501523
0.06838136489835332,-0.27834936017808315,13.744586898885009
0.06888186539885383,-0.1333627105001444,13.92408330845614
0.06938236589935433,0.02490010728888669,13.696841503629145
0.06988286639985483,0.17545047324139354,13.564153550421803
0.07038336690035532,0.31368631716347023,13.452443644486467
0.07088386740085582,0.4236483715027374,13.930126722471195
0.07138436790135633,0.48233827870940854,13.409632581319059
0.07188486840185683,0.5004745659851552,13.597947498719018
0.07238536890235732,0.4674521256732092,13.839723287491907
0.07288586940285782,0.38927076326800164,13.865127944508261
0.07338636990335833,0.2729289555203222,13.580711620293107
0.07388687040385883,0.13099121173626826,13.804542856142326
0.07438737090435933,-0.021749207125862757,13.61801318219973
0.07488787140485982,-0.17502282325615612,13.392923658591378
0.07538837190536032,-0.3136039537909925,13.638852180486813
0.07588887240586083,-0.4196405678515639,13.565274917726429
0.07638937290636133,-0.4903008748500092,13.601885846892964
0.07688987340686182,-0.4996846985946585,13.658174003696063
0.07739037390736232,-0.4670603331818698,13.884323874612623
0.07789087440786283,-0.392236993998356,13.758807178844409
0.07839137490836333,-0.2747078976220986,13.902035035542967
0.07889187540886383,-0.13141810771364476,13.52963760272695
0.07939237590936432,0.02968889299971054,13.608703263866936
0.07989287640986482,0.1778178659436505,13.518274770716424
0.08039337691036533,0.31280923615309264,13.81453974387422
0.08089387741086583,0.41805970809435794,13.471881233665961
0.08139437791136632,0.48403633496888204,13.642423414760461
0.08189487841186682,0.5004755643077183,13.38838446820561
0.08239537891236733,0.46667422216237264,13.626770200041799
0.08289587941286783,0.3918396765547157,13.636654968968566
0.08339637991336832,0.27140101644499487,13.620273248208566
0.08389688041386882,0.12772981564173497,13.380572897148491
0.08439738091436932,-0.03224373507694902,13.802220598356827
0.08489788141486983,-0.1723673634053688,13.82635314763208
0.08539838191537033,-0.31058617299651814,13.73262967985437
0.08589888241587082,-0.41700059255374156,13.542056099876612
0.08639938291637132,-0.49151959637542186,13.726483022077629
0.08689988341687183,-0.49836107986238404,13.625403804461193
0.08740038391737233,-0.47057374519856227,13.768627824563232
0.08790088441787282,-0.38688534622012966,13.42000960773294
0.08840138491837342,-0.2669350951261767,13.72386034436433
0.08890188541887382,-0.13108451534380056,13.751953710893813
0.08940238591937433,0.02719208111083688,13.789901531424615
0.08990288641987483,0.1809962676254584,13.3986154710891
0.09040338692037532,0.31972194980934726,13.890211627957166
0.09090388742087592,0.41818423942274024,13.752320355115081
0.09140438792137642,0.48776956637979424,13.725120584876267
0.09190488842187683,0.49872215668677516,13.549321765704722
0.09240538892237732,0.4627420371280231,13.623056086056042
0.09290588942287792,0.3906088296483056,13.606990426286645
0.09340638992337842,0.2702607391381316,13.602186705421419
0.09390689042387892,0.12713216806354505,13.782821295498975
0.09440739092437933,-0.030855936738372655,13.586060781578214
0.09490789142487982,-0.18485125654780069,13.478061571554264
0.09540839192538042,-0.3160562901656898,13.711493993609203
0.09590889242588092,-0.4201261360196405,13.596938153001792
0.09640939292638143,-0.4877219064006149,13.627359645380372
0.09690989342688182,-0.4997942263697072,13.717562662904662
0.09741039392738242,-0.46545733443184617,13.745907438403641
0.09791089442788292,-0.3853732484385585,13.542717953127017
0.09841139492838342,-0.2693776635680932,13.794172499277336
0.09891189542888393,-0.1214513515183825,13.756924809775152
0.09941239592938432,0.026670479132306347,13.57868615519619
0.09991289642988492,0.18080387695821898,13.606127643988234
0.10041339693038542,0.319437941016209,13.770176036443731
0.10091389743088593,0.42753352031260156,13.651607057406878
0.10141439793138643,0.4863460248169027,13.464656939538186
0.10191489843188692,0.49629355887451615,13.538181867713357
0.10241539893238742,0.46291114546426415,13.687898050408979
0.10291589943288793,0.38250723736501496,13.692017238730962
0.10341639993338843,0.26388648570114365,13.47859807660127
0.10391690043388893,0.12339038195486,13.50055042258823
0.10441740093438942,-0.030322197700465722,13.86031865433883
0.10491790143488992,-0.1876620869051354,13.708703961406531
0.10541840193539043,-0.3194983535034492,13.656725580596163
0.10591890243589093,-0.42326626800710226,13.799001845980744
0.10641940293639142,-0.4793749401304589,13.59259916839384
0.10691990343689192,-0.5047087680907767,13.52139220389535
0.10742040393739243,-0.4652111695754064,13.670454139393284
0.10792090443789293,-0.38910870911972134,13.37723703330158
0.10842140493839343,-0.26192401412243926,13.349444238263201
0.10892190543889392,-0.12322432105253485,13.758457086881764
0.10942240593939442,0.035669928761363864,13.68969012645313
0.10992290643989493,0.1875917084961111,13.545495242626021
0.11042340694039543,0.3182249978466019,13.619483210828646
0.11092390744089592,0.4256285841361067,13.51160853042483
0.11142440794139642,0.4893281657880367,13.509987511926402
0.11192490844189693,0.5037469711214139,13.749889097678345
0.11242540894239743,0.4628963644761444,13.721198837425924
0.11292590944289793,0.38400837407032856,13.808997587120718
0.11342640994339842,0.26915665249964804,13.686730654613239
0.11392691044389892,0.12148356224616731,13.550795043020877
0.11442741094439943,-0.03649323458528877,13.639718466482824
0.11492791144489993,-0.18963604979911705,13.636657208137242
0.11542841194540042,-0.32571379019259294,13.664111374427938
0.11592891244590092,-0.42638225969246046,13.712415764518443
0.11642941294640143,-0.49035251509334565,13.598745195270718
0.11692991344690193,-0.5055804959193618,13.670980729800087
0.11743041394740243,-0.46176454181484833,14.014456039292261
0.11793091444790292,-0.3844046171106616,13.384861673018149
0.11843141494840342,-0.2666739949666903,13.735206665125139
0.11893191544890393,-0.12369080500892785,13.564800843742633
0.11943241594940443,0.036721233444478335,13.519511127459765
0.11993291644990492,0.19050127871338687,14.060831621956183
0.12043341695040542,0.322961318858082,13.630565033580364
0.12093391745090593,0.42966813093987755,13.660455386898128
0.12143441795140643,0.4894850762882875,13.542809343883626
0.12193491845190693,0.49878027563167804,13.813135620355773
0.12243541895240742,0.46228100518549803,13.722896585811636
0.12293591945290792,0.383184460620305,13.6654653471618
0.12343641995340843,0.261414863935237,13.533687482940834
0.12393692045390893,0.11576050086462769,13.836537652542079
0.12443742095440943,-0.03733020940388428,13.642363160179727
0.12493792145490992,-0.1880632886431705,13.85285542956671
0.1254384219554104,-0.32914692679128243,13.517788605640199
0.12593892245591093,-0.4302596905654421,13.590437335565431
0.12643942295641142,-0.48342083055232005,13.693883705416905
0.12693992345691194,-0.5011371526619257,13.768028984691874
0.12744042395741242,-0.4667384144987461,13.498932484409814
0.1279409244579129,-0.3890575364384103,13.552276179520282
0.12844142495841343,-0.26228900788556564,13.68631291494063
0.12894192545891392,-0.11166231021871946,13.543189931805344
0.12944242595941444,0.03947196023074168,13.446828907159443
0.12994292645991493,0.19533980312198726,13.634995781277802
0.13044342696041542,0.3289458570345196,13.616967982630836
0.13094392746091593,0.4291959035889367,13.56828955229782
0.13144442796141642,0.4884366499525905,13.504657712931612
0.13194492846191694,0.5037449906856729,13.652990430797443
0.13244542896241743,0.456002121075767,13.541610512136861
0.13294592946291792,0.3758486744986606,13.490957017589187
0.13344642996341843,0.25610367441532633,13.390261319232556
0.13394693046391892,0.11631312871050632,13.645594351980497
0.1344474309644194,-0.045572375579533184,13.628892247234061
0.13494793146491993,-0.19008346513336222,13.40174149075851
0.13544843196542042,-0.3300205972991312,13.468246331691851
0.13594893246592094,-0.42706567762273384,13.679210186995821
0.13644943296642142,-0.4890477720041793,13.538224995746747
0.1369499334669219,-0.5037092291277637,13.674604312470917
0.13745043396742243,-0.4625272054687911,13.490742217273182
0.13795093446792292,-0.37744030654068217,13.524944118032586
0.13845143496842344,-0.26582174059590463,13.462447461308418
0.13895193546892393,-0.11330432981581748,13.676447410813129
0.13945243596942442,0.04625120296103344,13.628440286186736
0.13995293646992493,0.1949116974892699,13.567785952203417
0.14045343697042542,0.3300357403429194,13.544636260851787
0.14095393747092594,0.4356276002501386,13.502081381865501
0.14145443797142643,0.4880065939581145,13.666496934046116
0.14195493847192692,0.4912618841250614,13.564785750568657
0.14245543897242743,0.46024371668199043,13.64158340267295
0.14295593947292792,0.37775553730041805,13.615669059062254
0.1434564399734284,0.25642909834968997,13.365919217025375
0.14395694047392893,0.11119598515719158,13.635027344715803
0.14445744097442942,-0.044462647836712846,13.568810220885798
0.14495794147492994,-0.20392903081108069,13.665966623010707
0.14545844197543042,-0.33097557933364763,13.5978671383865
0.14595894247593091,-0.42804559968478706,13.39275516736612
0.14645944297643143,-0.48619862292878413,13.798738547926309
0.14695994347693192,-0.4996929823885874,13.649441615001036
0.14746044397743244,-0.4593154344051592,13.395923117413204
0.14796094447793293,-0.37628234208627936,13.632158013773727
0.14846144497843342,-0.2531444596753702,13.423364891550028
0.14896194547893393,-0.10982080757650577,13.698727489951283
0.14946244597943442,0.04836238885657882,13.548334445726953
0.14996294647993494,0.19321052068436828,13.562749024961676
0.15046344698043543,0.3280159811363208,13.576002292201675
0.15096394748093592,0.43610885649221964,13.554915225177508
0.15146444798143643,0.4901441085468493,13.917624362438941
0.15196494848193692,0.5010631870822647,13.550670056649972
0.1524654489824374,0.457680725182663,13.7133664531589
0.15296594948293793,0.3795395221157166,13.742822374034859
0.15346644998343842,0.25656891063409726,13.80649756150917
0.15396695048393894,0.11046209645727534,13.590593525326994
0.15446745098443943,-0.05133973677526875,13.525305469723245
0.15496795148493991,-0.2009445799322743,13.663590253034046
0.15546845198544043,-0.3322330788388369,13.688707220551889
0.15596895248594092,-0.43569554705377744,13.602776943147028
0.15646945298644144,-0.4931193810392669,13.767191490570806
0.15696995348694193,-0.500210561477683,13.38145004274038
0.15747045398744242,-0.45715980149653174,13.849720546692712
0.15797095448794293,-0.37304928740526144,13.551631000146743
0.15847145498844342,-0.25257221879637964,13.742907384350792
0.1589719554889439,-0.10900775509614355,13.674937361529171
0.15947245598944443,0.043912949436927376,13.614360254199825
0.15997295648994492,0.20813122077519786,13.478802374479017
0.16047345699044543,0.3296352171964528,13.81669050559659
0.16097395749094592,0.4382922320941335,13.412231095334263
0.1614744579914464,0.48777094232728235,13.66439845268565
0.16197495849194693,0.4954704108739632,13.497739787399237
0.16247545899244742,0.4593643529996385,13.419867214298058
0.16297595949294794,0.37749945389874134,13.62359622118628
0.16347645999344843,0.2558819884019936,13.569892639188486
0.16397696049394891,0.11056105483033095,13.625576376367441
0.16447746099444943,-0.05215853901537183,13.446774309937418
0.16497796149494992,-0.20718416823575775,13.290183444415996
