Time,Vin,Vout
0.004751856752623346,-0.001177107430926661,0.0023108577850892782
0.005252357253123846,0.1556073638495596,0.04963832189728543
0.005752857753624346,0.30536745018743233,0.17411263687238562
0.006253358254124846,0.41398868138220796,0.2997519112113101
0.006753858754625346,0.4924238271812363,0.4067866100465793
0.007254359255125846,0.5175685671369118,0.47579637590727136
0.007754859755626346,0.4886485034383,0.49319288402920153
0.008255360256126845,0.419021935749063,0.4624566320960587
0.008755860756627345,0.3096461388711969,0.3897247383398055
0.009256361257127846,0.16024316326512994,0.2752690054963246
0.009756861757628346,-0.0017915175777365624,0.13303870009908392
0.010257362258128847,-0.16218873847866175,-0.011387590059993022
0.010757862758629347,-0.30500912120689705,-0.16957833846332587
0.011258363259129846,-0.41982897689867804,-0.29979380833552355
0.011758863759630346,-0.49629891577639834,-0.4033931238556925
0.012259364260130846,-0.5147016434253948,-0.47641139109956016
0.012759864760631345,-0.4901588654654828,-0.4918220758452429
0.013260365261131847,-0.41588145430965695,-0.46286636331487546
0.013760865761632346,-0.30432663232872037,-0.3866501125154792
0.014261366262132846,-0.15955748563400365,-0.2712094442125776
0.014761866762633346,0.003710998557848245,-0.1339636372931862
0.015262367263133845,0.16424250541222857,0.02261315521260206
0.015762867763634347,0.3125246400293054,0.17442432475596187
0.016263368264134846,0.4225346834434426,0.30284856443050534
0.016763868764635346,0.49505706150296047,0.40447514198454904
0.017264369265135845,0.5173342900828444,0.4785021283251082
0.01776486976563635,0.4898354517383338,0.4954889732828626
0.018265370266136845,0.41430912412566573,0.4675294783416117
0.018765870766637348,0.303066923013584,0.3824962487501666
0.019266371267137844,0.1568694693287251,0.2701953259766493
0.019766871767638347,-0.0013563056453707132,0.13459310861477608
0.020267372268138847,-0.16536240719681847,-0.01966271445019476
0.020767872768639346,-0.3038862342772251,-0.1665237095202264
0.02126837326913985,-0.42503163600692084,-0.3056208423831658
0.021768873769640346,-0.49380581696374015,-0.40970797635857464
0.02226937427014085,-0.5203048643913409,-0.4764335199061043
0.022769874770641345,-0.4942126658548196,-0.49045536978251075
0.023270375271141848,-0.41824091902403426,-0.4609548080413484
0.023770875771642344,-0.301359031753303,-0.3783438669631363
0.024271376272142847,-0.15059453585344013,-0.2696982738626871
0.024771876772643343,0.007243672491682779,-0.1318141109044574
0.025272377273143846,0.16868842969692083,0.02822020072384375
0.025772877773644343,0.30841232186390966,0.1737014342775865
0.026273378274144846,0.4297403698023313,0.3062645962667854
0.02677387877464535,0.4948076682680994,0.41415517540722246
0.027274379275145845,0.5238279834836905,0.47895836934986336
0.027774879775646348,0.49488791012969313,0.49413947051768997
0.028275380276146844,0.4129306161389753,0.4602142685778449
0.028775880776647347,0.2959405216344387,0.3835548962920192
0.029276381277147843,0.15603023843316208,0.27112333133309924
0.029776881777648347,-0.008509331700534358,0.1292305925468091
0.030277382278148843,-0.16539481803162293,-0.028098177238273687
0.030777882778649346,-0.3146019234242088,-0.1755286683847094
0.03127838327914985,-0.4249689372298033,-0.30332286932114266
0.031778883779650345,-0.49458848678209605,-0.4053885182191432
0.03227938428015085,-0.5259721383501154,-0.4743864843169775
0.032779884780651344,-0.484195884887101,-0.4863084757896249
0.03328038528115185,-0.4092480481768051,-0.461999878939532
0.033780885781652344,-0.29066585580435994,-0.3846722911400559
0.03428138628215285,-0.14972572754116834,-0.26611939608962876
0.03478188678265334,0.007564408932270211,-0.12392725623754205
0.035282387283153846,0.17020432826118345,0.031704216178716445
0.03578288778365435,0.3112730589015941,0.1787589798797275
0.036283388284154845,0.4263492670067224,0.31207830585830615
0.03678388878465534,0.49306877001359856,0.4159207300917044
0.037284389285155844,0.5236472967836978,0.48068361112557256
0.03778488978565635,0.48719095998200196,0.490644249752258
0.038285390286156844,0.41521115008610965,0.4619852456720675
0.03878589078665735,0.2964290055084153,0.38024555383488196
0.03928639128715784,0.14561081229094558,0.2668158867287645
0.039786891787658346,-0.015609927537152426,0.13197008360661347
0.04028739228815884,-0.1691624365004253,-0.028290170868197063
0.040787892788659345,-0.31382442331708876,-0.17881558821230345
0.04128839328915984,-0.43047873709079426,-0.3093010902771186
0.041788893789660345,-0.4936302904510146,-0.41093193226278774
0.04228939429016085,-0.5197012297225913,-0.47712497654996633
0.042789894790661344,-0.48634109568587036,-0.4833950914401123
0.04329039529116185,-0.41723182705226197,-0.4547164387694833
0.04379089579166234,-0.29423672017979496,-0.37810701999660506
0.044291396292162846,-0.1470887933193178,-0.2647917346893182
0.04479189679266334,0.013078263551353667,-0.12372666559116366
0.045292397293163845,0.17890280104830497,0.02803855638977593
0.04579289779366434,0.3154811087814753,0.17849172772565222
0.046293398294164845,0.42552642776737765,0.31380684134798403
0.04679389879466534,0.49716950088768425,0.4179399052748669
0.047294399295165844,0.5140907254002515,0.4737093104562949
0.04779489979566635,0.4934148216788485,0.4927890249614477
0.04829540029616684,0.4114475435524486,0.4594550335330634
0.048795900796667346,0.2929730882855058,0.37612075853681864
0.04929640129716784,0.14481201875098376,0.26890465040025324
0.049796901797668346,-0.021972458166915693,0.12418860893584463
0.05029740229816884,-0.1790615954033306,-0.029012596788772854
0.050797902798669345,-0.31252445307558435,-0.18184154041430495
0.05129840329916984,-0.42610854537170245,-0.3110727639654837
0.051798903799670344,-0.4997114708617133,-0.41129891134239704
0.05229940430017085,-0.5178041190364857,-0.4773330964754496
0.05279990480067134,-0.4876760818792609,-0.4925858465080141
0.053300405301171846,-0.4119709821111202,-0.4534133751033133
0.05380090580167234,-0.28616678218976815,-0.3834483561052143
0.054301406302172846,-0.1440392190388636,-0.2579861747033412
0.05480190680267334,0.015519391800807926,-0.1256857445204546
0.055302407303173845,0.17540421311120674,0.03281589926127804
0.05580290780367434,0.3119689051028316,0.1835092759824758
0.056303408304174844,0.43374558824121806,0.3152220897890991
0.05680390880467535,0.4972446544211257,0.41850445431387934
0.057304409305175844,0.5224613549286138,0.4758926767507004
0.05780490980567635,0.4875472143434268,0.48553396481546857
0.05830541030617684,0.4101408580054168,0.4544539136177837
0.058805910806677346,0.29312280053954837,0.3832570072092462
0.05930641130717784,0.1441038420700735,0.25784690339920174
0.059806911807678345,-0.012881306908603958,0.11685103573249639
0.06030741230817884,-0.18157904062018135,-0.033948114122651196
0.060807912808679344,-0.32429251975570794,-0.1903720155469336
0.06130841330917985,-0.428380200952362,-0.3174305163538978
0.061808913809680344,-0.49465645326628477,-0.4115851386187342
0.06230941431018085,-0.5161315992291517,-0.48073429805587636
0.06280991481068135,-0.48023248957233167,-0.4906510767147247
0.06331041531118185,-0.4064245926608589,-0.4606549796156832
0.06381091581168234,-0.28623694479936146,-0.3792902714946348
0.06431141631218285,-0.14547295036842914,-0.26242850101704657
0.06481191681268335,0.017412167359266265,-0.11771942870591375
0.06531241731318385,0.18195974694731332,0.037265495890718925
0.06581291781368435,0.3190119928106948,0.1881509592678112
0.06631341831418484,0.42725011977740224,0.3161409127740722
0.06681391881468535,0.5002858282484675,0.41508850499294786
0.06731441931518585,0.519958270758556,0.4851847900514917
0.06781491981568635,0.4877633270163291,0.49002528628139
0.06831542031618686,0.405430125360492,0.45433201740633544
0.06881592081668735,0.29334001406599647,0.3796020103762259
0.06931642131718785,0.14203536260028252,0.25823889205186096
0.06981692181768835,-0.02421162726900249,0.11830685671474099
0.07031742231818885,-0.1796413069119575,-0.03685556098338924
0.07081792281868936,-0.3206697468079624,-0.18182550931876906
0.07131842331918985,-0.4340533932093372,-0.31428328689830837
0.07181892381969035,-0.49770804909502514,-0.4113639257017631
0.07231942432019085,-0.5241873254448474,-0.47616468049091437
0.07281992482069136,-0.4833590938748704,-0.48564597065596904
0.07332042532119185,-0.399232973798115,-0.45656542384693344
0.07382092582169235,-0.28586208284076187,-0.37278477704629853
0.07432142632219285,-0.13987399164541853,-0.2583715264325571
0.07482192682269335,0.02646088720764521,-0.10849221781176972
0.07532242732319386,0.18241296346922092,0.03984181598777963
0.07582292782369435,0.3227423808501529,0.19071469593096882
0.07632342832419485,0.4351071880757598,0.3113382537410418
0.07682392882469535,0.5000629461527122,0.4247686419286127
0.07732442932519586,0.5125638849110608,0.47951694275319834
0.07782492982569635,0.4846677213191011,0.48601219005726665
0.07832543032619685,0.4116654002493227,0.45747618252515854
0.07882593082669735,0.2888282680276539,0.36955746480098656
0.07932643132719785,0.13656816208794842,0.25444930707814994
0.07982693182769836,-0.02038908470503453,0.11620212210691734
0.08032743232819885,-0.1794053548961789,-0.03986388276700699
0.08082793282869935,-0.31923924596354525,-0.19163424676517493
0.08132843332919985,-0.4306733758178934,-0.3194685407940608
0.08182893382970036,-0.5006480746723849,-0.4192103460932721
0.08232943433020085,-0.5195172445907401,-0.47941581307680087
0.08282993483070135,-0.4840413190742191,-0.4907121121593725
0.08333043533120185,-0.40128729178562966,-0.4449290440586333
0.08383093583170236,-0.2829223067712327,-0.37741818854063275
0.08433143633220286,-0.13692542695031773,-0.2516478385160131
0.08483193683270335,0.021270451356387835,-0.11079830577857806
0.08533243733320385,0.18396414266584993,0.04701885782768063
0.08583293783370435,0.3316094175221041,0.1872751838503803
0.08633343833420486,0.43637696299811546,0.3280097144314288
0.08683393883470535,0.5016430491443317,0.4173079054687818
0.08733443933520585,0.5146404622910385,0.4770697976803252
0.08783493983570635,0.471950513374261,0.49032986273408563
0.08833544033620686,0.40065853908442467,0.45510806293071193
0.08883594083670734,0.27863703604621065,0.37708406694902286
0.08933644133720785,0.1385282382542874,0.25764139730345936
0.08983694183770835,-0.026648822812826906,0.11195516605384612
0.09033744233820885,-0.18575378540210832,-0.043053668310324776
0.09083794283870936,-0.32863310380096766,-0.19070750733578395
0.09133844333920985,-0.43713196964776524,-0.32167589286475085
0.09183894383971035,-0.49986167919198554,-0.4146793474090799
0.09233944434021085,-0.5218948451063806,-0.47584999021872865
0.09283994484071136,-0.4859402947375483,-0.4863790409150816
0.09334044534121184,-0.40029409964812646,-0.4518990475017033
0.09384094584171244,-0.28879182707103296,-0.3684803786277505
0.09434144634221285,-0.13238197821236566,-0.25300559059726324
0.09484194684271335,0.031078602954878614,-0.10565121074944749
0.09534244734321386,0.18449029626672556,0.0494191534303128
0.09584294784371435,0.320694131197312,0.19671759623671073
0.09634344834421495,0.44263241356823624,0.32503951732947256
0.09684394884471545,0.4963328627987812,0.4207185476186836
0.09734444934521586,0.5179434052584119,0.48497405450433495
0.09784494984571634,0.4817030098668456,0.48674502703724526
0.09834545034621694,0.40072829935738113,0.458547640967069
0.09884595084671745,0.28322492462422694,0.36960062763426854
0.09934645134721795,0.1334603482212182,0.25080676239303096
0.09984695184771836,-0.028832112394629447,0.10906526660331028
0.10034745234821885,-0.19185687687871808,-0.046022486552500255
0.10084795284871945,-0.33127381708168735,-0.19629767275744278
0.10134845334921995,-0.4332044108629407,-0.32811947261557245
0.10184895384972045,-0.4976544790590514,-0.4195236963185597
0.10234945435022084,-0.5204945739916789,-0.4829889993791143
0.10284995485072145,-0.4792398311736577,-0.48997719850161464
0.10335045535122195,-0.39565849529062463,-0.45116553799740555
0.10385095585172245,-0.2784130889346253,-0.3683595344950838
0.10435145635222295,-0.12946072086395163,-0.2550425374237967
0.10485195685272335,0.04166528263421759,-0.10424122969451867
0.10535245735322395,0.1897738225780654,0.04818796995357874
0.10585295785372445,0.32877529637905034,0.19936733190131276
0.10635345835422495,0.4370990754368291,0.33205154544730836
0.10685395885472546,0.5005900626595717,0.4234276809346621
0.10735445935522595,0.5168251057240766,0.4814853091613981
0.10785495985572645,0.4789412047504237,0.4939955226155784
0.10835546035622695,0.3992436094636853,0.4502807913632264
0.10885596085672745,0.2767486137983616,0.37056497786118425
0.10935646135722796,0.12237595168228985,0.25248805796685125
0.10985696185772845,-0.0410179943679013,0.1083086751008642
0.11035746235822895,-0.19335012764038703,-0.048737905988436296
0.11085796285872945,-0.3276257864755776,-0.19196422920545583
0.11135846335922996,-0.4345275036958076,-0.33153039015182545
0.11185896385973045,-0.49769788736981435,-0.42610654327318104
0.11235946436023095,-0.5136079358580071,-0.47833970952821564
0.11285996486073145,-0.4782483527538926,-0.48810076994430673
0.11336046536123195,-0.39553948263787814,-0.45305868334215504
0.11386096586173246,-0.27416701404908506,-0.36893311467613643
0.11436146636223295,-0.1281899302749055,-0.24415464064088108
0.11486196686273345,0.035606620234642165,-0.09734888911189528
0.11536246736323395,0.19991228035092196,0.04989523021861147
0.11586296786373446,0.33464352238328915,0.1978845699873233
0.11636346836423495,0.4383387522237139,0.3357181986153031
0.11686396886473545,0.5023910886344747,0.4312759284498559
0.11736446936523595,0.5204054298786432,0.48090945543900365
0.11786496986573645,0.4783875069530233,0.4836536666375316
0.11836547036623696,0.3994274539472313,0.44328002487299306
0.11886597086673745,0.27238471112509377,0.36674481324041
0.11936647136723795,0.12503764271130857,0.243509689442606
0.11986697186773845,-0.03741394273169511,0.09948618221225965
0.12036747236823896,-0.19185464930094742,-0.051728243173846646
0.12086797286873945,-0.32787976205910135,-0.20415645265480775
0.12136847336923995,-0.441306668254344,-0.3289449903735247
0.12186897386974045,-0.5032199364160136,-0.4258599464356388
0.12236947437024095,-0.5209083662432035,-0.47568939072978234
0.12286997487074146,-0.4861568568696228,-0.48926750158857585
0.12337047537124195,-0.3948166476159627,-0.44336510523231515
0.12387097587174245,-0.27051982273262193,-0.36920743327083366
0.12437147637224295,-0.12175872140759687,-0.2392039083148086
0.12487197687274346,0.035325886790197665,-0.0950210151999608
0.12537247737324395,0.2029100413951354,0.057234861592090736
0.12587297787374443,0.3363715953991664,0.20261091793132485
0.12637347837424495,0.43676260384232907,0.32967932618581697
0.12687397887474544,0.49666129428397593,0.43105602722209563
0.12737447937524596,0.51556327567132,0.4789568284970335
0.12787497987574645,0.4801762668473933,0.486458906636856
0.12837548037624694,0.39473346039885654,0.4514739203531633
0.12887598087674745,0.2758170146918062,0.37103668162244596
0.12937648137724794,0.12530745354409834,0.2404615033219759
0.12987698187774846,-0.040234625157524205,0.09965790155104569
0.13037748237824895,-0.1986374182276341,-0.0496627006552259
0.13087798287874944,-0.33468553583015676,-0.1969426571307602
0.13137848337924996,-0.4392649820134617,-0.3309477842958349
0.13187898387975044,-0.511459337883387,-0.4232225778016731
0.13237948438025096,-0.518164875359587,-0.48233513246599535
0.13287998488075145,-0.4745596022119803,-0.48873046463677705
0.13338048538125194,-0.38960335377923405,-0.44716380482471296
0.13388098588175246,-0.27076288843162455,-0.3631582099169412
0.13438148638225295,-0.12339565129731565,-0.24006338610415262
0.13488198688275346,0.04147984883072518,-0.09755837452037329
0.13538248738325395,0.19729019465674066,0.05227129097821217
0.13588298788375444,0.3376137253989777,0.2065878973238148
0.13638348838425496,0.45086813671282616,0.3311184072845498
0.13688398888475545,0.49837398448187226,0.4271058554239417
0.13738448938525596,0.5139347649116897,0.4813381230593721
0.13788498988575645,0.4756765452960576,0.4882494440991353
0.13838549038625694,0.3830103341288638,0.44563712238171954
0.13888599088675746,0.2673986242458311,0.3605813590890011
0.13938649138725795,0.1117402559132782,0.24487581268349987
0.13988699188775844,-0.04144291707143288,0.0990773339501892
0.14038749238825896,-0.2011588774044124,-0.058529833763331346
0.14088799288875944,-0.3400389949849919,-0.2049830496768174
0.14138849338925996,-0.446861171269984,-0.33206823403050767
0.14188899388976045,-0.5011165546854748,-0.4270492718276075
0.14238949439026094,-0.5159226976180168,-0.48365951520508366
0.14288999489076146,-0.47610313805817706,-0.48797417623526157
0.14339049539126195,-0.39120570108582464,-0.4440501161603012
0.14389099589176246,-0.26221807397410307,-0.3555706449118668
0.14439149639226295,-0.11370870151080353,-0.23667383329273686
0.14489199689276344,0.040071804492109786,-0.09991044564585674
0.14539249739326396,0.20357963252569516,0.06262685884868154
0.14589299789376445,0.342036527631112,0.21169810041501125
0.14639349839426496,0.441380021260099,0.3341189869689224
0.14689399889476545,0.5082470202309278,0.4298052837730347
0.14739449939526594,0.5151060275166731,0.487795429921606
0.14789499989576646,0.4767674810232223,0.49204590731995307
0.14839550039626695,0.3855481566556853,0.4474574913665367
0.14889600089676744,0.26535303938255644,0.36254281627375307
0.14939650139726796,0.11183461470070372,0.2378943477509454
0.14989700189776844,-0.045212346561675436,0.09459346005247858
0.15039750239826896,-0.20253903275119378,-0.05342033857473748
0.15089800289876945,-0.34527477506692983,-0.20802333928603003
0.15139850339926994,-0.44659765646527777,-0.3353674996737126
0.15189900389977046,-0.5076998596745352,-0.4328899627696712
0.15239950440027095,-0.5130421182141873,-0.4857826898744195
0.15290000490077146,-0.4741412790260699,-0.48844496649410285
0.15340050540127195,-0.3905979088272736,-0.44458627317064947
0.15390100590177244,-0.2617863734617854,-0.3575681623973569
0.15440150640227296,-0.11460746185445018,-0.23757166919807543
0.15490200690277345,0.04875212411556122,-0.09338086283862362
0.15540250740327397,0.20631993380509625,0.06609134533087055
0.15590300790377445,0.3399975345867775,0.21331341424113204
0.15640350840427494,0.4453283653070103,0.3402258520682779
0.15690400890477546,0.5045361941271975,0.4334081419550404
0.15740450940527595,0.515130789912735,0.48619148371053994
0.15790500990577644,0.47292564917661345,0.4885245111291621
0.15840551040627696,0.39085367046032365,0.4438651091664554
0.15890601090677745,0.2684558548243484,0.3567621032560325
0.15940651140727796,0.11762884094939798,0.23499750619005094
0.15990701190777845,-0.04822642719573696,0.08814376646839726
0.16040751240827894,-0.21388246348693704,-0.06636774405285624
0.16090801290877946,-0.341091091411185,-0.21344576214454244
0.16140851340927995,-0.45044190828386427,-0.33604596029737444
0.16190901390978046,-0.5077122802584054,-0.43455923287791454
0.16240951441028095,-0.5122949588513653,-0.48278889599227737
0.16291001491078144,-0.47500912189595346,-0.48388112205137696
0.16341051541128196,-0.3882710726933456,-0.44563219591141573
0.16391101591178245,-0.26076493428557684,-0.35184496847718605
0.16441151641228294,-0.11010220101038165,-0.23156537108862796
0.16491201691278345,0.05182836753145315,-0.08557550968873662
0.16541251741328394,0.2111586570119452,0.07041110227713406
0.16591301791378446,0.3426686917856795,0.2132673570884843
0.16641351841428495,0.44579269543199834,0.342502524242579
0.16691401891478544,0.5075767813917452,0.43700813282196826
0.16741451941528596,0.5149081017260937,0.4849080782949988
