Time,Vin,Vout
-0.004900017316985197,0.001039215334601383,0.006374802627952646
-0.004399516816484698,0.21615234057321595,0.13615100043687914
-0.003899016315984197,0.4176994678151575,0.436618737875096
-0.0033985158154836975,0.5799993467248385,0.7272637807114709
-0.0028980153149831974,0.6751800670166608,0.9560469643639672
-0.0023975148144826973,0.7070716192772184,1.0859151530809696
-0.0018970143139821973,0.6634594282504377,1.0965445281673187
-0.0013965138134816972,0.5681482564243537,0.9905005327794162
-0.0008960133129811976,0.42001423121625003,0.8188120170680379
-0.0003955128124806971,0.2139736159542741,0.5414391615030422
0.00010498768801980255,0.007026278790865247,0.21799718744849886
0.000605488188520303,-0.2181432622616995,-0.132897721042716
0.0011059886890208027,-0.4195440439181254,-0.4692624570026853
0.0016064891895213032,-0.5756922189956385,-0.7493034221793705
0.002106989690021803,-0.6741799279374372,-0.9646522785325373
0.0026074901905223024,-0.7046991331642503,-1.080015524409061
0.003107990691022802,-0.678551080463835,-1.1044680694986801
0.0036084911915233034,-0.5645108724417367,-0.991303737388828
0.004108991692023803,-0.4157424053868671,-0.8181930959630859
0.004609492192524303,-0.20934462888355806,-0.5434455869245124
0.005109992693024802,0.009920380716849694,-0.21287106622926064
0.005610493193525302,0.22272461023787882,0.14040778915884775
0.006110993694025803,0.4227202767389341,0.4527545356866526
0.006611494194526303,0.5748809168608019,0.7504652010253822
0.0071119946950268026,0.6761810496269697,0.9639608415758775
0.007612495195527302,0.6994976910791004,1.091293990517679
0.008112995696027803,0.676288438617761,1.1133460264239268
0.008613496196528302,0.5685630217905595,1.0013143723151035
0.009113996697028802,0.4106495116130585,0.7985357761738751
0.009614497197529302,0.21712800937381432,0.5429110201543366
0.010114997698029801,-0.0004007844581684867,0.21591354505991175
0.010615498198530304,-0.22880655423285112,-0.13505370934592276
0.0111159986990308,-0.42122482606115996,-0.4518935575214114
0.011616499199531304,-0.5735951233480642,-0.7422579374418339
0.012116999700031803,-0.6723113455996071,-0.9778691109633927
0.012617500200532303,-0.7024772643477701,-1.0930065770901218
0.013118000701032802,-0.6703040594633359,-1.1045477069963128
0.013618501201533302,-0.5688714930776341,-0.9896388793883056
0.014119001702033802,-0.40149198382938306,-0.8181229697728274
0.014619502202534301,-0.19827723182175327,-0.5264142143018016
0.015120002703034801,0.006065777607100816,-0.20745197613665903
0.0156205032035353,0.23002346661144693,0.136485206148596
0.0161210037040358,0.42708722952009276,0.46578160666814633
0.016621504204536303,0.5825361445427054,0.7598442759450678
0.017122004705036803,0.6690403405022316,0.9675089822096827
0.017622505205537303,0.7059663111721696,1.0761520756225091
0.018123005706037802,0.6681012492924632,1.1053689044426178
0.018623506206538302,0.56885029044019,0.9888029090729392
0.0191240067070388,0.39702317875450555,0.8017186592386015
0.0196245072075393,0.2017657620276954,0.5289902756708849
0.0201250077080398,-0.011385989299893443,0.22307887205712537
0.0206255082085403,-0.22555258188735783,-0.14827881326917558
0.021126008709040803,-0.4210220702719048,-0.46177286952449914
0.021626509209541303,-0.5755377278223245,-0.7684621187818278
0.022127009710041803,-0.6794609705268153,-0.9760123793928789
0.022627510210542302,-0.702509984842683,-1.0760583479351284
0.023128010711042802,-0.6655499378747977,-1.0886219027226753
0.0236285112115433,-0.562119113748276,-1.0020464591898333
0.0241290117120438,-0.40136459617792986,-0.8083335318805914
0.0246295122125443,-0.19513214454030603,-0.5224000625756737
0.0251300127130448,0.012648784492248377,-0.19289588787959025
0.025630513213545304,0.23094418694266394,0.15575389528905778
0.026131013714045803,0.4228111330613268,0.46976948517217526
0.026631514214546303,0.5829167211047597,0.7532236663648614
0.0271320147150468,0.6705929540087806,0.9705432072075548
0.027632515215547302,0.7104398731138863,1.0848203459291106
0.028133015716047805,0.6719547062511797,1.0983393934184074
0.0286335162165483,0.5608506636445234,0.9924359546229163
0.029134016717048804,0.4071265987726291,0.7980017721871979
0.0296345172175493,0.20805931675491576,0.5367170572428064
0.030135017718049804,-0.01577153451569143,0.2172916340626959
0.0306355182185503,-0.2363641392703389,-0.15250781161104873
0.031136018719050803,-0.4298764215921757,-0.4850367424063552
0.0316365192195513,-0.5833670699345458,-0.7806660619731727
0.032137019720051806,-0.6773063708092875,-0.9871276050029255
0.03263752022055231,-0.6982049535351215,-1.0776076063401743
0.033138020721052805,-0.671639358270724,-1.0979258607947147
0.03363852122155331,-0.5605804674675389,-0.9873451554790895
0.034139021722053804,-0.4081990708711841,-0.7853096675163044
0.03463952222255431,-0.19417554561084535,-0.5165324326096865
0.0351400227230548,0.02278076670151254,-0.19750493713223496
0.03564052322355531,0.23875833902263746,0.15976580268914997
0.0361410237240558,0.43025129344851337,0.48732177227584383
0.036641524224556306,0.5806620102462101,0.7593979502873559
0.0371420247250568,0.6774623279302331,0.9758907962431015
0.037642525225557305,0.7144304646165951,1.0905593791068489
0.03814302572605781,0.6710709949152921,1.0941223489236065
0.038643526226558304,0.5571048408299923,0.9787796730931908
0.03914402672705881,0.401085279937033,0.797303185172992
0.039644527227559304,0.19444869088892167,0.5169729707110498
0.04014502772805981,-0.021962624227139932,0.1901882215357248
0.0406455282285603,-0.23935146337318633,-0.1525365349676708
0.041146028729060806,-0.4415784054095977,-0.47402135818909324
0.0416465292295613,-0.5839449310625541,-0.7568684336077627
0.042147029730061805,-0.6732769527216862,-0.9824575828063534
0.04264753023056231,-0.7058665857230454,-1.0800660802845419
0.043148030731062804,-0.6628891886224618,-1.0899632558704726
0.04364853123156331,-0.5592817877740132,-0.9932360985416246
0.044149031732063804,-0.404004961284285,-0.7706895282734556
0.04464953223256431,-0.20021292198280594,-0.5083203068230715
0.0451500327330648,0.035346152797192665,-0.19342728252203167
0.045650533233565306,0.23166403038483452,0.16194902426618082
0.0461510337340658,0.4357792838862536,0.4915592654361073
0.046651534234566305,0.5843832144433391,0.7650877660907709
0.04715203473506681,0.6729262724551522,0.9740756067978544
0.047652535235567305,0.7031830427656398,1.0850540686914452
0.04815303573606781,0.67323991632986,1.0980364905770394
0.048653536236568304,0.5547552825561788,1.0058502319005536
0.04915403673706881,0.39590647402068907,0.7981917941163587
0.0496545372375693,0.1951309709716369,0.5084473348868089
0.050155037738069806,-0.019139804933969877,0.18917350252610715
0.0506555382385703,-0.2403201286167632,-0.15328786053647783
0.051156038739070805,-0.4316441951754481,-0.48182116636660455
0.05165653923957131,-0.5949169032221294,-0.7706185254098972
0.052157039740071805,-0.6843591473735737,-0.9833971924755023
0.05265754024057231,-0.7112702490780097,-1.084843560392523
0.053158040741072804,-0.6727099411674279,-1.1025822674546613
0.05365854124157331,-0.5568583563728576,-0.990809950301666
0.0541590417420738,-0.3964292861801971,-0.7853744261762889
0.054659542242574306,-0.19234064371970483,-0.4958378374793069
0.0551600427430748,0.029915929070948356,-0.17836547723381688
0.055660543243575306,0.24145820337901222,0.1639206141133373
0.05616104374407581,0.4456832817482458,0.49544881315819517
0.056661544244576305,0.5862586413726705,0.7595823059530321
0.05716204474507681,0.6835667306491736,0.9867899362597229
0.057662545245577304,0.7016190774399633,1.0825150150192235
0.05816304574607781,0.6610519251644831,1.102305720277398
0.05866354624657831,0.5507251519174665,0.9873038607059421
0.0591640467470788,0.3942166572959645,0.7922174913113424
0.0596645472475793,0.19217565688362548,0.4956089853404494
0.060165047748079806,-0.01997734720078315,0.1822122029293513
0.06066554824858031,-0.25485542293178465,-0.16990114274773027
0.06116604874908081,-0.4397740128121264,-0.49439041998297506
0.0616665492495813,-0.587011922093989,-0.7766403894851478
0.062167049750081804,-0.6842323195604122,-0.9892901164266554
0.06266755025058231,-0.7055198565348708,-1.088773359287082
0.06316805075108281,-0.6608823620868317,-1.086049875120342
0.0636685512515833,-0.546614967145335,-0.9830844905962001
0.0641690517520838,-0.3919238509647036,-0.7795355590372929
0.0646695522525843,-0.19263983150023103,-0.5040079335054893
0.06517005275308481,0.026559963720258855,-0.17832058425105018
0.06567055325358531,0.25176427906159726,0.16458951470332298
0.0661710537540858,0.4417879070545476,0.4940563300509384
0.0666715542545863,0.5894934519482886,0.7723407937876329
0.06717205475508681,0.6834389974405096,0.9838753174821697
0.06767255525558731,0.7081816302227164,1.0888822565454297
0.0681730557560878,0.6737611682500875,1.0999301043124403
0.0686735562565883,0.5549478628280587,0.9770324814899333
0.0691740567570888,0.39010246770348556,0.7730640185637558
0.06967455725758931,0.1923942184838964,0.5002292184378091
0.07017505775808981,-0.036550269144393015,0.16540691560013385
0.0706755582585903,-0.2461562543713249,-0.1635527424525284
0.0711760587590908,-0.4509908036785463,-0.5106217417588553
0.07167655925959131,-0.5937680987519697,-0.783255043012579
0.07217705976009181,-0.6724311986226054,-0.9921453029314666
0.0726775602605923,-0.7095312921173131,-1.0933498215635342
0.0731780607610928,-0.6565448871438441,-1.0898107330948739
0.0736785612615933,-0.5505555036143747,-0.9848072242349191
0.07417906176209381,-0.3883420635838237,-0.7805571721831138
0.07467956226259431,-0.1878784231771054,-0.4852864023169505
0.0751800627630948,0.03348288060753763,-0.1670784170745507
0.0756805632635953,0.25723270842805496,0.17851746917812947
0.07618106376409581,0.441399196251706,0.5091266316212794
0.07668156426459631,0.5957371827431243,0.7998852027610068
0.0771820647650968,0.6929152446785208,1.0002002375015882
0.0776825652655973,0.7025130275605357,1.1024677279677102
0.0781830657660978,0.6630676956204642,1.0847256094555242
0.07868356626659831,0.548230202721202,0.9703948650659657
0.0791840667670988,0.3829201169221299,0.7538604627016837
0.0796845672675993,0.18471527104632898,0.5039638526076102
0.0801850677680998,-0.04806708155594366,0.15469398817281346
0.08068556826860031,-0.24826657479574843,-0.1833345389621502
0.08118606876910081,-0.44367325022350407,-0.5115567767012421
0.0816865692696013,-0.6005168089398247,-0.7835733083099976
0.0821870697701018,-0.6814092650011202,-0.991487632245222
0.0826875702706023,-0.6970897324513952,-1.0698539992862552
0.08318807077110281,-0.661887599546976,-1.0960740355088514
0.0836885712716033,-0.5494793697681958,-0.9817901561885589
0.0841890717721039,-0.3805154421052354,-0.7683435274536339
0.0846895722726043,-0.1802006665836704,-0.49598805563818565
0.08519007277310481,0.037679563394619885,-0.15988179701325392
0.08569057327360531,0.26511098124848753,0.19122842991654154
0.0861910737741058,0.45275856369177203,0.5086654220044723
0.0866915742746064,0.5870336772883225,0.7931237149346193
0.0871920747751069,0.6842539219667206,0.9943875484981424
0.08769257527560731,0.6976287753077675,1.0936559548083804
0.0881930757761078,0.6621103534887965,1.0901190971094843
0.0886935762766084,0.551640768290324,0.9729269918294765
0.0891940767771089,0.3817048482887254,0.7801047825476893
0.0896945772776094,0.17965769486112068,0.48777467156258114
0.09019507777810981,-0.0462521205034007,0.16329075888945405
0.0906955782786103,-0.2571966348419868,-0.19467840336359057
0.0911960787791109,-0.45983058263570004,-0.5092499331723975
0.0916965792796114,-0.5916760519437665,-0.7935405400860487
0.0921970797801119,-0.6876113647723301,-0.9998533561419691
0.0926975802806123,-0.7081057179453204,-1.0864065184119818
0.0931980807811129,-0.6621232536205489,-1.0823199352967587
0.0936985812816134,-0.5509315365926903,-0.9709415685027926
0.0941990817821139,-0.37896745993362685,-0.7797319915067102
0.09469958228261441,-0.17227404726423193,-0.4807649327556307
0.0952000827831148,0.05348070220218489,-0.16279216092947507
0.0957005832836154,0.2587060486537197,0.19012788309437217
0.0962010837841159,0.45692301830890614,0.5150205766355427
0.09670158428461641,0.592186468244046,0.7909754035183046
0.09720208478511691,0.6886484701647917,0.9992300482187148
0.0977025852856174,0.7031810050485512,1.0943501173913759
0.0982030857861179,0.6549381485342649,1.0896880431352471
0.0987035862866184,0.5427414974774215,0.9670686452427945
0.09920408678711891,0.3742322975230406,0.7762175274394955
0.09970458728761941,0.17369281906430448,0.4898513332973056
0.1002050877881199,-0.044175079988525164,0.15490354051198993
0.1007055882886204,-0.2589723954657609,-0.20254914774751204
0.10120608878912091,-0.44704151214611143,-0.5291869113611332
0.10170658928962141,-0.5967551996410496,-0.7894583693796262
0.1022070897901219,-0.6860641450558018,-0.978591644054301
0.1027075902906224,-0.7090497412690182,-1.0727865995742232
0.1032080907911229,-0.6623187502443039,-1.0817641099609248
0.10370859129162341,-0.5425548584325386,-0.9799168408225909
0.10420909179212391,-0.38271105310228704,-0.7738445529574578
0.1047095922926244,-0.16765844575159713,-0.47417060410368345
0.1052100927931249,0.04493252623871444,-0.14936747426410418
0.10571059329362541,0.2666577929422673,0.20282660202823405
0.10621109379412591,0.4589445834543657,0.5302043273590247
0.1067115942946264,0.5982447872789326,0.7966887616018099
0.1072120947951269,0.6836809379133617,1.0019331097348703
0.1077125952956274,0.7125793614223498,1.082134437204419
0.10821309579612791,0.6566171985896807,1.0834764622186195
0.10871359629662841,0.5404630367781029,0.9711312897896948
0.1092140967971289,0.373441839398057,0.764974240682203
0.1097145972976294,0.1768138326288013,0.4808707291690786
0.11021509779812991,-0.04941460247360282,0.13385368176569373
0.11071559829863041,-0.2599117295700822,-0.19718033783399172
0.1112160987991309,-0.4585640979079242,-0.5311256942504987
0.1117165992996314,-0.6073263357403006,-0.803157286647098
0.1122170998001319,-0.686815051661142,-0.9953414904201491
0.11271760030063241,-0.7027048547159963,-1.108164159839064
0.11321810080113291,-0.6535561741408006,-1.0690434119722738
0.1137186013016334,-0.5385714232347653,-0.959776273534644
0.1142191018021339,-0.3673997586978311,-0.7473176825886166
0.11471960230263441,-0.1713161398732244,-0.47745867374478174
0.11522010280313491,0.057102139021071426,-0.13825073840853216
0.1157206033036354,0.2748679424912674,0.21324584462344665
0.1162211038041359,0.463524646218861,0.52845553028761
0.1167216043046364,0.6023896471457268,0.7973783728065016
0.11722210480513691,0.6803425958635557,1.0090709729919007
0.11772260530563741,0.7031531204471103,1.107396492063696
0.1182231058061379,0.6512701543310577,1.077423868313622
0.1187236063066384,0.5377124634998953,0.9633131589479447
0.11922410680713891,0.37539924720227996,0.7567786600563421
0.11972460730763941,0.16699376611359062,0.4713555029257787
0.12022510780813991,-0.04712366753916154,0.14276617417429066
0.1207256083086404,-0.2748479043153334,-0.20855635561732125
0.12122610880914089,-0.4588804204292856,-0.5313918091996358
0.12172660930964141,-0.6075615787354882,-0.8007667562668301
0.1222271098101419,-0.6877122583576333,-1.0101603212580568
0.12272761031064242,-0.7038312475922257,-1.1014686670041627
0.1232281108111429,-0.6576861691367184,-1.0786579707451918
0.1237286113116434,-0.5406732570970088,-0.9682903648335183
0.12422911181214391,-0.3638994915575396,-0.7572806875581125
0.1247296123126444,-0.16064145585196343,-0.45514924723913935
0.12523011281314492,0.051698374070329636,-0.12499444337126023
0.1257306133136454,0.27235454094874983,0.21542087862572043
0.1262311138141459,0.4581223446637662,0.5386076435109047
0.1267316143146464,0.6056775068131338,0.8016369369065505
0.1272321148151469,0.6884360105902196,1.0065319418489473
0.12773261531564742,0.7043645564635123,1.1049864488364645
0.1282331158161479,0.6514664451305305,1.073522425584356
0.1287336163166484,0.5391799417023203,0.9704300012914133
0.12923411681714891,0.3708965725858676,0.7374184031462562
0.1297346173176494,0.1645430054685867,0.45496656155088433
0.1302351178181499,-0.06161876488638031,0.1374672275290344
0.1307356183186504,-0.2727486932245638,-0.21245926548626415
0.1312361188191509,-0.4657837773635153,-0.5474191276591771
0.13173661931965142,-0.6066891998607598,-0.8104578361019026
0.1322371198201519,-0.6935812514463487,-1.0179383201011445
0.1327376203206524,-0.7079516290117093,-1.0952472379044869
0.1332381208211529,-0.648337726637561,-1.0836945846977695
0.1337386213216534,-0.5429279611341941,-0.9695317531677812
0.13423912182215392,-0.36123303417183367,-0.7510622772983448
0.1347396223226544,-0.16591048516598234,-0.46866145205304055
0.1352401228231549,0.06011786285446812,-0.12265747319464261
0.1357406233236554,0.2760675180124237,0.23721877830880503
0.1362411238241559,0.4689699487709551,0.55050285403096
0.13674162432465642,0.6046492388898531,0.8079500682999226
0.1372421248251569,0.6927134360812397,1.0027286714679247
0.1377426253256574,0.7030621355862638,1.0931130992572673
0.13824312582615791,0.6477761752400315,1.0819225228733713
0.1387436263266584,0.5326434284218168,0.9658404757882558
0.1392441268271589,0.36827215820586645,0.7487596631606455
0.1397446273276594,0.15943352961165028,0.46682272946463116
0.1402451278281599,-0.06467151037631219,0.12044769909173506
0.14074562832866042,-0.2812838253511707,-0.21215306327019262
0.1412461288291609,-0.4678111855675081,-0.5489406162925325
0.1417466293296614,-0.6033784228219692,-0.8061015018618184
0.1422471298301619,-0.6913489559399368,-0.9994860463334672
0.1427476303306624,-0.7052777938444893,-1.093810258345202
0.14324813083116292,-0.6511065867553122,-1.0865372743388184
0.1437486313316634,-0.527356307628685,-0.9681590780402446
0.1442491318321639,-0.3622721579945163,-0.7358586608787717
0.1447496323326644,-0.1553282652366464,-0.44418930105126986
0.1452501328331649,0.05874380623413928,-0.11778746957433689
0.14575063333366542,0.28170368866317796,0.22026969149258394
0.1462511338341659,0.46835267515541296,0.5481290880901935
0.1467516343346664,0.6106514199445605,0.8193504319970203
0.14725213483516691,0.687019279215801,1.002793887826132
0.1477526353356674,0.7080020101636518,1.0912779696474941
0.1482531358361679,0.6453196031145594,1.0692669088005764
0.1487536363366684,0.535958276679485,0.9587110958696352
0.1492541368371689,0.362492713508247,0.7419019609836925
0.14975463733766942,0.15580213570225906,0.4536092502573377
0.1502551378381699,-0.06531104709312195,0.11580722732495292
0.1507556383386704,-0.27985559373982455,-0.22063098910857762
0.1512561388391709,-0.47274476723208275,-0.5438698128116065
0.1517566393396714,-0.6051388065852001,-0.813530161088284
0.15225713984017192,-0.6833797546989111,-1.0044059285442872
0.1527576403406724,-0.7080633185451066,-1.102087082224221
0.1532581408411729,-0.6506453619257204,-1.0816101859184148
0.1537586413416734,-0.5296972276461679,-0.9548112701863968
0.1542591418421739,-0.3561089259339215,-0.7293973113593776
0.1547596423426744,-0.15318621499243973,-0.44125474118609936
0.1552601428431749,0.07586538108497731,-0.11199985597002653
0.1557606433436754,0.28101111751715746,0.23742651410489612
0.15626114384417591,0.46889622936032616,0.5430559464145251
0.1567616443446764,0.6036559061441089,0.8227311047248494
0.1572621448451769,0.6965960351691388,1.0097614151608787
0.1577626453456774,0.7001394829876821,1.0934285389631524
0.1582631458461779,0.6425811022127887,1.0788844726422375
0.15876364634667842,0.525843491688501,0.951873774327739
0.1592641468471789,0.3511341839092554,0.7408439809590598
0.1597646473476794,0.14548759878958276,0.43922641892800046
0.1602651478481799,-0.07151000868566376,0.10684579361925098
