Time,Vin,Vout
0.006116557707202543,0.0025005131714393985,-4.001621699139423e-05
0.006617058207703043,0.0938765072882,0.054771098997096854
0.007117558708203543,0.17957106030261383,0.18591510762275196
0.007618059208704043,0.2506363308881942,0.30901425796104637
0.008118559709204543,0.2916904505526523,0.39422711642296554
0.008619060209705043,0.3097933739929865,0.4511244306154808
0.009119560710205542,0.29608365583028046,0.4504438789775701
0.009620061210706042,0.25039964379640933,0.416244019422803
0.010120561711206542,0.17938028620228338,0.3316160160777948
0.010621062211707043,0.09301499552968774,0.22294591073680875
0.011121562712207543,0.0003881153909836957,0.09402300868397416
0.011622063212708044,-0.09775467230138898,-0.05124398198100543
0.012122563713208544,-0.178610144341449,-0.1878230339347811
0.012623064213709043,-0.24766813283285535,-0.3129301637947337
0.013123564714209543,-0.2914472393115521,-0.3952769178730296
0.013624065214710043,-0.3089434517435164,-0.45086711075488267
0.014124565715210542,-0.29281105809563307,-0.4500723126901515
0.014625066215711044,-0.24777553112804712,-0.4100172229442251
0.015125566716211543,-0.17788451039550768,-0.3377593306615904
0.015626067216712045,-0.09049785718361432,-0.22064835496971877
0.01612656771721254,-0.0025892756726345954,-0.08843767440323524
0.016627068217713044,0.09791730745687219,0.04932109220871973
0.017127568718213543,0.18382451036275202,0.18753720429135728
0.017628069218714043,0.2500996563772337,0.31315493488243074
0.018128569719214543,0.2954385864187374,0.3983347812852366
0.018629070219715042,0.3070430415240011,0.44735737187688596
0.019129570720215545,0.2884924054118786,0.4526232836962212
0.01963007122071604,0.24838783668089184,0.41489032805685466
0.020130571721216545,0.1808232123654053,0.3318074060418686
0.02063107222171704,0.09123532572392401,0.221872382000771
0.021131572722217544,-0.0020964255182814866,0.09014933291012577
0.021632073222718044,-0.09574155939950534,-0.056639121285695766
0.022132573723218543,-0.18599590289946188,-0.19149847348271087
0.022633074223719046,-0.2543423334717303,-0.31041873888883287
0.023133574724219542,-0.2921007758261134,-0.3968531444720995
0.023634075224720046,-0.3095746786961405,-0.44589961798620353
0.02413457572522054,-0.29413529569461166,-0.4522173488346812
0.024635076225721045,-0.24682893746238183,-0.4111697832741326
0.02513557672622154,-0.1786467993370014,-0.335806622000978
0.025636077226722044,-0.0905766378429891,-0.21916328008968217
0.02613657772722254,0.0009395930596389899,-0.08244488372262346
0.026637078227723043,0.10017819743602573,0.05878083701966629
0.02713757872822354,0.1836106899475973,0.1892598234178811
0.027638079228724043,0.25237913794307837,0.30966033620617306
0.028138579729224546,0.2926024188115264,0.39796608127553124
0.028639080229725042,0.307902854639436,0.4493541505325959
0.029139580730225545,0.29328598937257094,0.4507054186089409
0.02964008123072604,0.24741778877278567,0.41058485531423766
0.030140581731226544,0.1788910649679581,0.3390091842321199
0.03064108223172704,0.09361987816548302,0.2195698503770513
0.031141582732227543,-0.005287691501302001,0.08402215743861953
0.03164208323272804,-0.10018402058133526,-0.06111213557420522
0.03214258373322854,-0.18265170212121748,-0.19217992593026548
0.032643084233729046,-0.25698285901119855,-0.31122262264068223
0.03314358473422954,-0.29527547171750174,-0.3975386288942645
0.033644085234730045,-0.3089495227277762,-0.4484179429441298
0.03414458573523054,-0.2924721010154651,-0.45235397367308533
0.034645086235731044,-0.246129379993874,-0.412071975548549
0.03514558673623154,-0.17391909652337317,-0.32321533520131246
0.035646087236732044,-0.08817841278899524,-0.21685885789709036
0.03614658773723254,0.004668612142957291,-0.07783308746005892
0.03664708823773304,0.10127986927618711,0.05972334777193241
0.037147588738233546,0.18548932509234559,0.19853234063674574
0.03764808923873404,0.25439461200397995,0.3159399460317451
0.03814858973923454,0.2955096062372217,0.40173385134602063
0.03864909023973504,0.31038381394888404,0.45186918600367204
0.039149590740235544,0.29181949646987015,0.4566981842396924
0.03965009124073604,0.24449793998338124,0.4128076784175486
0.040150591741236544,0.17641445658068122,0.3377862781278028
0.04065109224173704,0.08550277613322241,0.21716370888100345
0.04115159274223754,-0.004109466137271658,0.081364024108821
0.04165209324273804,-0.10274861108661687,-0.06162428948268092
0.04215259374323854,-0.18855477887974337,-0.19226752698687724
0.04265309424373904,-0.25657325379764356,-0.3166589345313793
0.04315359474423954,-0.29756164995358597,-0.4018350229908247
0.043654095244740045,-0.30942867007964814,-0.44841835130842383
0.04415459574524054,-0.2932477704800044,-0.44913302861112697
0.044655096245741044,-0.2460215275435342,-0.40026388134109836
0.04515559674624154,-0.17519001874305817,-0.3257945418733597
0.04565609724674204,-0.08785397214715317,-0.21403489546312376
0.04615659774724254,0.005333825049856792,-0.0830968679248224
0.04665709824774304,0.10518512810371006,0.06456670505985797
0.04715759874824354,0.18876510979968664,0.19808575623928912
0.04765809924874404,0.2543757815767289,0.31460609585330795
0.04815859974924454,0.29263578956564523,0.40138174881686917
0.04865910024974504,0.30713435084244645,0.44653261605481015
0.049159600750245544,0.2910849019577844,0.45453764683715603
0.04966010125074604,0.24204672721860274,0.41388298142475033
0.05016060175124654,0.17658810871217676,0.331709458357511
0.05066110225174704,0.0854559791890619,0.2102652618833875
0.05116160275224754,-0.00608751863444463,0.08042491079778546
0.05166210325274804,-0.10335009714256085,-0.06453550188310139
0.05216260375324854,-0.182043550776333,-0.1973249504395905
0.05266310425374904,-0.2528697261407856,-0.318338517279313
0.05316360475424954,-0.2925790262677981,-0.3996163753764713
0.053664105254750044,-0.30682358513542113,-0.44325538499363015
0.05416460575525054,-0.2916531884580618,-0.45409142889686177
0.05466510625575104,-0.24074541974662192,-0.4070920981733668
0.05516560675625154,-0.17239202660925096,-0.32521918413452977
0.05566610725675204,-0.08985511004656203,-0.21265812288604938
0.05616660775725254,0.010888760354400836,-0.07798927911678818
0.05666710825775304,0.1073511814322303,0.06894053421236349
0.05716760875825354,0.19416608862312704,0.20489158802186386
0.05766810925875404,0.25814159864807507,0.3153638724562847
0.058168609759254544,0.29784967380058597,0.4064558344390529
0.05866911025975504,0.3086104305027808,0.44522585789045194
0.059169610760255544,0.28868450521785227,0.4523831726527048
0.05967011126075604,0.2465467600312053,0.4108602069745207
0.06017061176125654,0.1735419937521985,0.3265705858830193
0.06067111226175704,0.08207473768669178,0.21388270844031948
0.06117161276225754,-0.01064041694951651,0.07647356749326627
0.06167211326275804,-0.10427359623934111,-0.06844476361369325
0.06217261376325854,-0.18949551769369413,-0.20187815298874356
0.06267311426375904,-0.25642489332314633,-0.3175768270532692
0.06317361476425955,-0.29084845547905774,-0.39902969772624747
0.06367411526476005,-0.3102137366718028,-0.44947961919078827
0.06417461576526054,-0.2879852908377519,-0.4490477962591102
0.06467511626576104,-0.24552678439310036,-0.41186212632709585
0.06517561676626155,-0.17138674151812372,-0.3231193850048261
0.06567611726676205,-0.08468040588329825,-0.2118201492334555
0.06617661776726254,0.009933979532627866,-0.07547025309403621
0.06667711826776304,0.10569552845887872,0.06342724676306666
0.06717761876826354,0.19484505772028424,0.20150495562813336
0.06767811926876405,0.25512452038147193,0.31959349664175013
0.06817861976926455,0.2947423646108962,0.40704293997663693
0.06867912026976504,0.3090075357789723,0.44739326039932836
0.06917962077026554,0.29157258573204853,0.45391433185101115
0.06968012127076605,0.24492464668664124,0.4120139235952988
0.07018062177126654,0.17131173664673593,0.32558115770777357
0.07068112227176704,0.08172282760869469,0.2090021907561768
0.07118162277226754,-0.015263850153103347,0.07573892264254557
0.07168212327276804,-0.10572347103852697,-0.06758689262594648
0.07218262377326855,-0.19186392355586623,-0.2023975901376162
0.07268312427376904,-0.2596219087313638,-0.32210393240576907
0.07318362477426954,-0.29564235438854974,-0.39791423951471483
0.07368412527477004,-0.31242595576091575,-0.4557611069871929
0.07418462577527055,-0.2892445831746524,-0.45620902296742954
0.07468512627577104,-0.2388691157132487,-0.4057628912175517
0.07518562677627154,-0.17291931171473923,-0.32419498652933715
0.07568612727677204,-0.08682415221201775,-0.21373691221527705
0.07618662777727254,0.011605776517642798,-0.07201745269432169
0.07668712827777305,0.10953086632683903,0.07151607564715269
0.07718762877827354,0.19234586386951902,0.20839946049005137
0.07768812927877404,0.2567040399828227,0.32141839963164703
0.07818862977927454,0.295399621342385,0.4070459108320937
0.07868913027977505,0.31030113759699607,0.44546748174438305
0.07918963078027554,0.2894644058331686,0.4481119757858863
0.07969013128077604,0.24061945196266024,0.40210370053472627
0.08019063178127654,0.17259880751179557,0.3292126447555504
0.08069113228177704,0.08316147947638691,0.2100425432376623
0.08119163278227755,-0.014113541076081497,0.07225519044015334
0.08169213328277804,-0.11156300747587909,-0.06862631129801935
0.08219263378327854,-0.1912622123966504,-0.20492506665042612
0.08269313428377904,-0.2550708193648661,-0.3230057649476278
0.08319363478427955,-0.29301133807719976,-0.4049908447112929
0.08369413528478004,-0.3056902852654652,-0.45016889466800275
0.08419463578528054,-0.2899172359690436,-0.45379135090087336
0.08469513628578104,-0.2425383110256314,-0.40597758354133484
0.08519563678628155,-0.1687427621321705,-0.32150636794737336
0.08569613728678205,-0.0814065114449794,-0.20953371378951977
0.08619663778728254,0.016536515496689587,-0.06729370275381724
0.08669713828778304,0.11037130731445276,0.07254678300012131
0.08719763878828354,0.19388119069389276,0.20539805444901404
0.08769813928878405,0.2547649473065104,0.32494778093113275
0.08819863978928454,0.3003034279979351,0.40729353378053174
0.08869914028978504,0.30963729406098184,0.44635321335900213
0.08919964079028554,0.29195058744338875,0.45106918570675714
0.08970014129078605,0.2387738494432661,0.4052731399463479
0.09020064179128653,0.16728172471214198,0.32381914783706395
0.09070114229178704,0.07864504298852534,0.20536411941773736
0.09120164279228754,-0.020064550612836896,0.0721178851382258
0.09170214329278804,-0.11002162836393775,-0.08059028903818029
0.09220264379328855,-0.1954510665528397,-0.20846177353272338
0.09270314429378904,-0.2618115641635872,-0.3256306479082632
0.09320364479428954,-0.29801019805482276,-0.4067395094722796
0.09370414529479004,-0.3058212150256605,-0.45036365451495136
0.09420464579529055,-0.28488015374215203,-0.4480364198704209
0.09470514629579103,-0.23657199669929835,-0.4047071376472083
0.09520564679629163,-0.16868504740272522,-0.32035473800749037
0.09570614729679204,-0.07840297767464244,-0.20611748819655018
0.09620664779729254,0.01366905861624251,-0.06983487790389846
0.09670714829779305,0.11378725804821381,0.07601118091547182
0.09720764879829354,0.19525591425903804,0.21351094674893262
0.09770814929879414,0.26006145380439144,0.3298771997170392
0.09820864979929464,0.3010557916669964,0.4116108319435616
0.09870915029979505,0.30600809996224637,0.44823824429401415
0.09920965080029553,0.28645935632885583,0.4502735972006759
0.09971015130079613,0.23626024731058198,0.4091748009787617
0.10021065180129664,0.16674153871592506,0.32067974805936994
0.10071115230179714,0.08209638017646088,0.20073784995105085
0.10121165280229755,-0.01882402564439418,0.06892726459839851
0.10171215330279804,-0.11185174569699967,-0.08320979171165553
0.10221265380329864,-0.19441961803477156,-0.21298137814596957
0.10271315430379914,-0.2615938321045617,-0.32211686692250235
0.10321365480429964,-0.29831982943540825,-0.4091651401447755
0.10371415530480003,-0.30037485078964,-0.4473703175098721
0.10421465580530063,-0.2903801159641816,-0.45154429838406507
0.10471515630580114,-0.23683018624739588,-0.4023004716103835
0.10521565680630164,-0.1641413299399973,-0.3181550012192337
0.10571615730680214,-0.07828469716364138,-0.1990548724111573
0.10621665780730254,0.019115957315859067,-0.06127112450333753
0.10671715830780314,0.11520293610424576,0.07687974692652867
0.10721765880830364,0.19922860508002546,0.21798726929977652
0.10771815930880414,0.2601602071661786,0.3294001186077337
0.10821865980930465,0.29865266174947286,0.40648019797938073
0.10871916030980514,0.3046387259109632,0.450511606273777
0.10921966081030564,0.2894648996285176,0.4484905711576687
0.10972016131080614,0.23506200230227525,0.4000818525742478
0.11022066181130664,0.1665776818401921,0.31801168082596754
0.11072116231180715,0.07591948778816897,0.1992932642558203
0.11122166281230764,-0.021391260131511984,0.06906254492326061
0.11172216331280814,-0.11327682842818008,-0.0747410935760533
0.11222266381330864,-0.19640464574064367,-0.21021613314588938
0.11272316431380915,-0.2595550418253175,-0.32986913740607493
0.11322366481430964,-0.2992179349795599,-0.40776052421743925
0.11372416531481014,-0.3101842492513045,-0.4479343506548508
0.11422466581531064,-0.2852865844426305,-0.4457049959421968
0.11472516631581114,-0.23539186267044196,-0.39723460589077964
0.11522566681631165,-0.16311262519353087,-0.31285958789998836
0.11572616731681214,-0.07424768350335764,-0.19614208624777787
0.11622666781731264,0.021956909815943563,-0.057757990368714845
0.11672716831781314,0.11519710667869587,0.08208447095000607
0.11722766881831365,0.19504687694116157,0.21487745794621313
0.11772816931881414,0.2609043987638032,0.33157658866970124
0.11822866981931464,0.3033657627852485,0.410997905077096
0.11872917031981514,0.30660733724797984,0.4531694930847492
0.11922967082031564,0.28897791740507595,0.4509181710763778
0.11973017132081615,0.2358353420065821,0.39536979206579204
0.12023067182131664,0.1621122837813485,0.3154356410802462
0.12073117232181714,0.07094837298797389,0.19759984683139747
0.12123167282231764,-0.01831690158328883,0.06074657140931546
0.12173217332281815,-0.11900302570403451,-0.08620649227761693
0.12223267382331864,-0.20005910353097306,-0.21496409973321493
0.12273317432381914,-0.2612676788859202,-0.3352336031232624
0.12323367482431964,-0.2963667098822948,-0.4146207873860241
0.12373417532482014,-0.3067828709806099,-0.45633800784454787
0.12423467582532065,-0.286896008151677,-0.45368069764451896
0.12473517632582114,-0.23237526145791285,-0.39428064392328566
0.12523567682632164,-0.16465017996004794,-0.31187716109415997
0.12573617732682216,-0.07036662854451037,-0.18791224183414384
0.12623667782732265,0.02474064148337786,-0.05867655846219107
0.12673717832782314,0.12058576178851606,0.08509684133638977
0.12723767882832365,0.19812746454765767,0.22278510382811015
0.12773817932882414,0.26407566828930745,0.328755765116263
0.12823867982932466,0.3012668456205211,0.411493630780629
0.12873918032982515,0.3063656772963445,0.45141210285078237
0.12923968083032564,0.28126910309773534,0.4475421588855158
0.12974018133082615,0.23214878682462325,0.40128504084871575
0.13024068183132664,0.16183016997835223,0.30929616207629557
0.13074118233182716,0.07126625841064776,0.19257439279609845
0.13124168283232765,-0.02194011656037135,0.06007742650221074
0.13174218333282814,-0.11976982100665706,-0.08382486469078951
0.13224268383332863,-0.19940229843096952,-0.2198412359660483
0.13274318433382915,-0.26296087553982866,-0.33406198475014964
0.13324368483432963,-0.3005987875627312,-0.4112397203017046
0.13374418533483015,-0.3062861589685688,-0.45130824173864653
0.13424468583533064,-0.28441305725315047,-0.44435582867780726
0.13474518633583113,-0.23414060894701516,-0.40033557024255734
0.13524568683633165,-0.16111822327601968,-0.31014764081251606
0.13574618733683214,-0.0719724959564336,-0.19763283235213516
0.13624668783733265,0.027151419179929134,-0.056036641961363334
0.13674718833783314,0.11602857288712973,0.08484990666983343
0.13724768883833363,0.20187606532989213,0.21564573796335323
0.13774818933883415,0.2623414600748475,0.3397855274209088
0.13824868983933464,0.29937731177589233,0.41560781409580155
0.13874919033983515,0.3020683658428809,0.4538485239030646
0.13924969084033564,0.28674687526492626,0.44647457537940105
0.13975019134083613,0.23174893393460813,0.3975283863124208
0.14025069184133665,0.1605378505354325,0.30833645881031624
0.14075119234183714,0.06980866480023447,0.1896254401956007
0.14125169284233763,-0.02372558087251765,0.05473104423766741
0.14175219334283815,-0.11998955757113336,-0.08663904810036319
0.14225269384333863,-0.2016486231149468,-0.2235398061021195
0.14275319434383915,-0.26387804468238063,-0.3318220515014845
0.14325369484433964,-0.30438269573803534,-0.4162817254199213
0.14375419534484013,-0.30475703652588754,-0.450094995089948
0.14425469584534065,-0.2844566497769283,-0.4467401838517011
0.14475519634584114,-0.2310147365207674,-0.39225942650136586
0.14525569684634165,-0.1594822392388807,-0.3073490533287309
0.14575619734684214,-0.07288002859632081,-0.18583006731822577
0.14625669784734263,0.02717078967306238,-0.049434488417023144
0.14675719834784315,0.11982702307963741,0.09191805402518326
0.14725769884834364,0.202547516033888,0.22546651770749837
0.14775819934884415,0.26533578661093055,0.3351450083945776
0.14825869984934464,0.3012347600104835,0.4129595533935748
0.14875920034984513,0.3087213397504419,0.45009605742909164
0.14925970085034565,0.2843372070116844,0.44922811103951
0.14976020135084614,0.23668005207142648,0.3963106179013307
0.15026070185134663,0.15703829573712652,0.30957330320597465
0.15076120235184715,0.06949344098506026,0.19108838063521313
0.15126170285234763,-0.028825770634686672,0.05135618875163056
0.15176220335284815,-0.12376895217630852,-0.09165334740827397
0.15226270385334864,-0.20324188603324173,-0.2265068106092975
0.15276320435384913,-0.26675996196068685,-0.33570780409223494
0.15326370485434965,-0.30467467389417874,-0.4156126456332208
0.15376420535485014,-0.30667856507324015,-0.4487984625982479
0.15426470585535065,-0.2842495859440821,-0.4446741942836515
0.15476520635585114,-0.2303406173041657,-0.3936626519171097
0.15526570685635163,-0.15849013146469587,-0.3080161109525308
0.15576620735685215,-0.06699796599818518,-0.19191040029377557
0.15626670785735264,0.02940176412448074,-0.04694143537824451
0.15676720835785315,0.12256303570834555,0.09214083246101835
0.15726770885835364,0.20322808643071216,0.22946376601088292
0.15776820935885413,0.2661939630414646,0.33715930163994867
0.15826870985935465,0.30542723651764353,0.4205973422710427
0.15876921035985514,0.3072238723254542,0.452380566364683
0.15926971086035563,0.2791177072565075,0.4465565026890472
0.15977021136085615,0.2314929451413766,0.3988876977552575
0.16027071186135664,0.15935574035643435,0.3069411470362045
0.16077121236185715,0.06802853120570165,0.19020339220385135
0.16127171286235764,-0.03202376203458711,0.05344261871280817
0.16177221336285813,-0.12190338985426852,-0.09357346230476384
0.16227271386335865,-0.20436923929178277,-0.22594851833226667
0.16277321436385914,-0.2673910755560401,-0.33493161696897966
0.16327371486435965,-0.30275937495419303,-0.41836503049100127
0.16377421536486014,-0.30338740560774347,-0.4508959057091789
0.16427471586536063,-0.2858089136708813,-0.4420423247802731
0.16477521636586115,-0.2340330523042435,-0.39437310019108507
0.16527571686636164,-0.15330287750894916,-0.30357764609616616
0.16577621736686213,-0.06494403796303073,-0.1794456088476136
0.16627671786736264,0.03176753678421181,-0.05048841060679748
0.16677721836786313,0.12267803642817561,0.09921462581487095
0.16727771886836365,0.2076707638797451,0.23188509750436412
0.16777821936886414,0.26392043658824593,0.34000769882625553
0.16827871986936463,0.3003037774818398,0.414718867154449
