Time,Vin,Vout
-0.0025699213175089386,-0.03236099003619957,0.024826843792152394
-0.0020694208170084385,2.7587968767736277,1.8160904271253695
-0.0015689203165079387,5.068973416915268,5.741002003797085
-0.0010684198160074386,7.018830648739832,9.572845212097741
-0.0005679193155069388,8.24241757944037,12.055341117856285
-6.741881500643872e-05,8.6658271908373,12.981294002072495
0.00043308168549406134,8.278598546287956,12.873206198267754
0.0009335821859945614,6.992411838376987,12.849305943377104
0.001434082686495061,5.037849465258679,10.771608093048265
0.0019345831869955615,2.6881138180702564,7.0218122148333455
0.002435083687496061,-0.052353804949049704,2.728213869149466
0.0029355841879965617,-2.7288117693973897,-1.7658779464064842
0.0034360846884970613,-5.089871812902037,-5.928914084864896
0.003936585188997562,-7.059805975431774,-9.700244393451895
0.004437085689498061,-8.248219520987917,-12.401801402146598
0.004937586189998561,-8.656621078821596,-13.007223344266771
0.005438086690499061,-8.145003804152385,-13.135250830952344
0.005938587190999562,-7.044864342255621,-12.917068638040952
0.006439087691500062,-5.0267483448045445,-10.874309069504417
0.006939588192000561,-2.5446163006526668,-6.9443351200585965
0.007440088692501061,0.0624789342179415,-2.6888289974853765
0.00794058919300156,2.718106981573799,1.6099677867266615
0.008441089693502062,5.075539809254123,5.7670531838192005
0.008941590194002562,6.952992569037994,9.572187125598685
0.009442090694503061,8.183590997663037,12.438123204378023
0.00994259119500356,8.689610209251137,13.239100581182008
0.010443091695504062,8.11054855208268,13.087160765580272
0.010943592196004562,6.8989433646862315,13.11501579459995
0.011444092696505061,5.036412386928775,10.538619966335974
0.011944593197005561,2.6393325415917785,6.809597125382391
0.01244509369750606,-0.08856558617467776,2.8135264429111406
0.012945594198006562,-2.804978777589181,-1.6578824673756791
0.01344609469850706,-5.163613026061543,-5.930087706985234
0.013946595199007563,-7.00065356705437,-9.726136789210255
0.014447095699508063,-8.285513587813641,-12.31299070887197
0.014947596200008562,-8.738130029304747,-12.970028529228147
0.015448096700509062,-8.187915134098096,-13.095465974292777
0.01594859720100956,-6.895765323681927,-12.818177021533655
0.01644909770151006,-5.062579931202547,-10.626473841473091
0.01694959820201056,-2.602901121490977,-6.850423268089669
0.01745009870251106,0.22141982425003862,-2.5585305078466285
0.01795059920301156,2.7142961830390844,1.9415458669966807
0.01845109970351206,5.152100061201561,6.071195242418507
0.018951600204012563,7.0218799655135555,9.73384636462734
0.019452100704513062,8.269821938481083,12.428155548895093
0.019952601205013562,8.640201648522877,13.013540091468744
0.02045310170551406,8.195308538118317,13.128139085065948
0.02095360220601456,6.833343137705947,12.957853416010492
0.02145410270651506,4.943602819957698,10.76243017054303
0.02195460320701556,2.5764350010305206,6.735650454686456
0.02245510370751606,-0.11281299876841729,2.711325132547031
0.02295560420801656,-2.8493112395721036,-1.7535469860051447
0.023456104708517063,-5.337871961829693,-6.210888923134382
0.023956605209017563,-7.020355414557807,-9.651826208478635
0.024457105709518062,-8.264960331938527,-12.120950015218826
0.024957606210018562,-8.61238503721014,-12.948326624056369
0.02545810671051906,-8.170375413783171,-13.236295702516738
0.02595860721101956,-6.992225411180822,-13.024536944391569
0.02645910771152006,-4.972323169543957,-10.525766938851682
0.02695960821202056,-2.6245057906036195,-6.738046024860997
0.02746010871252106,0.2599941299317515,-2.5402546315735655
0.027960609213021563,2.767977495398872,1.8026367050111414
0.028461109713522063,5.252927988994837,6.162564775427357
0.028961610214022562,7.123734886914847,9.85891691194911
0.02946211071452306,8.208231312085086,12.308653426665021
0.02996261121502356,8.725407802094175,13.17001858982103
0.030463111715524065,8.065503957536642,13.091903822243495
0.03096361221602456,6.8935279282759305,12.932076053873187
0.031464112716525064,4.908270207779615,10.394753916112988
0.03196461321702556,2.4658449635450235,6.710156275592015
0.03246511371752606,-0.2800354019987705,2.6088167515078036
0.03296561421802656,-2.8914754051662106,-1.8878113903802762
0.03346611471852706,-5.2474582710071855,-6.260928975501436
0.03396661521902756,-7.0999940052983765,-9.735935344248594
0.03446711571952806,-8.1849422293979,-12.51272560769347
0.034967616220028565,-8.580980419597417,-13.046575842274642
0.03546811672052906,-8.247054920364432,-12.919058467545621
0.035968617221029564,-6.910712747133203,-12.974157049289774
0.03646911772153006,-4.9935743073663295,-10.517585686065738
0.03696961822203056,-2.4735573736563734,-6.560322520517174
0.03747011872253106,0.30727562186596624,-2.5358196814526432
0.03797061922303156,2.919556877500344,1.9066020398841539
0.03847111972353206,5.208800732831336,6.128588284790863
0.03897162022403256,7.152156939245816,9.634499239811634
0.03947212072453306,8.279470676223943,12.487158717985428
0.03997262122503356,8.647548288972656,13.027950740924082
0.040473121725534064,8.187069298279487,13.026612060359449
0.04097362222603456,6.917630770576997,12.851148302559757
0.04147412272653506,4.845497394771638,10.345241683715013
0.04197462322703556,2.4670670017046237,6.660494054423692
0.04247512372753606,-0.23390405809357706,2.518209025888047
0.04297562422803656,-2.926381413524953,-1.9300805263918748
0.04347612472853706,-5.293887051299874,-6.219884881092301
0.04397662522903756,-7.098788994290999,-9.812865770768878
0.04447712572953806,-8.306348619080868,-12.352254279791527
0.044977626230038564,-8.676606032308484,-13.11426070834963
0.04547812673053906,-8.100792742377756,-13.040915699969919
0.045978627231039564,-6.762931728702024,-12.916985818947362
0.04647912773154006,-4.97556457226574,-10.37030653062409
0.04697962823204056,-2.459258947122969,-6.618570019421386
0.04748012873254106,0.3219130503142694,-2.4220325655237085
0.04798062923304156,2.9448934381447365,1.992331918871022
0.04848112973354206,5.240392396017448,6.403953519446473
0.04898163023404256,7.107596821252252,10.04193629133749
0.049482130734543064,8.275247452644988,12.399020897198675
0.04998263123504356,8.650401184409402,13.1056765992821
0.050483131735544064,8.114444104813602,13.100020158293585
0.05098363223604456,6.665395600129673,12.69448769682973
0.05148413273654506,4.805441462317882,10.352321858565995
0.05198463323704556,2.3966380835029937,6.461916656570819
0.05248513373754606,-0.2819515435449856,2.2317118346623124
0.05298563423804656,-2.9971779365999223,-2.198554879751027
0.05348613473854706,-5.286476747316022,-6.364933011594474
0.053986635239047565,-7.154218375519211,-9.797357332822015
0.05448713573954806,-8.322975262514118,-12.329721102538317
0.054987636240048564,-8.588461784740815,-12.917914884326006
0.05548813674054906,-8.058942661888048,-13.071906186969874
0.05598863724104956,-6.754167375642108,-12.734984498265765
0.05648913774155006,-4.854608929149856,-10.447843937703755
0.05698963824205056,-2.4769105031540573,-6.503908077942365
0.05749013874255106,0.3381342099450377,-2.2920673822888173
0.05799063924305156,2.9716180686381093,2.1579036882349225
0.058491139743552065,5.405015376271657,6.368846873034485
0.05899164024405256,7.295548586035304,9.874287631122607
0.059492140744553064,8.302288500944261,12.582665462757893
0.05999264124505356,8.544076110137361,13.077410986796636
0.06049314174555406,8.16125001266411,13.030947325683114
0.060993642246054566,6.764231051858821,12.840332572872805
0.061494142746555056,4.761602440566648,10.49778001141721
0.06199464324705556,2.293928268274603,6.333692057289692
0.06249514374755606,-0.3549577731694709,2.1956495605797257
0.06299564424805656,-2.930467002574645,-2.2013121256670165
0.06349614474855707,-5.3556282223523395,-6.192881227699019
0.06399664524905756,-7.3241507853511925,-9.896575250874292
0.06449714574955806,-8.185444589785925,-12.427390592432888
0.06499764625005856,-8.617607614985685,-12.932198509507902
0.06549814675055907,-8.092691593445343,-13.136379030813655
0.06599864725105956,-6.875647996680979,-12.983898551442481
0.06649914775156006,-4.70542904707177,-10.290169834139064
0.06699964825206056,-2.2810808836930128,-6.485913981528591
0.06750014875256106,0.47977112207592515,-2.1968080886212253
0.06800064925306157,2.911033084861112,2.0171103453552583
0.06850114975356206,5.369114740920735,6.362403194761342
0.06900165025406256,7.089775269050085,9.99323720834425
0.06950215075456306,8.360911248321443,12.598715298015552
0.07000265125506357,8.692723143595854,12.971712126466446
0.07050315175556406,8.147085284501797,13.136434236877777
0.07100365225606456,6.684491167464452,12.790284257776298
0.07150415275656506,4.944957602390223,10.348760224871025
0.07200465325706557,2.273257789563827,6.2246371838713035
0.07250515375756607,-0.4335835920083603,2.160739813400703
0.07300565425806656,-3.0395743198873064,-2.1889838867205067
0.07350615475856706,-5.404989349694303,-6.374067924749068
0.07400665525906756,-7.161914395143943,-10.045943434417241
0.07450715575956807,-8.371884817101513,-12.599507066187284
0.07500765626006856,-8.547518534560758,-13.198316595325943
0.07550815676056906,-8.095661975549103,-13.164289967656359
0.07600865726106956,-6.678498684708107,-12.664397877797127
0.07650915776157007,-4.721945900760974,-10.315193348018363
0.07700965826207057,-2.286374113927243,-6.436313848393169
0.07751015876257106,0.47098332374968493,-2.174769636335304
0.07801065926307156,3.110412916451844,2.2372602932327053
0.07851115976357206,5.414568340733586,6.552969258501756
0.07901166026407257,7.321058659028422,10.15463761435617
0.07951216076457306,8.37315149210365,12.500614778045207
0.08001266126507356,8.580367304446558,12.962263003921937
0.08051316176557406,8.086056890276932,13.021847762612428
0.08101366226607457,6.764051508491987,12.708126986954117
0.08151416276657505,4.695391654853446,10.306643769804454
0.08201466326707556,2.241204445374607,6.368917511184983
0.08251516376757606,-0.5293353269091193,2.2375058665707988
0.08301566426807656,-3.0617234625337777,-2.350140191416303
0.08351616476857707,-5.333300745611656,-6.716068917476531
0.08401666526907756,-7.303021776032164,-9.964542566747042
0.08451716576957806,-8.32085969755151,-12.576055052580227
0.08501766627007856,-8.627280317559785,-13.067828404678849
0.08551816677057907,-8.133975361660495,-13.02854403833235
0.08601866727107955,-6.69311189977358,-12.942764491776082
0.08651916777158015,-4.68571784672927,-10.159520585766728
0.08701966827208056,-2.274453362843104,-6.339697827454473
0.08752016877258106,0.4891325574239125,-1.9137052595499493
0.08802066927308157,3.1771245710051748,2.4677470469531566
0.08852116977358206,5.473653133729912,6.4257977200816185
0.08902167027408266,7.285336709880182,10.105549759763349
0.08952217077458316,8.362021535806129,12.720734301332334
0.09002267127508357,8.721725291832142,13.087051692172922
0.09052317177558405,8.009590851583914,13.010464621888357
0.09102367227608466,6.709206929758527,12.565902617502292
0.09152417277658516,4.692200414854004,10.147397575996054
0.09202467327708566,2.1910952140613484,6.047752195977496
0.09252517377758607,-0.445724658557126,2.0082694990372443
0.09302567427808656,-3.2079899393516818,-2.4182082148153845
0.09352617477858716,-5.454740137847827,-6.616699106023617
0.09402667527908766,-7.195288761235545,-10.169137284451649
0.09452717577958816,-8.295910827528294,-12.57146470335667
0.09502767628008855,-8.60782436355706,-13.000220852668015
0.09552817678058916,-8.005617502338167,-12.993583139510712
0.09602867728108966,-6.629639000237247,-12.732335181498412
0.09652917778159016,-4.5962037018389825,-10.204744986806391
0.09702967828209066,-2.165858216167663,-6.222150697797413
0.09753017878259106,0.49077242212771754,-1.9180584113462353
0.09803067928309166,3.173043661355621,2.3937327042191403
0.09853117978359216,5.476634632910491,6.704694323322128
0.09903168028409266,7.350667978222554,10.135635789847678
0.09953218078459317,8.229611903402201,12.535199363761588
0.10003268128509366,8.594238117053925,12.967386781291578
0.10053318178559416,8.004133480244466,13.030654279065216
0.10103368228609466,6.730621448164912,12.64434749855428
0.10153418278659516,4.722024278044372,10.04779364399478
0.10203468328709567,2.1521806292909944,6.062997130518866
0.10253518378759616,-0.5688762060966185,2.0689190148577405
0.10303568428809666,-3.2017550497345,-2.418601594332258
0.10353618478859716,-5.60112434466791,-6.672019962266296
0.10403668528909767,-7.376789830834247,-10.211363326607207
0.10453718578959816,-8.337824546323022,-12.602603901358554
0.10503768629009866,-8.663999035121469,-13.001676155888166
0.10553818679059916,-8.053689592334086,-12.963369271603796
0.10603868729109966,-6.590028681045331,-12.74476832880628
0.10653918779160017,-4.550261304280183,-10.047132595218011
0.10703968829210066,-2.0749726798265526,-6.12437018893184
0.10754018879260116,0.6618472623776537,-1.8698975762349321
0.10804068929310166,3.148589457159229,2.563179828235497
0.10854118979360217,5.601873918164115,6.669399807595276
0.10904169029410266,7.345071151020258,10.277024982754536
0.10954219079460316,8.432538273088653,12.69482639707888
0.11004269129510366,8.567144693640543,12.942240771717238
0.11054319179560416,8.020097438402603,13.02787423934392
0.11104369229610467,6.552113013022846,12.712343413025906
0.11154419279660516,4.543361982394234,10.01021555467205
0.11204469329710566,2.1262285949318773,5.912645029334993
0.11254519379760616,-0.6494431429396099,1.8006611665868602
0.11304569429810667,-3.24612245457428,-2.661339865352479
0.11354619479860716,-5.5032517383339545,-6.755087959708275
0.11404669529910766,-7.396895224972023,-10.224699823472013
0.11454719579960816,-8.22990753061849,-12.886400282724091
0.11504769630010866,-8.656746372536237,-13.06887068699083
0.11554819680060917,-7.9352697011373365,-12.879720188375856
0.11604869730110966,-6.657024282649785,-12.772364118348664
0.11654919780161016,-4.634232048629865,-9.900180287441056
0.11704969830211066,-2.0479914716515104,-5.997621651383088
0.11755019880261117,0.6644738287178943,-1.8585572199759217
0.11805069930311166,3.304076590166243,2.7260842656166946
0.11855119980361216,5.590665701512694,6.790640301362586
0.11905170030411266,7.38333304936788,10.401608947584707
0.11955220080461317,8.300814958663459,12.71212462438865
0.12005270130511367,8.603984316894183,13.02449987578596
0.12055320180561416,7.94621364218726,13.046559088322532
0.12105370230611466,6.5517609645012245,12.555136842266629
0.12155420280661516,4.399319870335131,9.951679487252335
0.12205470330711567,2.0413606779502143,6.001253994925714
0.12255520380761617,-0.7409109660286027,1.8503661323863487
0.12305570430811666,-3.269996543898018,-2.810172795579714
0.12355620480861715,-5.606105122594467,-6.831647109987048
0.12405670530911767,-7.317813084683652,-10.28745295536792
0.12455720580961815,-8.424042913007192,-12.89279060603483
0.12505770631011867,-8.632620816097143,-13.241044460966695
0.12555820681061916,-8.020593364174275,-13.058569701007654
0.12605870731111965,-6.482828183646013,-12.677840941759158
0.12655920781162017,-4.638606423160768,-10.03498368462853
0.12705970831212066,-2.014484701370192,-5.96294915777145
0.12756020881262117,0.75831249646599,-1.66514015962403
0.12806070931312166,3.3146245817812274,2.8404731067006126
0.12856120981362215,5.6700721368054685,6.784986799572292
0.12906171031412267,7.428866119169454,10.224310143589852
0.12956221081462316,8.445787879066652,12.735732022468207
0.13006271131512367,8.637823651801398,13.051373048888014
0.13056321181562416,7.855611191741784,12.928787635457445
0.13106371231612465,6.533537119509558,12.72298458661062
0.13156421281662517,4.515309393499669,9.742948451561444
0.13206471331712566,1.9668904857178657,5.791281107895428
0.13256521381762615,-0.7595811500302369,1.6509186899056316
0.13306571431812667,-3.3543612327866916,-2.668588491943794
0.13356621481862715,-5.678219744070316,-6.85141742759498
0.13406671531912767,-7.4330374925489195,-10.406289574191952
0.13456721581962816,-8.424314078160187,-13.028421292289448
0.13506771632012865,-8.579910873290927,-13.054797843031874
0.13556821682062917,-7.840677637064755,-13.092534567618667
0.13606871732112966,-6.578066138362752,-12.661914848382313
0.13656921782163017,-4.468831222717028,-9.72078407829374
0.13706971832213066,-1.9233937869590474,-5.796825211175395
0.13757021882263115,0.7919410201666258,-1.5493348853245317
0.13807071932313167,3.4062067871532604,2.7455504175695906
0.13857121982363216,5.734650787131949,6.935600114935064
0.13907172032413267,7.417995479450608,10.34586388763524
0.13957222082463316,8.419480913235358,12.82367600143398
0.14007272132513365,8.607928554234647,12.849667014162188
0.14057322182563417,7.946585947405382,13.129325786259791
0.14107372232613466,6.531884151224363,12.757982769526295
0.14157422282663515,4.518154067481503,9.51112999082898
0.14207472332713567,2.019423407209473,5.814705404817561
0.14257522382763615,-0.8074997023249242,1.6809904567007588
0.14307572432813667,-3.3916814405896556,-2.756778944802314
0.14357622482863716,-5.7779777833459836,-7.067705687056767
0.14407672532913765,-7.467982088710516,-10.483533788747186
0.14457722582963817,-8.392839014898358,-12.971987635724478
0.14507772633013866,-8.66368896539691,-13.062461766647731
0.14557822683063917,-7.887438379812634,-13.116008496900918
0.14607872733113966,-6.452338999976702,-12.716215953880504
0.14657922783164015,-4.478870027036965,-9.81235646521535
0.14707972833214067,-1.9423680806444876,-5.707514192196884
0.14758022883264116,0.8871789501299229,-1.5802427366947644
0.14808072933314168,3.3560137919590116,2.793211124270847
0.14858122983364216,5.648386720513025,6.998492271315499
0.14908173033414265,7.458579796492383,10.55315255922697
0.14958223083464317,8.3671023357113,12.735634848328157
0.15008273133514366,8.645354902260605,12.993100856476829
0.15058323183564415,7.900177635020552,13.043551128705454
0.15108373233614467,6.475538443809487,12.400000119407027
0.15158423283664516,4.337221145005795,9.667886488012327
0.15208473333714567,1.852428097894132,5.741402508642501
0.15258523383764616,-0.8120721913342952,1.519346945709877
0.15308573433814665,-3.418862553736108,-3.1150677183275426
0.15358623483864717,-5.676884854323295,-7.13460710174166
0.15408673533914766,-7.560078695867839,-10.456319032553658
0.15458723583964817,-8.431534257546941,-12.757283951369306
0.15508773634014866,-8.594664733999293,-12.962871090829037
0.15558823684064915,-7.9196224627006515,-13.042643182596573
0.15608873734114967,-6.523119467458959,-12.581801103326685
0.15658923784165016,-4.223135359983651,-9.544145507273203
0.15708973834215065,-1.8000856907389573,-5.869161808476717
0.15759023884265116,0.9500594397217123,-1.294557697039376
0.15809073934315165,3.427093036233509,3.1695965567790947
0.15859123984365217,5.72532878819065,7.146974440855914
0.15909174034415266,7.389623335007707,10.62099253052678
0.15959224084465315,8.554464243645873,13.053275212294933
0.16009274134515367,8.53074500609272,12.910408352922502
0.16059324184565416,7.869470128616032,12.794593846679277
0.16109374234615467,6.443913575246579,12.622073218865497
0.16159424284665516,4.244606530159338,9.587432344162972
0.16209474334715565,1.7969122390392789,5.565540346613107
0.16259524384765617,-0.8776165150336318,1.442970781315218
0.16309574434815666,-3.4745319643041146,-3.085826622646945
0.16359624484865717,-5.807858491280092,-7.09847911634543
0.16409674534915766,-7.5302656337886384,-10.690165550143531
0.16459724584965815,-8.533234480211544,-12.823268089478542
0.16509774635015867,-8.599690081993458,-13.260030836011232
0.16559824685065916,-7.890851957339553,-13.25979266645159
0.16609874735115965,-6.399761283208012,-12.610468781709711
