Time,Vin,Vout
0.006698069961910016,-0.0030979334588306286,0.20035374186449675
0.007198570462410516,0.15124777396275957,0.10815762583463591
0.007699070962911016,0.2906108302475631,-0.15941949089519042
0.008199571463411517,0.39938054081417074,0.29389659671000856
0.008700071963912016,0.46992666551086887,1.2768365816425402
0.009200572464412516,0.49604063249251307,4.235667754573026
0.009701072964913016,0.47390017455480954,11.923693873312988
0.010201573465413515,0.3944300132700264,12.879151473930259
0.010702073965914015,0.29303423983186744,12.75809016662423
0.011202574466414516,0.14911222496177143,13.039865538919948
0.011703074966915016,0.0023174445759940984,13.037299851882793
0.012203575467415517,-0.16225821168415153,12.732172014068091
0.012704075967916017,-0.29911244294639044,13.027759296097534
0.013204576468416516,-0.40333788883707294,13.13703508939683
0.013705076968917016,-0.47259596349766664,13.138663313366084
0.014205577469417516,-0.4947885026360027,12.756374717698879
0.014706077969918015,-0.47477419811635824,12.899605941680308
0.015206578470418517,-0.4003033087016708,12.906332538608774
0.015707078970919018,-0.28765892256232156,12.83628396580229
0.016207579471419514,-0.15526261838154282,13.066099247347829
0.016708079971920017,0.0020436448354780924,12.856763271127575
0.017208580472420514,0.15509853388553976,12.898931905861929
0.017709080972921017,0.29118703747633656,13.057301243670503
0.018209581473421516,0.4040220822249208,12.970522751235027
0.018710081973922016,0.4744201449854245,13.153556772339519
0.019210582474422516,0.494595915698529,12.824557239703552
0.019711082974923015,0.46853521988639035,12.859496922562114
0.020211583475423518,0.400183882830462,12.937534082181633
0.020712083975924014,0.285643583260211,12.934134543700502
0.021212584476424517,0.14384271024369794,12.954700279342687
0.021713084976925014,-0.003234559096319853,12.846072648933621
0.022213585477425517,-0.15623399926590706,12.989328623361246
0.022714085977926013,-0.29339025971370797,12.846713888925729
0.023214586478426516,-0.406548036215767,13.017092124451352
0.02371508697892702,-0.47559903980109186,12.886700336626792
0.024215587479427515,-0.49576008913653985,13.313244349886867
0.02471608797992802,-0.4646785010565589,12.90725181246221
0.025216588480428515,-0.39763456459767565,13.019500775499674
0.025717088980929018,-0.2843105616409834,12.88504260755733
0.026217589481429514,-0.14731391993418133,13.011669503690461
0.026718089981930017,0.0038321338079707135,12.89270844509575
0.027218590482430513,0.15742994535212207,13.138725233041121
0.027719090982931016,0.2985239363321032,13.033872104030484
0.02821959148343152,0.40319097516824465,13.037313573282658
0.028720091983932015,0.4770988453887314,12.881275664186262
0.02922059248443252,0.49458764469053385,13.094956958950098
0.029721092984933015,0.469628352908076,13.056604676181575
0.030221593485433518,0.3971094427786121,12.99827096859043
0.030722093985934014,0.28416913920038944,12.959200630262213
0.031222594486434517,0.1551211339861038,12.90498189711585
0.03172309498693501,-0.004287270318660781,12.941617765174406
0.032223595487435516,-0.16205354116233422,13.130439782065404
0.03272409598793602,-0.3002894838711247,13.006001510604738
0.033224596488436516,-0.3987199320100459,13.075791101458751
0.03372509698893702,-0.476836344520459,13.030521222501783
0.034225597489437515,-0.49819449366395485,12.830775880792926
0.03472609798993802,-0.4712835957251266,12.880436538498138
0.035226598490438514,-0.3995810400769907,12.877098627520335
0.03572709899093902,-0.2813509915998481,12.96373204441245
0.03622759949143951,-0.14108414279829543,12.906105966620228
0.036728099991940016,0.010428053003863529,12.874582039598723
0.03722860049244052,0.16423264917285127,12.98330860531574
0.037729100992941016,0.29498291428691514,13.202509477058932
0.03822960149344152,0.4062499288487354,12.918110296496721
0.038730101993942015,0.47638644729776475,12.715377796678375
0.03923060249444252,0.4996194360177393,12.758658301480862
0.03973110299494302,0.4667941906610625,12.875644797662408
0.04023160349544352,0.3965187842957922,12.95849205028348
0.04073210399594402,0.28766000533517194,12.852661492778315
0.041232604496444517,0.1482496753169413,12.972209703170275
0.04173310499694502,-0.006036276408302422,13.00917753211374
0.042233605497445516,-0.15326304379969563,12.909939883418287
0.04273410599794602,-0.3060845979557854,12.97244687956009
0.043234606498446515,-0.40971631069756875,12.78539038818841
0.04373510699894702,-0.4778381041454178,12.97812913553643
0.04423560749944752,-0.49262124946530556,12.883089800159269
0.04473610799994802,-0.4665683136873879,12.948026083721269
0.04523660850044852,-0.39836728883315486,12.905139906873188
0.04573710900094902,-0.27817303531380994,13.061934503476525
0.04623760950144952,-0.14324591883207,13.031645409057562
0.046738110001950016,0.013537442259415375,12.82837229825856
0.04723861050245052,0.16871406963340316,13.128429080065532
0.047739111002951015,0.3030497063482397,13.23723366806977
0.04823961150345152,0.40698358926298106,13.019236292263198
0.048740112003952014,0.47643819022976,13.151063724114252
0.04924061250445252,0.49713660514992114,12.75071445656784
0.04974111300495302,0.46932316173143923,12.9997702094678
0.05024161350545352,0.3960653709811027,12.954724378476158
0.05074211400595402,0.28350837236230864,12.83130169112197
0.051242614506454516,0.14196978489012707,13.319262472675899
0.05174311500695502,-0.01386399053070219,12.980027664128555
0.052243615507455515,-0.15895504178401576,12.854525813504248
0.05274411600795602,-0.3036503542976225,12.966604912225124
0.053244616508456515,-0.409509386054022,12.92245790448531
0.05374511700895702,-0.4785457200280858,13.008098321228978
0.05424561750945752,-0.49007007740828984,12.650688997282511
0.05474611800995802,-0.4656354893270071,13.056873920537102
0.05524661851045852,-0.3908283608471838,12.863647090644369
0.055747119010959016,-0.28341532035436384,13.125138451780678
0.05624761951145952,-0.14184449440034358,13.008391841444922
0.056748120011960015,0.018393900241008836,12.99724566919041
0.05724862051246052,0.17006707205719063,13.137133887961117
0.057749121012961015,0.3112780712955302,13.08490303663206
0.05824962151346152,0.40960888900555875,13.212375922110889
0.05875012201396202,0.4718228185355478,12.99429682572328
0.05925062251446252,0.49025437485402285,12.929323250215544
0.05975112301496302,0.4638605440686553,13.076300754076362
0.060251623515463516,0.39453531464320907,12.934628042223112
0.06075212401596402,0.28067688853640704,13.185467400964646
0.061252624516464516,0.13874019063747794,12.991466914951609
0.06175312501696502,-0.019375080243445524,13.003689947854046
0.062253625517465515,-0.1710926763486847,12.93253068636858
0.06275412601796601,-0.2994235236735627,12.935447407354317
0.06325462651846651,-0.4060695652877966,13.015610805032713
0.06375512701896702,-0.47545568067679306,13.27552942124905
0.06425562751946752,-0.49778285338400974,13.086994897730111
0.06475612801996801,-0.4622944608787699,12.74097990615387
0.06525662852046851,-0.39362643524750285,12.931465304593576
0.06575712902096902,-0.2796206422555992,12.928529276272206
0.06625762952146952,-0.13282641487442207,13.290858368723217
0.06675813002197001,0.020034844850386275,13.016212554307293
0.06725863052247051,0.17283643894221004,12.982450407208777
0.06775913102297101,0.30453422284836373,12.891246812988461
0.06825963152347152,0.41083650620335194,13.067403559396634
0.06876013202397202,0.47756065496786043,13.024789986513372
0.06926063252447251,0.4914122139528596,13.073422027896191
0.06976113302497301,0.46481239303236704,12.89552758891751
0.07026163352547352,0.3906160068421018,12.929449344643588
0.070762134025974,0.2762806772537578,12.96893895571422
0.07126263452647451,0.13349856608015948,13.023736777544121
0.07176313502697501,-0.020389095026908534,12.962250744090339
0.07226363552747551,-0.17198138970866195,13.167384871309359
0.07276413602797602,-0.30961647952154636,12.85220895181838
0.0732646365284765,-0.4134465200609176,12.986176480880413
0.07376513702897701,-0.47707698425927303,12.842235258302692
0.07426563752947751,-0.4937040061054521,12.942932900045825
0.07476613802997802,-0.4589568033053201,13.13487662834776
0.0752666385304785,-0.38897583981885586,13.035158321600901
0.07576713903097901,-0.2666890032310813,13.032631212031335
0.07626763953147951,-0.13367326657439868,12.924400667293646
0.07676814003198001,0.02034030250272389,12.934941873074292
0.07726864053248052,0.1704890239237344,13.004949497757792
0.077769141032981,0.31028284455872795,12.974470767882861
0.07826964153348151,0.4156874756243076,13.089129062959037
0.07877014203398201,0.4792647857403739,12.866183276967247
0.07927064253448252,0.4978467912957811,13.009767008408094
0.079771143034983,0.4674595565001255,13.04508087575199
0.08027164353548351,0.38896523910229003,13.056325723785198
0.08077214403598401,0.2726863523165184,12.952597774906922
0.08127264453648451,0.13575117563426278,13.23043380963381
0.08177314503698502,-0.025098044209475586,13.043826921560724
0.0822736455374855,-0.17080295842540533,13.018321132043706
0.08277414603798601,-0.30337050342757055,13.090963889088583
0.08327464653848651,-0.41790924815385744,13.072636449592565
0.08377514703898702,-0.48155366807072847,12.716105204719714
0.0842756475394875,-0.4989232143321037,12.959812841726768
0.08477614803998801,-0.46606178968753403,13.14449144466645
0.08527664854048851,-0.39011449977358953,12.917806988127616
0.08577714904098901,-0.27032316262824646,12.694123980867817
0.08627764954148952,-0.13195640013530383,13.032523179235614
0.08677815004199001,0.026945890323615662,13.0502151604037
0.08727865054249051,0.17455617479578528,12.939125390880552
0.08777915104299101,0.31760253762435353,12.923740374348004
0.08827965154349152,0.41415123960009037,13.147723649907787
0.088780152043992,0.47887947393166025,13.11852343670723
0.08928065254449251,0.49191214267135364,12.917780040114106
0.08978115304499301,0.46474253263707865,13.195232966765085
0.09028165354549351,0.38665560118108927,12.866507436426717
0.090782154045994,0.2705627635473893,12.996179714573119
0.09128265454649451,0.12610429319103783,12.840312407125463
0.09178315504699501,-0.029785274360242246,13.05137025045167
0.09228365554749551,-0.17946101171795706,13.030148670624305
0.09278415604799602,-0.3071151885890578,13.21216008944779
0.0932846565484965,-0.4186755091252988,12.880895848791415
0.09378515704899701,-0.48296139922140086,12.96040238717365
0.09428565754949751,-0.4972518261501759,12.835612001564465
0.09478615804999801,-0.46271093776440847,13.040601487561307
0.0952866585504985,-0.3839529433365064,12.99973752671488
0.0957871590509991,-0.2726564214140113,13.136747964105709
0.09628765955149951,-0.12487287867644443,13.029990303830399
0.09678816005200001,0.03414809924066222,12.81130282754613
0.09728866055250052,0.17533928270193297,12.999923832873712
0.097789161053001,0.3081860645781912,13.038142201196711
0.0982896615535016,0.41231616839361707,12.890677817814026
0.09879016205400211,0.47652315145521923,12.976574105027824
0.09929066255450252,0.4909238363807942,12.870509593029395
0.099791163055003,0.4618736540279812,12.860643493452972
0.1002916635555036,0.37984860406994647,12.915260498317826
0.10079216405600411,0.2684645032574664,12.951559290073936
0.10129266455650461,0.12856602806712847,13.012263469999484
0.10179316505700502,-0.02761239666470157,12.826082395543274
0.1022936655575055,-0.18099005822707792,12.995580997188148
0.1027941660580061,-0.31837997620600883,12.943626301050205
0.10329466655850661,-0.41888357416067423,13.010617994824498
0.10379516705900711,-0.4780665774672107,13.17127898125313
0.1042956675595075,-0.49311787700413434,12.95489491510594
0.1047961680600081,-0.4665516008730456,12.829647449318898
0.10529666856050861,-0.38558799024928864,12.90466880168302
0.10579716906100911,-0.2766198478349238,13.005284844693444
0.10629766956150961,-0.12406980546251499,12.399054826160487
0.10679817006201,0.03146176164636094,12.71297467600117
0.1072986705625106,0.17889356066865464,13.105225466654835
0.10779917106301111,0.3150371475487884,12.691442222026941
0.10829967156351161,0.4196407832453548,12.975641157097577
0.10880017206401212,0.47876483736552233,13.07792072154561
0.1093006725645126,0.4880477826419083,13.181370434293537
0.10980117306501311,0.4603518342681852,12.873297685072847
0.11030167356551361,0.3818126529692522,12.959923526497963
0.11080217406601411,0.26464654578291813,13.067617879335426
0.11130267456651462,0.1196262093298349,12.723514098069124
0.1118031750670151,-0.027344000097620762,12.953150495190027
0.11230367556751561,-0.18854963684659948,12.887624303900987
0.11280417606801611,-0.3175777540707114,12.835203797346244
0.11330467656851662,-0.41661427986003996,12.942740225160096
0.1138051770690171,-0.4817034753173838,13.0050730658552
0.11430567756951761,-0.4935656192834806,12.98489668526898
0.11480617807001811,-0.4589793185611885,13.108503839537734
0.11530667857051861,-0.3774746996278875,12.977400246076312
0.11580717907101912,-0.25796832137065234,12.818566753233698
0.1163076795715196,-0.11924083009607897,12.943152451982552
0.11680818007202011,0.0349596039525207,12.921608656087562
0.11730868057252061,0.18490924227743707,13.078311924719376
0.11780918107302112,0.32004985806729297,13.39828451171755
0.1183096815735216,0.4236820724267887,13.11488459265572
0.11881018207402211,0.4808500542800804,12.675431997144562
0.11931068257452261,0.4992464621654554,12.989083289798446
0.11981118307502311,0.46011088244078524,12.969175636905632
0.12031168357552362,0.3842913190871923,12.998566427735316
0.1208121840760241,0.26129797694617996,12.925220648502192
0.12131268457652461,0.11513561382197711,13.218068584604
0.12181318507702511,-0.035587427054720976,12.953781667840568
0.12231368557752562,-0.18070217186053308,13.090408441874464
0.1228141860780261,-0.32164505105134283,13.042936645482008
0.12331468657852661,-0.41963651268872837,13.258312364323585
0.12381518707902711,-0.48481532281156936,12.86271245313346
0.12431568757952761,-0.4988748267641438,13.026770862876454
0.12481618808002812,-0.45560220518298195,12.873407317980655
0.1253166885805286,-0.38398778073322803,12.94877718186586
0.12581718908102912,-0.25990468783596343,13.041596720712098
0.1263176895815296,-0.11584849612934393,13.049416493094197
0.12681819008203013,0.04141553741620038,13.017782789921188
0.12731869058253062,0.19131348963223835,13.008895355525658
0.1278191910830311,0.3282950590296598,12.982887688984059
0.12831969158353163,0.421177155207413,13.101505448170078
0.12882019208403211,0.48136415336332145,13.073893949606244
0.12932069258453263,0.4963268874932679,13.126205403026551
0.12982119308503312,0.4600260118326643,12.92602191931082
0.1303216935855336,0.3766318319434069,13.058805301053914
0.13082219408603413,0.2583358980660749,12.969052116508756
0.13132269458653462,0.11684205037289253,12.955784784434915
0.13182319508703513,-0.03881330857027263,12.82744883808516
0.13232369558753562,-0.18604705114134434,12.760161601282997
0.1328241960880361,-0.3223253907533372,13.178157110229032
0.13332469658853663,-0.4243480788606399,13.277184427981991
0.13382519708903712,-0.48550351885742504,12.800091369903198
0.13432569758953763,-0.4971399185559118,12.941526014740068
0.13482619809003812,-0.46493754202599796,12.845802912838131
0.1353266985905386,-0.37549139204460114,13.05123052669307
0.13582719909103913,-0.25960439563169296,12.836376541881988
0.13632769959153962,-0.11085743669017657,13.006150730896858
0.13682820009204014,0.04480265100782642,13.065007672909772
0.13732870059254063,0.19035155348266297,12.719531467512859
0.13782920109304111,0.32820408122071715,13.18641202601221
0.13832970159354163,0.42018119375689944,12.961731008033395
0.13883020209404212,0.48092350610422463,12.864211628888038
0.13933070259454264,0.49645158226197095,12.965648095122408
0.13983120309504313,0.45210621275368335,13.139217496349346
0.14033170359554362,0.37957406797103216,13.003227686396565
0.14083220409604413,0.25654668416890575,13.014888777840332
0.14133270459654462,0.11949924023171528,13.052812331214591
0.1418332050970451,-0.04714113053735497,12.880486256160472
0.14233370559754563,-0.19085312694451537,12.897267544359027
0.14283420609804612,-0.317967142800274,12.862086741738475
0.14333470659854664,-0.4166194283838773,13.07073966808412
0.14383520709904712,-0.4851641622045056,12.966648493681205
0.1443357075995476,-0.5004077328107781,12.804491901129856
0.14483620810004813,-0.46017008970753237,13.057186158914522
0.14533670860054862,-0.3691296352117217,12.97863614039047
0.14583720910104914,-0.2549096043529707,13.343372914839751
0.14633770960154963,-0.10516455464043606,12.91668257151956
0.14683821010205012,0.042622694209525684,12.89007280258137
0.14733871060255063,0.19251566528395195,12.936551813136086
0.14783921110305112,0.3202274507066019,13.083486068077447
0.14833971160355164,0.42483585916938343,12.998556545258761
0.14884021210405213,0.4848184628744904,12.893973545086208
0.14934071260455262,0.49055333316100336,13.192586071761225
0.14984121310505313,0.4618336439265251,12.878835169361768
0.15034171360555362,0.37762308285011315,12.92567362233664
0.1508422141060541,0.25873013365850617,12.928208064402826
0.15134271460655463,0.11183882515268481,13.343768634853918
0.15184321510705512,-0.038464879288793254,12.768750484526203
0.15234371560755564,-0.1941234522650464,13.07237207592423
0.15284421610805612,-0.32462431202359476,13.143914339841041
0.1533447166085566,-0.42550096081862093,13.024514278418916
0.15384521710905713,-0.47926197480935917,12.885877439900089
0.15434571760955762,-0.49720441471649285,12.940265739007382
0.15484621811005814,-0.4494700581325763,12.87002452908333
0.15534671861055863,-0.3640307622441219,12.936697148861597
0.15584721911105912,-0.25303281505416336,12.873589524773516
0.15634771961155963,-0.1090326427240561,13.150684623286882
0.15684822011206012,0.04545165825273283,12.907514290479709
0.15734872061256064,0.2005170178856194,13.209118377418768
0.15784922111306113,0.31988793799788967,13.11675101085626
0.15834972161356162,0.4262613547631281,13.066091651889215
0.15885022211406213,0.4846153962315228,13.0738185270593
0.15935072261456262,0.4994632432494286,13.06642178256657
0.1598512231150631,0.456255990224967,13.055178822031296
0.16035172361556363,0.3766791157324283,13.025603049141301
0.16085222411606412,0.25277991135131306,12.802852872200514
0.16135272461656464,0.1116307507595212,13.130867769460503
0.16185322511706512,-0.050836943873561115,12.982505838018266
0.16235372561756561,-0.2036293244470474,13.06365452290351
0.16285422611806613,-0.32910619752873965,12.841246463849645
0.16335472661856662,-0.429373926733759,13.074315265336905
0.16385522711906714,-0.4878655691572637,13.193608111931859
0.16435572761956763,-0.5001994190664594,13.056559204306556
0.16485622812006812,-0.44962875046176315,13.13648870626215
0.16535672862056863,-0.37093894284714635,12.942278977007968
0.16585722912106912,-0.2542050723213472,12.893937411968897
0.1663577296215696,-0.10324815547309794,12.796947984677846
0.16685823012207013,0.050531553281330216,12.958085172535736
0.16735873062257062,0.20265276690920847,13.225275380739253
0.16785923112307113,0.3276916851861434,13.023951756907866
0.16835973162357162,0.4298805254213849,12.838951649541618
0.1688602321240721,0.4822775758870715,13.007083503101688
0.16936073262457263,0.4960355611907933,12.898086277085286
0.16986123312507312,0.45339495988867534,12.907041395243635
0.17036173362557364,0.37081749974783623,13.16125273814565
0.17086223412607413,0.24506625946681526,13.32662302502398
0.17136273462657461,0.10801457259730433,12.976248275114784
0.17186323512707513,-0.055444291728477216,12.962269030810546
0.17236373562757562,-0.20585897797740954,13.11996639473814
0.17286423612807614,-0.3353354128202274,13.072889844719723
