Time,Vin,Vout
-0.006641631038162148,-0.0036702800910318545,0.13181100046029665
-0.0061411305376616486,0.14639618524234327,-13.173671139575513
-0.005640630037161148,0.2798233299537866,-13.270666005626055
-0.0051401295366606484,0.3878975020656141,-2.6847896792945627
-0.004639629036160149,0.4536618447146841,13.13293363660492
-0.004139128535659648,0.4770288524368077,13.360635479488854
-0.0036386280351591483,0.4553167226507104,12.968865972738042
-0.003138127534658648,0.38362323373393964,13.092038559151456
-0.0026376270341581486,0.2830521726529366,13.164999143079271
-0.002137126533657648,0.14905233160674983,13.429362743664424
-0.0016366260331571484,-0.004944849946483159,13.09408667465232
-0.001136125532656648,-0.1490655638158513,-12.89960029613364
-0.0006356250321561483,-0.2837041020074848,-13.352548163097346
-0.0001351245316556478,-0.39317416769943386,-13.34238732615936
0.0003653759688448518,-0.45330698512477136,-13.21138225586069
0.0008658764693453514,-0.47856507073199905,-13.196875193993348
0.001366376969845851,-0.4551557300225804,-13.221047115449089
0.0018668774703463524,-0.3900664774260296,-13.11441397800156
0.002367377970846852,-0.27906109069921364,-13.054493080301445
0.0028678784713473517,-0.13791488687695866,-13.417121334510457
0.0033683789718478513,-0.004746306355194096,-13.210364582770294
0.003868879472348351,0.14814283511626142,13.310786901395057
0.004369379972848852,0.2831885434227297,13.172352737543402
0.004869880473349352,0.38641985090462816,13.365649525548882
0.005370380973849852,0.4573075369479101,13.145531290153833
0.005870881474350351,0.47687109276541434,13.021039627709373
0.0063713819748508526,0.45136642433301727,13.502144612245845
0.006871882475351352,0.3816017168159345,13.311081522887719
0.007372382975851852,0.27081746327200834,13.294288905153964
0.00787288347635235,0.1480264379648525,13.107646377774026
0.00837338397685285,-0.0034162412600172126,13.38590297283473
0.008873884477353353,-0.1534775842021775,-13.148286218465243
0.00937438497785385,-0.2839580629424251,-13.375148410041785
0.009874885478354353,-0.39174186138377964,-13.334731687114976
0.010375385978854852,-0.46015334090558485,-13.248264597609413
0.010875886479355352,-0.4738437055939681,-13.292139096849901
0.011376386979855851,-0.4558789133737093,-13.538485297264144
0.011876887480356351,-0.3830705098716627,-13.322196205928462
0.01237738798085685,-0.26871371983434716,-13.389317203878178
0.01287788848135735,-0.1411073068914318,-13.387381394511634
0.01337838898185785,0.005334912661499718,-13.315714103733818
0.01387888948235835,0.14843029949987357,13.347695245420015
0.01437938998285885,0.28941072796908823,13.268401093561565
0.014879890483359352,0.38693422116499326,13.205103685028394
0.015380390983859852,0.4560449258099494,13.42970400144797
0.01588089148436035,0.47359679787342385,13.442998108511906
0.01638139198486085,0.45221997186135204,13.456452458744392
0.01688189248536135,0.3853362621134517,13.282294566752238
0.01738239298586185,0.28109914414279996,13.118691416876485
0.01788289348636235,0.1393866956947561,13.289409062124196
0.01838339398686285,-0.008741297332602236,1.6408641465074247
0.01888389448736335,-0.1597836946785205,-13.293817041072614
0.019384394987863852,-0.2882764056310129,-12.985722662118404
0.019884895488364352,-0.39084507814956704,-13.344825095290073
0.02038539598886485,-0.45750138686312236,-13.249209313793257
0.02088589648936535,-0.47482627876026534,-13.494799258141743
0.02138639698986585,-0.45670603544800675,-13.185166119975609
0.02188689749036635,-0.37879382101008807,-13.168473204078811
0.02238739799086685,-0.27035225039334215,-13.247722236376152
0.02288789849136735,-0.1350405393994775,-13.39240808621213
0.02338839899186785,0.01034840792714867,-13.30681812091173
0.023888899492368353,0.15432827612208683,13.279122715608246
0.024389399992868852,0.2855624777907718,13.360769782896101
0.024889900493369352,0.3964085590049119,13.415421057072574
0.025390400993869848,0.4559453901027527,13.073746486728357
0.02589090149437035,0.4740039515862994,13.263882573148537
0.026391401994870854,0.45465251175276883,13.115331821273228
0.02689190249537135,0.3787190105570856,13.192758954306436
0.027392402995871853,0.26835864286159855,13.37435383377433
0.02789290349637235,0.13324634259640042,13.250737829234057
0.028393403996872853,-0.0025014711018498956,13.097799471812925
0.02889390449737335,-0.15536021873885592,-13.090805601854983
0.029394404997873852,-0.2884352590996659,-13.132902556328228
0.029894905498374348,-0.38908622520219416,-13.426023783286313
0.03039540599887485,-0.4558546278382064,-13.003076640204071
0.030895906499375354,-0.47694017339547,-13.216390805350853
0.03139640699987585,-0.44899248869509084,-13.261152850293774
0.031896907500376354,-0.37754220635616953,-13.508084759338502
0.03239740800087685,-0.2717011999286113,-13.399151242318984
0.03289790850137735,-0.1295116088422758,-13.438496985036057
0.03339840900187785,0.011537274267881977,-13.31411509723687
0.03389890950237835,0.16058801264684783,13.557019036292203
0.03439941000287885,0.2968833043717291,13.140745064297937
0.03489991050337935,0.39556350884591507,13.315483454461978
0.03540041100387985,0.4544566412349138,13.356102743411487
0.03590091150438035,0.47511741642508554,13.094293393269329
0.036401412004880854,0.451277044600254,13.242246945115193
0.03690191250538135,0.37923446004001904,13.213539477131752
0.03740241300588185,0.27051787047816284,13.276431700925484
0.03790291350638235,0.12963674237419867,13.48031860886117
0.03840341400688285,-0.01283526674621898,13.354390195192625
0.03890391450738335,-0.1591006183720534,-13.299371759372791
0.03940441500788385,-0.29358728303211,-13.222702875920385
0.03990491550838435,-0.3956873863875482,-13.450991237826257
0.04040541600888485,-0.45874852568733154,-13.46172572346114
0.040905916509385354,-0.4748405950003022,-13.289124360853933
0.04140641700988585,-0.44450474242108867,-13.258657448031942
0.04190691751038635,-0.3779387239163879,-13.27129213531715
0.04240741801088685,-0.267380889117602,-13.15744598677397
0.04290791851138735,-0.12766537160193472,-13.01206038114537
0.04340841901188785,0.016569140233650356,-10.23784959381285
0.04390891951238835,0.1615585398578208,13.283895526999363
0.04440942001288885,0.2883958430940351,13.212009850861362
0.04490992051338935,0.3944904931192282,13.38340388636312
0.045410421013889854,0.4570919938390525,13.293121396096762
0.04591092151439035,0.4719406960753859,13.380740405236425
0.04641142201489085,0.44935307098107996,13.406720766210803
0.04691192251539135,0.3807239868971572,13.39861899276738
0.04741242301589185,0.2673604242317948,13.344166980083344
0.04791292351639235,0.12887102690877072,13.263731022336943
0.04841342401689285,-0.022533649955971284,13.24365902247319
0.04891392451739335,-0.15772501622960444,-13.166631930888242
0.04941442501789385,-0.2933333015260587,-13.26298202421775
0.049914925518394354,-0.398829578806891,-13.33347558278777
0.05041542601889485,-0.4617530313668763,-13.0489542393485
0.05091592651939535,-0.4766733940495702,-13.282207894362333
0.05141642701989585,-0.45420564566459665,-13.320821492496972
0.05191692752039635,-0.3766007188856205,-13.3527295328367
0.05241742802089685,-0.2698820961290352,-13.03545290080693
0.05291792852139735,-0.13269077592968953,-13.283237949841675
0.05341842902189785,0.022452614460553157,0.99838210848099
0.05391892952239835,0.16288928281590076,13.257002973315942
0.054419430022898854,0.29402669366776346,13.28342625224375
0.05491993052339935,0.3933516533309963,13.248298193516375
0.055420431023899853,0.4595053948361967,13.206579353075485
0.05592093152440035,0.47974909090131407,12.933672072928026
0.05642143202490085,0.4530678358830482,13.392947616397551
0.056921932525401356,0.37165770430759987,13.10348654121334
0.057422433025901845,0.2692779675827792,13.262744120711478
0.05792293352640235,0.1249417622806568,13.16535649349034
0.05842343402690285,-0.017009745412392332,13.057055890773059
0.058923934527403354,-0.16350800688776845,-13.404503111061137
0.05942443502790386,-0.291604921424297,-13.375631128152971
0.05992493552840435,-0.3977828522331615,-13.292596106481097
0.06042543602890485,-0.4610962189060572,-13.126817964243532
0.06092593652940535,-0.4746566572288416,-13.322459231302897
0.061426437029905856,-0.43930040135778153,-13.438066840742732
0.061926937530406345,-0.37358089639723485,-13.431820457432543
0.06242743803090685,-0.25854666539845483,-13.278873488003716
0.06292793853140735,-0.12825873985972902,-13.199911710502423
0.06342843903190785,0.029307336937223632,-13.227581264680872
0.06392893953240836,0.16400841291707627,13.349460484434164
0.06442944003290885,0.2954695977841961,13.298328801875522
0.06492994053340935,0.4018068050472664,13.249547360709007
0.06543044103390985,0.4570521535834349,13.047560456601436
0.06593094153441036,0.47768490112209633,13.519209506368227
0.06643144203491085,0.4441199908737246,13.293511869954955
0.06693194253541135,0.3775326361041715,13.524224725954227
0.06743244303591185,0.2591339970336375,13.388601480289527
0.06793294353641235,0.1270037955442223,13.33406686268104
0.06843344403691286,-0.027224940679917025,13.386587474000066
0.06893394453741335,-0.16917957359003416,-13.199115303595809
0.06943444503791385,-0.29730243432385656,-13.226466742187217
0.06993494553841435,-0.40409143967276484,-13.160388451712139
0.07043544603891486,-0.4607879780992688,-13.167427144529556
0.07093594653941535,-0.47843444551431674,-13.181265353300263
0.07143644703991585,-0.4435471111981342,-13.458128051734727
0.07193694754041635,-0.37031607689414875,-13.184066381682081
0.07243744804091685,-0.2620632905435612,-13.143217280855843
0.07293794854141736,-0.12098546875063397,-13.213760203597857
0.07343844904191785,0.019718601154051118,-13.283950612053392
0.07393894954241835,0.16936883155995822,13.221192541159855
0.07443945004291885,0.3024828729935924,13.271263780850344
0.07493995054341936,0.40100943667104444,13.076778195247337
0.07544045104391985,0.45874842053341763,13.396959597041084
0.07594095154442035,0.4790427011882478,13.091611029060472
0.07644145204492085,0.4448457744942794,13.494623057481839
0.07694195254542135,0.37139258301121314,13.286012945429723
0.07744245304592184,0.2602153948942954,13.129542258731114
0.07794295354642235,0.12247997218456157,13.444058244298045
0.07844345404692285,-0.028411756898712427,13.182992645138567
0.07894395454742335,-0.1718642704165243,-13.408140199872443
0.07944445504792386,-0.29847825864610145,-13.297945043767806
0.07994495554842435,-0.4030902827983975,-13.32765228653679
0.08044545604892485,-0.4601854731445304,-13.339352974325053
0.08094595654942535,-0.48049019172128155,-13.415582986227427
0.08144645704992585,-0.44765471370244303,-13.51338477765118
0.08194695755042634,-0.3737542415981815,-13.192456859548049
0.08244745805092694,-0.25831640633370206,-13.064297629266836
0.08294795855142735,-0.11960814301250522,-13.388460790486844
0.08344845905192785,0.024049355594330395,-12.176140790417827
0.08394895955242836,0.17394374315266062,13.175758400095834
0.08444946005292885,0.29851486144663886,13.171273938364209
0.08494996055342945,0.3992991682843896,13.346155282861337
0.08545046105392995,0.45789058642070446,13.214288386611544
0.08595096155443036,0.4740136891079388,13.292283761836002
0.08645146205493084,0.44423325888101206,13.340545363346862
0.08695196255543144,0.37274641416548654,13.417173420885504
0.08745246305593195,0.2591765956284235,13.280586939849016
0.08795296355643245,0.12055360776244053,13.07195237814326
0.08845346405693286,-0.025313936942591417,13.347021569616798
0.08895396455743335,-0.1649203647603826,-13.28649105833635
0.08945446505793395,-0.3007326111175137,-13.123837011658255
0.08995496555843445,-0.40175928596471944,-13.197683557165682
0.09045546605893495,-0.45968015922198047,-13.286172733889945
0.09095596655943534,-0.4752292028837125,-13.317699723799523
0.09145646705993594,-0.44520259200884466,-13.516040999383534
0.09195696756043645,-0.366161367213075,-13.017878540594861
0.09245746806093695,-0.2575457407453816,-13.431856790770082
0.09295796856143745,-0.11829364079731713,-13.276302852873005
0.09345846906193785,0.02936738059841936,-13.336927528819352
0.09395896956243845,0.17829433024297323,13.317748798470818
0.09445947006293895,0.30536648551937035,13.249693523673187
0.09495997056343945,0.40400914321855347,13.209026332303148
0.09546047106393996,0.45934472064774623,13.358412154335756
0.09596097156444044,0.47116535913724683,13.482913614193487
0.09646147206494095,0.4456387989827411,13.179867631375528
0.09696197256544145,0.3652330201363363,12.934946428570283
0.09746247306594195,0.2546436865120807,13.251136790683427
0.09796297356644246,0.11727417095926015,13.310487298940286
0.09846347406694295,-0.027595050760676938,13.292724817731607
0.09896397456744345,-0.1769083930312049,-13.354765005456255
0.09946447506794395,-0.306981746048832,-13.405205127703661
0.09996497556844446,-0.40540238314123117,-13.233402865841398
0.10046547606894494,-0.4604933458820305,-13.500682049807482
0.10096597656944545,-0.4751404053678355,-13.409465919822251
0.10146647706994595,-0.44317816053938913,-13.176183463959488
0.10196697757044645,-0.36383425212445075,-13.278009321499226
0.10246747807094696,-0.2535683308829773,-13.148572275068242
0.10296797857144745,-0.11906361234438752,-13.454997418608189
0.10346847907194795,0.0382319923612951,-13.319721105579125
0.10396897957244845,0.17620951320959224,13.261610184564766
0.10446948007294896,0.30563532113940006,13.20732190367464
0.10496998057344945,0.4111736529157801,13.195331587125816
0.10547048107394995,0.45798048418973614,13.220906028304801
0.10597098157445045,0.4806324144105551,13.17872677297472
0.10647148207495095,0.4472010520080045,13.22400516776242
0.10697198257545146,0.3701437566579475,13.30475188369237
0.10747248307595195,0.24603430009451824,13.40269054380629
0.10797298357645245,0.11940938498202457,13.16621296727303
0.10847348407695295,-0.0348853017108264,5.954474528395676
0.10897398457745346,-0.17570063500305755,-13.171495771919977
0.10947448507795395,-0.3109600088479547,-13.044347432591255
0.10997498557845445,-0.4042179221309914,-13.216378495579931
0.11047548607895495,-0.46568545594905236,-13.547082834722955
0.11097598657945545,-0.4795027430724247,-13.173109720393306
0.11147648707995596,-0.4438450564718648,-13.301890247513784
0.11197698758045645,-0.360625686825989,-13.14554673708019
0.11247748808095695,-0.25057224754950874,-13.360954445585293
0.11297798858145745,-0.11023662679334789,-13.111631357243835
0.11347848908195796,0.035930170713633566,-11.032684438194343
0.11397898958245845,0.17993318314658358,13.503827036586996
0.11447949008295895,0.3041182172933716,13.233608850025691
0.11497999058345945,0.40702850662765766,13.267472923504874
0.11548049108395995,0.46157748924533,13.515164171599444
0.11598099158446046,0.4696717024612906,13.433268203301504
0.11648149208496095,0.4423882214174442,13.352453405540432
0.11698199258546145,0.36055722943691537,13.399292003975242
0.11748249308596195,0.2528675035385638,13.079617768782436
0.11798299358646246,0.11127950244513873,13.28166357052494
0.11848349408696296,-0.03518793732892981,13.294399768098842
0.11898399458746345,-0.1836784136507006,-13.187845946313915
0.11948449508796394,-0.30634973032312474,-13.315630804686432
0.11998499558846445,-0.4083858238432773,-13.440369774393343
0.12048549608896494,-0.4648106024888258,-13.248518835160219
0.12098599658946546,-0.46981886076127866,-13.355306595882492
0.12148649708996595,-0.438432729320378,-13.23748316325828
0.12198699759046644,-0.3629190326459307,-13.489170653753495
0.12248749809096696,-0.24980693314371508,-13.447086708296101
0.12298799859146745,-0.10999278735481824,-13.441144799529866
0.12348849909196796,0.041528827732773554,-13.223753306568184
0.12398899959246845,0.1871235886683748,13.23585880378332
0.12448950009296894,0.31202275074588576,13.436047127474234
0.12499000059346946,0.41110891143064177,13.198156950421195
0.12549050109396995,0.46220656022378676,13.376070163867233
0.12599100159447046,0.4774283322712878,13.435854888303993
0.12649150209497095,0.44085707949852404,13.434789693720255
0.12699200259547144,0.3605551179544004,13.365595077999977
0.12749250309597196,0.2510976035184208,13.139754005466493
0.12799300359647245,0.10632467375690335,13.425392810039785
0.12849350409697294,-0.04653601473167468,-1.5799253093145045
0.12899400459747346,-0.19146779661501181,-13.499074043423953
0.12949450509797394,-0.31312852960054416,-13.131146334429538
0.12999500559847446,-0.41534248427155424,-13.256402798029965
0.13049550609897495,-0.46460574774283586,-13.30093962799804
0.13099600659947544,-0.4709106547135591,-13.31076459910341
0.13149650709997596,-0.4416836351656667,-13.288232298103244
0.13199700760047645,-0.360590011043258,-13.260451191886544
0.13249750810097696,-0.23955322966562445,-13.489097279571192
0.13299800860147745,-0.10910845098863844,-13.305054630474773
0.13349850910197794,0.041657787754578644,-13.08389672128723
0.13399900960247846,0.18867621842949486,13.289535644969607
0.13449951010297895,0.314757929933037,13.486817362018195
0.13500001060347946,0.417390745537688,13.152472392127443
0.13550051110397995,0.46622047083686197,13.301518769212459
0.13600101160448044,0.4763321746883834,13.252005625379333
0.13650151210498096,0.4361053379769483,13.234153449398697
0.13700201260548145,0.3628803537730585,13.344874951961328
0.13750251310598194,0.23577059552008575,13.174535173776652
0.13800301360648246,0.10274962560007121,13.29950473122909
0.13850351410698294,-0.041009158232681794,13.322431031512556
0.13900401460748346,-0.18763049523285058,-13.187016722614173
0.13950451510798395,-0.3164972832543241,-13.390570106926729
0.14000501560848444,-0.4047654937167375,-13.177995353347496
0.14050551610898496,-0.4617130997773661,-13.434870705950267
0.14100601660948545,-0.47670621071717184,-13.450749206066165
0.14150651710998596,-0.43718899351371976,-13.41925478847944
0.14200701761048645,-0.35527141208746443,-13.389291470917842
0.14250751811098694,-0.24796980853894499,-13.210685036970382
0.14300801861148746,-0.10538053343777345,-13.432698847388847
0.14350851911198795,0.04072970305956076,-10.832233411525202
0.14400901961248846,0.1806462969557121,13.293996256166311
0.14450952011298895,0.31792563026091997,13.420911851389164
0.14501002061348944,0.40605206908507807,13.294369796093166
0.14551052111398996,0.47103229174742406,13.213739832554474
0.14601102161449045,0.4728197832261443,12.961399595727618
0.14651152211499094,0.43855774837028566,13.167263138398459
0.14701202261549146,0.35544454248998814,13.330565269421848
0.14751252311599194,0.2436805325441318,13.14410757316796
0.14801302361649246,0.10272601356568867,13.037613379622526
0.14851352411699295,-0.05063660977636203,13.142987781215496
0.14901402461749344,-0.19162192016964544,-13.442932606031118
0.14951452511799396,-0.3176395304014578,-13.222489542000105
0.15001502561849445,-0.4124484052549836,-12.990487830662063
0.15051552611899496,-0.4609071393016471,-13.383566891882444
0.15101602661949545,-0.4723715261771759,-13.197453937717711
0.15151652711999594,-0.4368401099804709,-13.318822802087178
0.15201702762049646,-0.35223406049765027,-13.169611780334666
0.15251752812099695,-0.23948285463309843,-13.17379016889792
0.15301802862149744,-0.10113929419063553,-13.113979681017486
0.15351852912199795,0.0517389219511843,-10.228194304635997
0.15401902962249844,0.18819266284297154,13.056514085160021
0.15451953012299896,0.32101589467440494,13.335114747630126
0.15502003062349945,0.41055111120861093,13.333227761472791
0.15552053112399994,0.4661653417695241,13.153197238212817
0.15602103162450046,0.47699375117614196,13.139095112257662
0.15652153212500095,0.4364683097949777,13.216374109858652
0.15702203262550146,0.35344505611744104,13.280799187893555
0.15752253312600195,0.23984528030592409,13.14904502193465
