Time,Vin,Vout
0.005149085009077445,-0.00377218603020334,0.0006077978881505107
0.0056495855095779444,0.15688091226309675,0.052158831367540966
0.006150086010078445,0.29722155942922296,0.17987210601193324
0.006650586510578945,0.4144172147705754,0.31182176213959245
0.007151087011079445,0.4827166721295081,0.424173274555046
0.007651587511579945,0.5066841111745951,0.4952999184267364
0.008152088012080444,0.4716950279089819,0.5063342974235489
0.008652588512580946,0.41404373594630756,0.4771127406465581
0.009153089013081445,0.29104814918103744,0.4050893386780123
0.009653589513581945,0.1580943333457856,0.2844399838609293
0.010154090014082445,-0.0009938551583782468,0.13991769669963589
0.010654590514582944,-0.1563638409742928,-0.02037357281857618
0.011155091015083444,-0.2980189521039417,-0.1760870271582121
0.011655591515583945,-0.40955044206905494,-0.3183056970918765
0.012156092016084445,-0.47922831706898544,-0.4206397471282349
0.012656592516584944,-0.5037746737619756,-0.4964479002413492
0.013157093017085444,-0.4761143848896759,-0.5097506895058117
0.013657593517585945,-0.41002961404416305,-0.4743746521468997
0.014158094018086445,-0.2950465809113674,-0.3967451344189647
0.014658594518586945,-0.15142394103621895,-0.28133680430210534
0.015159095019087444,0.005795139628655376,-0.1362373187851122
0.015659595519587944,0.15663210240304887,0.020409123762767375
0.016160096020088444,0.30217855412579164,0.17935364370173612
0.016660596520588947,0.4082566478100852,0.3215483557735797
0.017161097021089443,0.47783968183455117,0.4221951797705916
0.017661597521589946,0.504426103921277,0.4951127907988078
0.018162098022090446,0.47842615524100146,0.5102034968190462
0.018662598522590945,0.40472673808662796,0.47916046393205847
0.019163099023091445,0.29235910696696216,0.39911416724769644
0.019663599523591944,0.156361939402288,0.28062158796166337
0.020164100024092444,-0.006982331483077698,0.13453473851510553
0.020664600524592944,-0.15761354283099693,-0.021599937844712865
0.021165101025093443,-0.2993968429911384,-0.179183322941394
0.021665601525593946,-0.41448493107956863,-0.3146766221644249
0.022166102026094446,-0.48540240700215753,-0.42607021242423576
0.022666602526594946,-0.5142091605784229,-0.4915345815571615
0.023167103027095445,-0.4774206978637157,-0.5016631645368801
0.023667603527595945,-0.4037686937027812,-0.4767565378821032
0.024168104028096445,-0.29434501779000266,-0.3981994214510498
0.024668604528596944,-0.1489665941608869,-0.2769317214240789
0.025169105029097444,0.011248139616135286,-0.13497520418022763
0.025669605529597943,0.15696650214203484,0.02272185798004296
0.026170106030098443,0.30301350329097626,0.18389151160314432
0.026670606530598946,0.4140445263543839,0.3169795163387292
0.027171107031099446,0.4815645295463831,0.4285682402691409
0.027671607531599945,0.5159583389406153,0.4928763114281992
0.028172108032100445,0.4782556942973647,0.5043024854969917
0.028672608532600945,0.4115900027809188,0.48083451959593904
0.029173109033101444,0.2914996041541577,0.39650165855877123
0.029673609533601944,0.1541849466196016,0.28280215067673387
0.030174110034102444,-0.009699588999726427,0.1340757430918767
0.030674610534602943,-0.16677639000579303,-0.01986788151493359
0.031175111035103446,-0.3138056973788493,-0.17782735802927926
0.03167561153560394,-0.418526978783809,-0.32345086024163294
0.032176112036104446,-0.4836126236418489,-0.42434939845494085
0.03267661253660495,-0.507115219726064,-0.49788399936148114
0.033177113037105445,-0.4706902234126235,-0.5030246030515366
0.03367761353760594,-0.41097340604108235,-0.4809396480355416
0.034178114038106444,-0.29265312729400644,-0.392478990678987
0.03467861453860695,-0.146472365454873,-0.27146413163610045
0.03517911503910744,0.005148403362163005,-0.12735890232893338
0.035679615539607946,0.15883832500945044,0.03658311774820957
0.03618011604010844,0.3074436713220994,0.1878048871161281
0.036680616540608946,0.42161210902616125,0.3171768156278982
0.03718111704110944,0.47735500106936896,0.425041459301143
0.037681617541609945,0.5088443185139885,0.4977541503519513
0.03818211804211045,0.4745993436138183,0.5101125933761383
0.038682618542610944,0.40203345442322186,0.4747082310301047
0.03918311904311145,0.2909426436646309,0.39351778510193147
0.039683619543611943,0.14641985865061202,0.27748031366650633
0.04018412004411245,-0.01155159677611956,0.12831967522596255
0.04068462054461294,-0.16685257095888456,-0.026668295077457146
0.041185121045113446,-0.3058271850948137,-0.18327905403470038
0.04168562154561394,-0.41599485355607313,-0.3227675590153598
0.042186122046114445,-0.4822796620682152,-0.42587352039564297
0.04268662254661495,-0.505049569629565,-0.49943149321435176
0.043187123047115444,-0.47622705653584557,-0.5085787032824644
0.04368762354761595,-0.4061496768791771,-0.4714968067281432
0.044188124048116444,-0.28923166027292224,-0.3910788301868145
0.04468862454861695,-0.1443960357351237,-0.267939811850284
0.04518912504911744,0.016699552368190658,-0.12713984612067103
0.045689625549617946,0.1697092311678359,0.03563354404516044
0.04619012605011844,0.3059781533946667,0.1899610344490649
0.046690626550618945,0.41493615177339604,0.3259923828746054
0.04719112705111944,0.4883675127293021,0.43239988302996335
0.047691627551619944,0.5086647256635386,0.49986522284061535
0.04819212805212045,0.4785036436256951,0.5133823638289049
0.048692628552620944,0.4063330606840323,0.47365508021450003
0.04919312905312145,0.2924062680395268,0.3963140633678388
0.04969362955362194,0.14865158992585326,0.2716222512849423
0.050194130054122446,-0.013329856595222535,0.13095482803488995
0.05069463055462294,-0.17005117061172698,-0.03314977320498717
0.051195131055123445,-0.3090178026087704,-0.19088886109336614
0.05169563155562394,-0.4165163904677087,-0.3228338461483179
0.052196132056124445,-0.47731810525302604,-0.4273850015746284
0.05269663255662495,-0.5026911172872581,-0.4964869218006781
0.053197133057125444,-0.4784052181967068,-0.5063022030762967
0.05369763355762595,-0.4037663324420626,-0.4730877718820043
0.05419813405812644,-0.2802247836893942,-0.39364938616792317
0.054698634558626946,-0.14198642115493107,-0.26728667007140533
0.05519913505912744,0.015245732348224036,-0.12753864067876533
0.055699635559627945,0.17094763810570054,0.0356917041158234
0.05620013606012844,0.3068420213237498,0.18887737010663883
0.056700636560628945,0.41375822430527404,0.3289922951427353
0.05720113706112945,0.48279090448939255,0.42701349575704833
0.057701637561629944,0.5057836245152674,0.49830169686255005
0.05820213806213045,0.475786653026487,0.5056505617001427
0.05870263856263094,0.40601654262634307,0.47683385953782204
0.059203139063131446,0.2855138643867297,0.38624267574935617
0.05970363956363194,0.14035984414328515,0.26793603308889213
0.060204140064132446,-0.013321995340701335,0.125651355264554
0.06070464056463294,-0.17165935231428053,-0.03509817868228197
0.061205141065133445,-0.30767468035721884,-0.18848570784013638
0.06170564156563395,-0.42393076325569273,-0.32939362567658786
0.062206142066134444,-0.48200467547235504,-0.42566399995607523
0.06270664256663494,-0.5050172508370847,-0.4921283137724328
0.06320714306713544,-0.47338522286173385,-0.5015698909563838
0.06370764356763595,-0.39681647749274157,-0.4692433204891556
0.06420814406813644,-0.2819340693481454,-0.3897691205902135
0.06470864456863695,-0.13777066411057146,-0.2721370207669805
0.06520914506913744,0.01927737945794343,-0.11899643125951075
0.06570964556963795,0.17368288305982746,0.03821007673193517
0.06621014607013845,0.3129054673086969,0.1908879525165123
0.06671064657063894,0.41231052975458543,0.3347147482883098
0.06721114707113945,0.4851199759685071,0.4356063455774149
0.06771164757163994,0.5070955736979093,0.4975928275542662
0.06821214807214045,0.47716336634767975,0.506620884010801
0.06871264857264095,0.39918788092496804,0.467474043972556
0.06921314907314144,0.2788041585906389,0.38958527007704313
0.06971364957364194,0.13833211119373334,0.26784154215965633
0.07021415007414245,-0.018357760937694353,0.11795840644087427
0.07071465057464295,-0.17464604843424048,-0.033411885924544256
0.07121515107514345,-0.319365271413198,-0.19269199571423007
0.07171565157564394,-0.4148250691771566,-0.3286999307486731
0.07221615207614444,-0.48031134865204506,-0.43025125958756344
0.07271665257664495,-0.5009210643219143,-0.4975312709139895
0.07321715307714545,-0.47508153908109796,-0.513234829226118
0.07371765357764594,-0.39661063323546153,-0.4765500529387202
0.07421815407814644,-0.2754780588621586,-0.3853740916704872
0.07471865457864695,-0.1341616364026169,-0.2653257680540502
0.07521915507914745,0.025361459186989288,-0.11844750496482132
0.07571965557964795,0.17804966603190867,0.03630471251400644
0.07622015608014844,0.3151819307960607,0.1931225415288035
0.07672065658064894,0.42693604532330176,0.33347725402363765
0.07722115708114945,0.48057822066290234,0.43653288505730037
0.07772165758164995,0.5048706327573556,0.49550830441170496
0.07822215808215044,0.47097053455413884,0.49964075313260703
0.07872265858265094,0.39391072082324285,0.4601993526819687
0.07922315908315145,0.2807028267223648,0.3896843590963999
0.07972365958365195,0.13334842898854712,0.26748281892368286
0.08022416008415245,-0.02343515683102732,0.12541332322293086
0.08072466058465294,-0.17940023245551873,-0.04038689182017586
0.08122516108515344,-0.31477121773698896,-0.18799549443084174
0.08172566158565395,-0.4213089818487574,-0.3358413579885386
0.08222616208615445,-0.49287198757894074,-0.4370627962492365
0.08272666258665494,-0.5010090332549793,-0.49368703168828615
0.08322716308715544,-0.4705858300265749,-0.5078282555231477
0.08372766358765595,-0.39398622712417786,-0.46481753256410974
0.08422816408815645,-0.2709742249175465,-0.38844052977350213
0.08472866458865695,-0.1357532618169378,-0.26469248767812403
0.08522916508915744,0.018347024650002458,-0.11261007153508469
0.08572966558965794,0.18578416584231788,0.048137294943504716
0.08623016609015845,0.315164860812701,0.1976805193850185
0.08673066659065895,0.42951572909501823,0.33579455662497654
0.08723116709115944,0.49248781011627846,0.43695140251549847
0.08773166759165994,0.5025865695368622,0.49499906968054463
0.08823216809216045,0.47767221476750893,0.5089115678787178
0.08873266859266095,0.39262435159307607,0.4680742214500962
0.08923316909316144,0.2784764715797584,0.3875972699309352
0.08973366959366194,0.13335405543252185,0.267038502191359
0.09023417009416244,-0.02412710304746019,0.11787367940715124
0.09073467059466295,-0.18116976274295105,-0.037207257260806245
0.09123517109516345,-0.3171993990444815,-0.19780860588130178
0.09173567159566394,-0.42777471037788917,-0.33100563873552263
0.09223617209616444,-0.49393779318000813,-0.43837401299093176
0.09273667259666495,-0.5060211738685179,-0.4984527529653453
0.09323717309716545,-0.4739729662225725,-0.5101783890891507
0.09373767359766594,-0.3901158561926798,-0.46563843511518344
0.09423817409816654,-0.2747623924133583,-0.38212122966397544
0.09473867459866694,-0.12860392823833508,-0.26569132740807855
0.09523917509916745,0.028573798220250024,-0.11432275395394424
0.09573967559966795,0.1810237080647718,0.04782859298822821
0.09624017610016844,0.32169776894657304,0.20514423360604309
0.09674067660066904,0.42458464765580844,0.34350681831710045
0.09724117710116954,0.4903880196622599,0.4420047252001455
0.09774167760166995,0.5021363243557468,0.49364492629980244
0.09824217810217044,0.4698869585682178,0.5071699728391992
0.09874267860267104,0.3878249806083984,0.4694060792382132
0.09924317910317154,0.2671443107883153,0.379999735259667
0.09974367960367204,0.12860080355215128,0.25956637452455045
0.10024418010417245,-0.02883874998009832,0.11685303798543195
0.10074468060467294,-0.18440454552182736,-0.04931248997238723
0.10124518110517354,-0.32633256915551623,-0.20061285914756
0.10174568160567404,-0.42718548949211843,-0.3409391509909188
0.10224618210617455,-0.4903653366782095,-0.4385438403333282
0.10274668260667494,-0.5038456867682947,-0.49176957012558153
0.10324718310717554,-0.46910723874369203,-0.5023574331723516
0.10374768360767604,-0.39157474318826296,-0.4625174023891228
0.10424818410817654,-0.2702536356931654,-0.3886250586816002
0.10474868460867705,-0.1224813242474094,-0.2594812645090994
0.10524918510917744,0.033534573074381686,-0.11104444244073272
0.10574968560967804,0.1890802374681151,0.046269537742127984
0.10625018611017854,0.32845625870490097,0.19669430171709837
0.10675068661067905,0.43013171566237857,0.3448459623026115
0.10725118711117955,0.48956987241424893,0.43884691432346556
0.10775168761168004,0.5117498912529471,0.49891443944140873
0.10825218811218054,0.4742325984425847,0.5042040572984284
0.10875268861268104,0.3887156171168449,0.472106926933502
0.10925318911318155,0.2741043550917216,0.37997976329493016
0.10975368961368205,0.11825423812869408,0.25689869301736706
0.11025419011418254,-0.02767424037684605,0.10953017373065518
0.11075469061468304,-0.1859666990589868,-0.05001615637497037
0.11125519111518355,-0.3210707162529927,-0.19724617260733876
0.11175569161568405,-0.4276989834932856,-0.3338201098942179
0.11225619211618454,-0.48983864515322756,-0.4426686743121842
0.11275669261668504,-0.5035936071808931,-0.499755062265374
0.11325719311718555,-0.46496888617809956,-0.4979665840489698
0.11375769361768605,-0.38634563590666193,-0.467045216653393
0.11425819411818655,-0.26831131031597166,-0.3740041192114094
0.11475869461868704,-0.11979923594185697,-0.2575287298945541
0.11525919511918754,0.03038462798527816,-0.1000541654263996
0.11575969561968805,0.18440599768374763,0.05152919778246858
0.11626019612018855,0.3238150759412302,0.205214417076022
0.11676069662068904,0.43234253799686206,0.340969246058378
0.11726119712118954,0.4849933397317628,0.4459911615122272
0.11776169762169005,0.510552803413108,0.5066771802372821
0.11826219812219055,0.4697137286864305,0.5093630264654575
0.11876269862269105,0.38206566217692883,0.4702205041293836
0.11926319912319154,0.264699324249783,0.37909288708256106
0.11976369962369204,0.12153595883888828,0.2538761248076746
0.12026420012419255,-0.035659222520899994,0.10508883199194781
0.12076470062469305,-0.18639631000687354,-0.04976153727577097
0.12126520112519354,-0.33130127739200393,-0.21164575199536176
0.12176570162569404,-0.43029639137032866,-0.3447748753415229
0.12226620212619455,-0.48656941431701856,-0.4334337707470372
0.12276670262669505,-0.49808635008552404,-0.5001027710474389
0.12326720312719555,-0.4712478030951877,-0.5088060209764973
0.12376770362769604,-0.3817806132351778,-0.4615360111409862
0.12426820412819654,-0.2675339152834259,-0.37615529459320673
0.12476870462869705,-0.1244427656443234,-0.24971864722519405
0.12526920512919754,0.03956561309041898,-0.10120114668665055
0.12576970562969803,0.1876447637574524,0.05491549139256167
0.12627020613019854,0.32291666416798387,0.216408361241659
0.12677070663069906,0.4322041701424711,0.3426399622633806
0.12727120713119955,0.4885419803724125,0.44330104072892407
0.12777170763170004,0.5037623958024567,0.5012547448863989
0.12827220813220053,0.4668154723143269,0.51330156035568
0.12877270863270104,0.38419486895580207,0.4612283529551351
0.12927320913320156,0.26203274198223886,0.3754849543186603
0.12977370963370205,0.12264143383273388,0.2520405520650567
0.13027421013420254,-0.04133482002449991,0.10145340159868288
0.13077471063470303,-0.19190496463097872,-0.05635727917603449
0.13127521113520352,-0.3247303925939677,-0.2158716882503027
0.13177571163570406,-0.42884504119268413,-0.34446390104665514
0.13227621213620455,-0.48983337922470205,-0.44718526455804497
0.13277671263670504,-0.5021111017085579,-0.4958533275918038
0.13327721313720553,-0.465285381304413,-0.5107048434845025
0.13377771363770602,-0.3835188415903618,-0.4677992281220011
0.13427821413820656,-0.26864890941240765,-0.37625312238518077
0.13477871463870705,-0.11354295435394204,-0.24884884929770923
0.13527921513920754,0.046201642496446024,-0.0987508944556908
0.13577971563970803,0.19307716658388585,0.060955767851308795
0.13628021614020852,0.327274442900814,0.21327924202332296
0.13678071664070907,0.4330517903356412,0.3408514595340425
0.13728121714120955,0.49104889525721707,0.4455670403719849
0.13778171764171004,0.5018041516482348,0.5057794898605247
0.13828221814221053,0.47169937221393377,0.5101426603174466
0.13878271864271102,0.3878020238049859,0.4633248513718919
0.13928321914321157,0.2669668017041987,0.36946872093674865
0.13978371964371206,0.10964970912549074,0.25555399337041146
0.14028422014421255,-0.03852144812732177,0.10445901396334115
0.14078472064471304,-0.1947524091495022,-0.05677485816988601
0.14128522114521352,-0.3305523161441986,-0.2133523990515276
0.14178572164571407,-0.43855489475246856,-0.34121239508095186
0.14228622214621456,-0.49205278776882394,-0.43865870708418153
0.14278672264671505,-0.5021329191460286,-0.4922538855792418
0.14328722314721554,-0.46386613198395715,-0.5105449805212641
0.14378772364771603,-0.3798031449122664,-0.4643386048547005
0.14428822414821657,-0.26140634870947754,-0.3672533853175269
0.14478872464871706,-0.11266864736827058,-0.25061971917756115
0.14528922514921755,0.048595127200552916,-0.09676367408722103
0.14578972564971804,0.2023860474559466,0.0657142630871996
0.14629022615021853,0.33044335448608675,0.2145030929837694
0.14679072665071907,0.43409810369931867,0.35862151927418295
0.14729122715121956,0.4938768073921429,0.44808959075048227
0.14779172765172005,0.5057326674642142,0.4958913212809489
0.14829222815222054,0.4638492196861183,0.5029546577215406
0.14879272865272103,0.38382907043902065,0.4598288801164803
0.14929322915322152,0.26113750055216645,0.36703302513445
0.14979372965372206,0.1122009785537479,0.24548946577426461
0.15029423015422255,-0.04598497471395904,0.09392810563676568
0.15079473065472304,-0.202863573354941,-0.06810352819369468
0.15129523115522353,-0.3356361332142269,-0.21376094579390417
0.15179573165572402,-0.4339802026119053,-0.34733555056338244
0.15229623215622456,-0.4882719987402972,-0.44365372374145373
0.15279673265672505,-0.5040824673032474,-0.49945839396475256
0.15329723315722554,-0.4697808361654359,-0.5019191876853387
0.15379773365772603,-0.37727566473529245,-0.4612509949441215
0.15429823415822652,-0.26015517745236466,-0.3749740199835122
0.15479873465872707,-0.11314170525707279,-0.24396471744916334
0.15529923515922756,0.04858153090473571,-0.09174173287458436
0.15579973565972804,0.1979069798772518,0.0657076683910619
0.15630023616022853,0.33303696807844396,0.22481412567608264
0.15680073666072902,0.43128243406124644,0.35300832479113536
0.15730123716122957,0.4931583333762846,0.44767176921892865
0.15780173766173006,0.5042107951627425,0.49913692653437086
0.15830223816223055,0.46371569912628935,0.5062913176355334
0.15880273866273104,0.37910912523087326,0.4564909185004861
0.15930323916323152,0.2593822880275996,0.37418041107328825
0.15980373966373207,0.11117046092823626,0.24712465824826926
0.16030424016423256,-0.046211866975327795,0.09516540031906293
0.16080474066473305,-0.20108747230868548,-0.06565014736486166
0.16130524116523354,-0.3333898499408289,-0.2230878285435547
0.16180574166573403,-0.43958719998861134,-0.3538359785725737
0.16230624216623457,-0.49771534293022507,-0.4534445070704521
0.16280674266673506,-0.5072383381941593,-0.5018953752217779
0.16330724316723555,-0.4676209065232406,-0.505371329445023
0.16380774366773604,-0.37891484795900854,-0.45647927455369347
0.16430824416823653,-0.2559014122461316,-0.3687092559595244
0.16480874466873702,-0.10917444854756048,-0.24335485832639317
0.16530924516923756,0.0500067217565873,-0.09744681842619353
0.16580974566973805,0.20662385238238257,0.07329714521787954
0.16631024617023854,0.3314646726533991,0.2232515918696355
0.16681074667073903,0.4348030106166369,0.3535795215653364
0.16731124717123952,0.4933695084979869,0.4556791269643075
0.16781174767174006,0.5004873024402055,0.49830019812154286
