Time,Vin,Vout
-0.00185453350468932,-0.0034690329497815207,-0.0008655285670979678
-0.00135403300418882,0.15895586898843383,0.1347644742860539
-0.0008535325036883202,0.302962332026399,0.505035955444045
-0.0003530320031878201,0.4129046583915011,0.7952874882828174
0.00014746849731267974,0.48735540760592266,0.9533164560662575
0.0006479689978131798,0.5144456269982515,1.0578295173598737
0.0011484694983136799,0.48431447838622094,1.0428547879744383
0.00164896999881418,0.4148206653404295,0.9248009471699228
0.0021494704993146796,0.30543471325921995,0.71525963923253
0.00264997099981518,0.16316123398199703,0.43834825698807833
0.0031504715003156797,-0.0022818070183736635,0.11292952186564596
0.00365097200081618,-0.1622310506954245,-0.2207928377894776
0.00415147250131668,-0.2973636796088481,-0.5153860686435794
0.00465197300181718,-0.4173219618620905,-0.7936317537432371
0.00515247350231768,-0.4826963049961638,-0.9663190412187557
0.0056529740028181796,-0.5099811580263931,-1.059590622464057
0.006153474503318679,-0.491220657749552,-1.0382921582993816
0.0066539750038191806,-0.41093365020567113,-0.9280370718320362
0.00715447550431968,-0.29889554014013087,-0.7174894947763133
0.00765497600482018,-0.15079706245008961,-0.4425936094294705
0.00815547650532068,0.009520032288569751,-0.11911060973407817
0.008655977005821179,0.16169807959036636,0.21176332546570395
0.00915647750632168,0.29992740706843346,0.5073767642023752
0.00965697800682218,0.419525388755835,0.7884892926715896
0.01015747850732268,0.48507976478109555,0.9625679394247003
0.01065797900782318,0.5102418435169688,1.0640711642715992
0.01115847950832368,0.48447228256530855,1.0448463109451769
0.01165898000882418,0.4078869629093905,0.9257200012899447
0.01215948050932468,0.29914974085700446,0.7271081782615785
0.01265998100982518,0.14630751412527576,0.4326252458722313
0.01316048151032568,-0.0033650643276684025,0.13399286488027964
0.01366098201082618,-0.16654905837755296,-0.2052845769232837
0.014161482511326678,-0.29888166618349427,-0.5205113233031367
0.014661983011827182,-0.41934323135605367,-0.7848860085194148
0.015162483512327681,-0.4890356718159503,-0.963199169143812
0.01566298401282818,-0.5138437717157366,-1.0438250906061766
0.01616348451332868,-0.48664819165254086,-1.0433766908318358
0.01666398501382918,-0.4083782067692959,-0.9139464340036147
0.01716448551432968,-0.2921560417387964,-0.7105793962281154
0.01766498601483018,-0.14828980146450732,-0.4387268658093092
0.01816548651533068,0.008813878331875007,-0.11386514358356066
0.01866598701583118,0.17303629044970306,0.22785503752643113
0.019166487516331678,0.30242906176849416,0.5304056188549751
0.01966698801683218,0.4133051837257903,0.7971085500670646
0.02016748851733268,0.48632875660958585,0.9704358373745177
0.02066798901783318,0.5091669171894843,1.0553076918897215
0.02116848951833368,0.4876128461046189,1.0509551190966118
0.02166899001883418,0.40572230862786574,0.9197150699343383
0.02216949051933468,0.29519856733780087,0.7079986066626213
0.02266999101983518,0.14774536918562242,0.4374440734079287
0.02317049152033568,-0.004405772118961052,0.12284068355325288
0.02367099202083618,-0.16250839254468546,-0.22004074969126966
0.02417149252133668,-0.30439695745375867,-0.536360682903058
0.02467199302183718,-0.41662038822920855,-0.7815261243067428
0.02517249352233768,-0.4901856489324703,-0.9684831860048069
0.02567299402283818,-0.5069280753479006,-1.057495703040828
0.02617349452333868,-0.4812433668961321,-1.0356142894888305
0.02667399502383918,-0.40464933640096173,-0.9104786965574586
0.02717449552433968,-0.29645128243557756,-0.7100109938557113
0.02767499602484018,-0.14584137741229175,-0.4413992534587103
0.02817549652534068,0.010756608639681576,-0.10119014806743883
0.02867599702584118,0.16241565243418193,0.2199836642839714
0.02917649752634168,0.30486025480148404,0.5316006220517132
0.02967699802684218,0.4164012954897635,0.782818716865658
0.030177498527342677,0.486564729145895,0.9828725936744657
0.03067799902784318,0.5075900266408103,1.0600478338735677
0.031178499528343683,0.4806908878346425,1.0403004667842233
0.031679000028844176,0.40199146505535605,0.9148529783981005
0.03217950052934468,0.2877721126873528,0.7004607701517624
0.03268000102984518,0.14603024860640745,0.4239066692321455
0.033180501530345685,-0.006689089983808613,0.1005355287772866
0.033681002030846174,-0.1727597020489126,-0.23681457250574722
0.03418150253134668,-0.3081769610593222,-0.5346162118570986
0.03468200303184718,-0.4232302129993309,-0.7944038998093679
0.035182503532347684,-0.49190768560598175,-0.9741100236761588
0.03568300403284819,-0.511278719450147,-1.0672831352720775
0.036183504533348676,-0.4870752166256199,-1.0397090246061524
0.03668400503384918,-0.4015620148275835,-0.912289745112043
0.03718450553434968,-0.2964941967771886,-0.7004671297740677
0.037685006034850185,-0.14870546932425907,-0.4288301420111057
0.038185506535350675,0.008020895574796549,-0.0945153452478017
0.03868600703585118,0.17470392781830904,0.24201552168737986
0.03918650753635168,0.3081822029634473,0.5364031479019881
0.039687008036852184,0.4170467600980579,0.7733311070298997
0.04018750853735267,0.48787237242735965,0.9834298042955189
0.040688009037853176,0.5035849817736692,1.0527612105760937
0.04118850953835368,0.47961881059270894,1.036718978466398
0.04168901003885418,0.40609669899705775,0.9150910063580703
0.042189510539354685,0.2886758625924312,0.7101990307549654
0.042690011039855175,0.14243969211823163,0.42223501419478215
0.04319051154035568,-0.015371023706586624,0.09175210636830947
0.04369101204085618,-0.17085458800954645,-0.22626586034439916
0.044191512541356684,-0.3129893046785803,-0.5449789460606135
0.04469201304185717,-0.42312983917374164,-0.8017945566505105
0.045192513542357676,-0.48701736678671975,-0.9570383883093012
0.04569301404285818,-0.5066011017356097,-1.069803090862667
0.04619351454335868,-0.4842560310408647,-1.0406115458644527
0.046694015043859186,-0.4031082262320516,-0.9194789702712781
0.047194515544359675,-0.28523172188388246,-0.6903856377550643
0.04769501604486018,-0.13960209788378342,-0.4309126268716005
0.04819551654536068,0.010920203287938727,-0.10367034215865345
0.048696017045861184,0.17071370802999697,0.23551794381260036
0.04919651754636167,0.3102732886952105,0.5403134323137312
0.049697018046862176,0.42522107569266065,0.805809311454837
0.05019751854736268,0.48975863302803324,0.9720563211825232
0.05069801904786318,0.5056416429449994,1.0490779077823753
0.051198519548363686,0.4805685570588763,1.0413111707825733
0.051699020048864175,0.40634738724651454,0.9023668118350516
0.05219952054936468,0.28736906260663936,0.6927846186535425
0.05270002104986518,0.13976016195191365,0.4241108759324836
0.053200521550365684,-0.019727136503563208,0.09150192359117723
0.05370102205086617,-0.1794515187464049,-0.23140802867425056
0.054201522551366677,-0.3132796386852132,-0.5471590628803131
0.05470202305186718,-0.42688743909457655,-0.8146279651110946
0.05520252355236768,-0.487046242341658,-0.9815711175569982
0.055703024052868186,-0.5103580569496347,-1.0589709345851896
0.056203524553368675,-0.47896975486534427,-1.034855871419002
0.05670402505386918,-0.40083962943258256,-0.9053645786740881
0.05720452555436968,-0.27805960757085724,-0.69467974312091
0.057705026054870184,-0.1327469954998264,-0.41004916532583335
0.058205526555370674,0.01967497158993603,-0.08977385324242193
0.05870602705587118,0.17303598092509617,0.23302976314535798
0.05920652755637168,0.3186957333473199,0.5475893510796608
0.05970702805687218,0.4252182666925774,0.7963569362805574
0.060207528557372686,0.4875439074464723,0.9759697758318767
0.060708029057873175,0.507876767022842,1.048008499306121
0.06120852955837368,0.48201449567793847,1.0348201674933888
0.06170903005887418,0.4030650958493844,0.8981451509677625
0.06220953055937467,0.2870210100663652,0.6902537915359409
0.06271003105987517,0.13590329210058985,0.4081588048072812
0.06321053156037568,-0.01947793893297078,0.0857929098301631
0.06371103206087618,-0.18075862921075786,-0.24042529744165053
0.06421153256137668,-0.31934819434971484,-0.5636603879684216
0.06471203306187717,-0.42837895055970054,-0.797990239001863
0.06521253356237768,-0.4921373983706941,-0.9697666462486574
0.06571303406287818,-0.5046418586377959,-1.0574930261885234
0.06621353456337868,-0.477476655702749,-1.03316246411571
0.06671403506387917,-0.40323055453916834,-0.9272640872365092
0.06721453556437967,-0.2808467717908932,-0.6987526130319508
0.06771503606488018,-0.13591684758305866,-0.41771977321328196
0.06821553656538068,0.029162195600061693,-0.08272599120618788
0.06871603706588118,0.18301432602175344,0.24387855668948388
0.06921653756638167,0.3183326542665026,0.5501798200085981
0.06971703806688218,0.4296027254494299,0.8026568437112988
0.07021753856738268,0.4927831971435947,0.9809736533444148
0.07071803906788318,0.5099565508326727,1.0630273086807003
0.07121853956838367,0.47692306670265133,1.0210085044309327
0.07171904006888417,0.3987564493391431,0.9158569382423727
0.07221954056938468,0.2727237473420951,0.6872978297643956
0.07272004106988518,0.13184041211272468,0.4026101974690212
0.07322054157038568,-0.02407591206798683,0.07949935191217716
0.07372104207088617,-0.18827705609518347,-0.25202503197250037
0.07422154257138668,-0.31749703993622264,-0.5596914748242987
0.07472204307188718,-0.4317520370841221,-0.7958496155366086
0.07522254357238768,-0.4881435521218374,-0.9878159954344733
0.07572304407288817,-0.5088456722108055,-1.072415982101884
0.07622354457338867,-0.4835797750050576,-1.0322972934276042
0.07672404507388918,-0.39479364980760073,-0.9108542697179323
0.07722454557438968,-0.2764012289829262,-0.6736760182454605
0.07772504607489018,-0.12801962504426234,-0.40406892876521
0.07822554657539067,0.025377914056113723,-0.08213096778019752
0.07872604707589118,0.18315343259445804,0.24874568039856915
0.07922654757639168,0.3244631942860048,0.5670252054973416
0.07972704807689218,0.42816955560530284,0.8226877991682078
0.08022754857739267,0.4882428830296912,0.9948649608375573
0.08072804907789317,0.5085372250730621,1.0609576385152792
0.08122854957839368,0.4807388317497069,1.0291222834303833
0.08172905007889418,0.4006117745612172,0.8955411687859712
0.08222955057939467,0.27866740927081485,0.6810330200966858
0.08273005107989517,0.13159517675004145,0.3961870845532188
0.08323055158039568,-0.032763959743580415,0.07468360663769164
0.08373105208089618,-0.18108677843563314,-0.2474726862081507
0.08423155258139668,-0.31563373977583475,-0.5633418007767935
0.08473205308189717,-0.427063422052053,-0.8203998036013528
0.08523255358239767,-0.48749110672249574,-1.0045499605183663
0.08573305408289818,-0.5051041323683589,-1.046397049236211
0.08623355458339868,-0.4748190811640846,-1.020592448010667
0.08673405508389917,-0.39739362493307656,-0.8998857294237605
0.08723455558439977,-0.2797550609767172,-0.6849367676855798
0.08773505608490018,-0.12743463280750222,-0.3925094961792157
0.08823555658540068,0.028333024891910658,-0.07916137861485613
0.08873605708590118,0.18076663347232616,0.2492410918734684
0.08923655758640167,0.32662901477160083,0.5627578089515358
0.08973705808690227,0.4280658155739729,0.8152620587439284
0.09023755858740277,0.4897224483083863,0.9810437324176107
0.09073805908790318,0.5097537240757187,1.0533695219604295
0.09123855958840367,0.47890887042325747,1.025970399358322
0.09173906008890427,0.3923878768246462,0.9055223568545724
0.09223956058940477,0.2771536952185298,0.6833970559714717
0.09274006108990528,0.13205396155270974,0.38741661080766027
0.09324056159040568,-0.03128514088640195,0.07046750609426236
0.09374106209090617,-0.18716924873560414,-0.2644264067211724
0.09424156259140677,-0.3226563774573789,-0.5763967883772946
0.09474206309190727,-0.4305611422524754,-0.8185000047172177
0.09524256359240778,-0.4982370584578977,-0.9853337636146338
0.09574306409290817,-0.5058073104462424,-1.0672274215331283
0.09624356459340877,-0.47331431504945987,-1.0317982288676435
0.09674406509390927,-0.38512483129173297,-0.8939789560964568
0.09724456559440978,-0.2785214967507654,-0.6711202510663943
0.09774506609491028,-0.1261495557777035,-0.3904727921400905
0.09824556659541067,0.03209712663723666,-0.06368642937415873
0.09874606709591127,0.1903248438302805,0.27458614240277757
0.09924656759641177,0.3273277157425693,0.574592294210473
0.09974706809691228,0.4270368859181501,0.8220508401906426
0.10024756859741278,0.497982590293831,0.9936233495799928
0.10074806909791327,0.507133064841997,1.0672184802316684
0.10124856959841377,0.4775654303640566,1.0366577935011567
0.10174907009891428,0.3939526438168928,0.9049614065871866
0.10224957059941478,0.27502859668614554,0.6794028259134975
0.10275007109991528,0.12820569176787233,0.38510736752073266
0.10325057160041577,-0.03329360739104596,0.06423685662873778
0.10375107210091628,-0.19067324444068406,-0.26279344604443283
0.10425157260141678,-0.32950254565118586,-0.5847731565057733
0.10475207310191728,-0.4297745299118052,-0.8235184641018363
0.10525257360241777,-0.5010799163730169,-0.9890896184081579
0.10575307410291827,-0.5122149963545303,-1.064146296034851
0.10625357460341878,-0.4746092491571465,-1.0305916765064895
0.10675407510391928,-0.39176726910427606,-0.9080071943209638
0.10725457560441978,-0.2696560627458651,-0.6656732788916546
0.10775507610492027,-0.1254827528238315,-0.38140755573076857
0.10825557660542078,0.030449600805220172,-0.06751351938408746
0.10875607710592128,0.20030636281825953,0.28148707236419845
0.10925657760642178,0.3267420833796291,0.5732097611714736
0.10975707810692227,0.43145176191455425,0.8152011389909961
0.11025757860742277,0.49382278377290806,0.9970418327624682
0.11075807910792328,0.5081243714614756,1.0636939914967745
0.11125857960842378,0.4739212005845946,1.0248591911844345
0.11175908010892428,0.38740778861411274,0.8909882543603866
0.11225958060942477,0.2635568703565415,0.6565122040230157
0.11276008110992528,0.11805228396921374,0.375011546538917
0.11326058161042578,-0.03523797436624143,0.0572380417165569
0.11376108211092628,-0.190785200097659,-0.28865146230771854
0.11426158261142677,-0.33119435716892426,-0.57359352039247
0.11476208311192727,-0.4286131999831213,-0.829110957539949
0.11526258361242778,-0.49788579881512884,-0.9983409882290516
0.11576308411292828,-0.5091539776727703,-1.0637876404947146
0.11626358461342878,-0.4747008349230254,-1.019346707989165
0.11676408511392927,-0.391969792186575,-0.8849378321388408
0.11726458561442978,-0.2690738720246065,-0.6768926669541109
0.11776508611493028,-0.12442674511927958,-0.37099514644535514
0.11826558661543078,0.03231173903349885,-0.0454000068438332
0.11876608711593127,0.19380931419869413,0.27882094270734337
0.11926658761643177,0.3324813893316519,0.589206577832737
0.11976708811693228,0.43325818771130964,0.8337448425136387
0.12026758861743278,0.49037219536395776,0.989154990459632
0.12076808911793328,0.5103366465762077,1.0670841743966457
0.12126858961843377,0.47199237836001967,1.0182242801832326
0.12176909011893428,0.3840599329566104,0.9041022400038697
0.12226959061943478,0.27266950363712616,0.6545932078911404
0.12277009111993528,0.11708506854090085,0.35836516901142773
0.12327059162043578,-0.043160630963782406,0.054510020106816166
0.12377109212093627,-0.19676828532197632,-0.28160433926122996
0.12427159262143676,-0.3291060589605711,-0.5947993339114447
0.12477209312193728,-0.43339633390094573,-0.828784067314454
0.12527259362243778,-0.49781368669954673,-1.0012165824667958
0.1257730941229383,-0.5014969644768621,-1.0709989032024094
0.1262735946234388,-0.4676224087809666,-1.0222055042221745
0.12677409512393928,-0.3875629831841329,-0.8857312126568297
0.1272745956244398,-0.26349177467205254,-0.6629179639347426
0.12777509612494029,-0.11812508011595511,-0.37392637437139975
0.1282755966254408,0.041311477880205554,-0.04760214311166181
0.1287760971259413,0.2001025975820504,0.2866605808477783
0.12927659762644178,0.3305738958714062,0.5821009744554773
0.1297770981269423,0.4355950784512343,0.8265045215408366
0.1302775986274428,0.5020970991648304,0.999514796293187
0.1307780991279433,0.5063917826797184,1.0665096712949642
0.1312785996284438,0.4715073394638104,1.0098987472799723
0.13177910012894428,0.3880805044248936,0.8958246820700658
0.1322796006294448,0.26186454680813664,0.6659616528428297
0.1327801011299453,0.11952119177595102,0.34994708315841566
0.13328060163044578,-0.037760094966012986,0.03902461298250573
0.1337811021309463,-0.19841755398415165,-0.29039098567210503
0.13428160263144678,-0.332051795999827,-0.5889324299229639
0.1347821031319473,-0.43508869423359187,-0.838701328087548
0.1352826036324478,-0.4934116267709343,-0.9825047626794849
0.13578310413294828,-0.5073079525829893,-1.0535467153592684
0.1362836046334488,-0.46583208197017606,-1.0327493431484502
0.13678410513394929,-0.38101609704545464,-0.9013679229091502
0.1372846056344498,-0.2651934633049221,-0.6464364590548298
0.1377851061349503,-0.1147286422740773,-0.36314786554484807
0.13828560663545078,0.04414759263725998,-0.03582809510562131
0.1387861071359513,0.19980604791123724,0.2931550149520819
0.1392866076364518,0.3311583450874729,0.592191820120703
0.1397871081369523,0.43944909687563244,0.842961255859037
0.1402876086374528,0.4993050130575762,1.010366556273665
0.14078810913795328,0.5035976934684979,1.0481438568092747
0.1412886096384538,0.4603971135949987,1.0307874572769422
0.1417891101389543,0.3885503608064796,0.8807437042091376
0.14228961063945478,0.26087392494017253,0.6532052047625048
0.1427901111399553,0.11306405455909176,0.3611872230725559
0.14329061164045578,-0.04575794724576944,0.04117224798685773
0.1437911121409563,-0.20126686967141347,-0.2939020327887803
0.1442916126414568,-0.33860133251160146,-0.5899318548508024
0.14479211314195728,-0.43857838827792656,-0.8437804039789166
0.1452926136424578,-0.497947955766745,-0.997514491738125
0.14579311414295829,-0.506913321819429,-1.0637009032481954
0.1462936146434588,-0.4649385345549491,-1.0116518266856842
0.1467941151439593,-0.3797984229458998,-0.874535914982659
0.14729461564445978,-0.2578728888067497,-0.6641206920382063
0.1477951161449603,-0.10974760980795172,-0.3562552223477034
0.1482956166454608,0.04865959942016352,-0.03279101999082396
0.1487961171459613,0.20612024777523721,0.29670560699463283
0.1492966176464618,0.34249659840706764,0.5990424040360571
0.14979711814696228,0.43718231104197913,0.8333541018137812
0.1502976186474628,0.4931288486844556,1.0086097084730248
0.1507981191479633,0.5073159482850859,1.0706693357100425
0.15129861964846378,0.46811307425251647,1.0136834034877467
0.1517991201489643,0.38073881558486117,0.8821202000478068
0.15229962064946478,0.25674445727826306,0.6477346721619103
0.1528001211499653,0.10587745068278726,0.3531967933742212
0.1533006216504658,-0.052538004047855934,0.02338610762395801
0.15380112215096628,-0.20904594974931304,-0.2891360250874928
0.1543016226514668,-0.3396331628416378,-0.5931151665610098
0.15480212315196729,-0.4319846430635631,-0.841029322722755
0.1553026236524678,-0.5028560738274357,-1.0075975678306126
0.1558031241529683,-0.5049563498963738,-1.0643347435517372
0.15630362465346878,-0.4676309449070186,-1.0286935851304182
0.1568041251539693,-0.3822018580882898,-0.8803847923399527
0.1573046256544698,-0.2558484768400214,-0.6365794839507554
0.15780512615497028,-0.11036928773751814,-0.35775423584895655
0.1583056266554708,0.04995675764674191,-0.03112669509970744
0.15880612715597128,0.20433098729026902,0.2981632255078542
0.1593066276564718,0.3401674850843999,0.6058666265857496
0.1598071281569723,0.43707269557031664,0.8331481830153221
0.16030762865747278,0.4971145029205925,1.0000373293465474
0.1608081291579733,0.5080967609268773,1.0565669459739881
0.16130862965847378,0.4675525214434139,1.010654309459559
0.1618091301589743,0.3816097799458149,0.8858227515339899
0.1623096306594748,0.2510386682974625,0.6412628518018381
