Time,Vin,Vout
-0.0020490257680298198,-0.0008241265414920712,0.04364911904467002
-0.0015485252675293197,0.16360802281973488,12.98351538414092
-0.0010480247670288198,0.3059747416124643,13.201507068874712
-0.0005475242665283198,0.42286969095237875,13.03714777235325
-4.702376602781994e-05,0.49918292748755794,13.089984794197287
0.0004534767344726801,0.5229638980690721,12.94185158528965
0.0009539772349731802,0.4950042477972013,13.033807630130724
0.0014544777354736802,0.41943815431178094,13.001358204827813
0.00195497823597418,0.30187527193775604,12.920145543729564
0.0024554787364746804,0.16038688676794113,12.880980939609701
0.00295597923697518,-0.00489876546806387,13.114611332169536
0.0034564797374756805,-0.16823989072614526,13.112881640930814
0.00395698023797618,-0.3053606221484855,13.250692359689545
0.004457480738476681,-0.42486815730223854,13.19165391628664
0.00495798123897718,-0.4982864265058337,13.178973640420134
0.00545848173947768,-0.5231342196650133,13.062328862037255
0.0059589822399781795,-0.4925814004855094,13.173731311078654
0.006459482740478681,-0.4227407470520867,13.05647945337131
0.0069599832409791805,-0.3004651459782274,13.10251226934385
0.00746048374147968,-0.15293853029533777,13.019309307654698
0.00796098424198018,0.0009150301230855815,12.90873349682839
0.00846148474248068,0.16918553510158113,12.961986319330789
0.00896198524298118,0.30462580389924304,13.03083343535718
0.00946248574348168,0.43023324542701147,13.066669215089648
0.00996298624398218,0.4993346941319379,12.828660106183934
0.01046348674448268,0.5182725588321686,13.223040663694007
0.010963987244983181,0.49219244299522913,13.080731347238896
0.01146448774548368,0.4129677569805248,13.114633327758707
0.01196498824598418,0.30191437154647055,12.974576428926465
0.01246548874648468,0.16266561247857558,13.176127361643275
0.01296598924698518,-0.0026671876627890664,13.22388278841075
0.013466489747485681,-0.17001683288338226,13.218018743468196
0.013966990247986179,-0.3073955298606503,13.083530002688146
0.014467490748486682,-0.42034274359035756,13.18668475653157
0.014967991248987182,-0.49406702705589506,13.218241553011062
0.015468491749487681,-0.5182486607295771,13.230871494595046
0.01596899224998818,-0.4980620811750062,13.024117598769843
0.01646949275048868,-0.4238028311044079,13.071565764148799
0.01696999325098918,-0.3008612256667261,12.9207686641329
0.01747049375148968,-0.14948145139656835,13.115838685737444
0.01797099425199018,-0.0044352873510183025,12.750964139739624
0.01847149475249068,0.16600919457788343,13.06261302032387
0.01897199525299118,0.30819057831847546,13.17553498714416
0.01947249575349168,0.42817249161101784,13.228976883851605
0.01997299625399218,0.502298035204022,13.016938391885539
0.02047349675449268,0.5200500565734102,13.030129641625816
0.02097399725499318,0.49054479292470277,13.062134386441704
0.02147449775549368,0.41455576139066735,13.045664875470298
0.02197499825599418,0.29666201293426503,13.14102232036729
0.02247549875649468,0.14611369818155656,13.072977542150454
0.02297599925699518,-0.01043393855026658,13.00377821308453
0.02347649975749568,-0.17368085252380536,13.002982580225137
0.023977000257996182,-0.3158352829685008,13.01193871660124
0.02447750075849668,-0.4283546164668113,12.972605265537482
0.02497800125899718,-0.4980351849668804,13.009722782004742
0.02547850175949768,-0.5200458538288903,13.067659155394608
0.02597900225999818,-0.48995723845550976,13.069578262035245
0.02647950276049868,-0.41734223089461736,12.946911012472968
0.02698000326099918,-0.29317835613746523,12.910163578309106
0.02748050376149968,-0.15591349448365124,13.126139957504725
0.02798100426200018,0.011462650760049516,13.093789848833909
0.028481504762500682,0.16465439554196865,12.927370599324759
0.02898200526300118,0.3111975284873633,13.036043034276437
0.02948250576350168,0.4271600597355555,13.030654656101122
0.029983006264002177,0.5069838496891507,12.961610250402027
0.03048350676450268,0.5136927959546284,13.17671937735647
0.030984007265003184,0.5001180789897262,12.699535845182796
0.03148450776550368,0.41755285628803585,12.926353228185043
0.031985008266004186,0.2980456844307407,13.091457017120623
0.032485508766504675,0.14947347259356342,13.135835136135476
0.03298600926700518,-0.011050543223535894,13.08378787719732
0.03348650976750568,-0.17292053151665493,13.001960303451312
0.033987010268006185,-0.3147600877215747,12.92538977364355
0.034487510768506674,-0.42996460019971594,12.88840610828582
0.03498801126900718,-0.5044369883147004,13.20746229997533
0.03548851176950768,-0.5268173341615496,13.211132459831106
0.03598901227000818,-0.4959537618142535,13.232904520136614
0.036489512770508686,-0.40979935586335536,12.926770429820623
0.036990013271009176,-0.2912174843259603,12.77926552377755
0.03749051377150968,-0.1455855283825019,13.297873060229605
0.03799101427201018,0.011707037449581022,13.209640964955046
0.038491514772510685,0.1673272076284324,13.303055490405773
0.038992015273011174,0.3174698783549934,13.196118294119115
0.03949251577351168,0.43284440625481235,13.08014092629065
0.03999301627401218,0.5038464696418744,13.17687156684771
0.04049351677451268,0.5222103561302756,13.202892916356932
0.040994017275013186,0.4922878425163733,13.224849308655557
0.041494517775513676,0.41528353253121747,13.280963082584746
0.04199501827601418,0.29764893541368775,12.717088887447032
0.04249551877651468,0.144642800264316,12.898808505616005
0.042996019277015185,-0.01492761593071755,12.935163112529585
0.043496519777515674,-0.1752638524158553,13.061731491820538
0.04399702027801618,-0.3157141022396793,13.15363374066851
0.04449752077851668,-0.43418669485549516,13.202633818410236
0.044998021279017184,-0.5026889493307556,13.169912154830781
0.04549852177951769,-0.5255723309840478,12.934414633478662
0.045999022280018176,-0.4924276427448056,13.13141696287902
0.04649952278051868,-0.4081140543390137,12.958142774085953
0.04700002328101918,-0.29480312856716445,13.172323055604165
0.047500523781519685,-0.14384681382662826,12.991249986507922
0.048001024282020174,0.011850424912701517,12.880452882598396
0.04850152478252068,0.1778555174059833,13.072056339307316
0.04900202528302118,0.3255151280282362,13.00345534629026
0.049502525783521684,0.4288530876866125,13.165638695956892
0.05000302628402219,0.4966611347500612,13.043824999119588
0.050503526784522676,0.5164638106231499,13.049759895518303
0.05100402728502318,0.48635707560264535,13.052431081020366
0.05150452778552368,0.411161608146668,13.201433696888802
0.052005028286024185,0.28914473428604776,13.024097131768343
0.052505528786524674,0.1425714312707602,13.058720822183213
0.05300602928702518,-0.010029064407575563,13.051127808237679
0.05350652978752568,-0.1747197070514688,13.152963207553679
0.054007030288026184,-0.3154192412593572,12.903867482712526
0.05450753078852669,-0.4279194304739937,12.950972708952925
0.055008031289027176,-0.4999938390761491,13.196354749714049
0.05550853178952768,-0.5230928606961482,12.908797972241912
0.05600903229002818,-0.4905065025566458,13.123525374100444
0.056509532790528685,-0.4166049996215679,12.700402799386703
0.057010033291029175,-0.2846445690372645,12.791705599752666
0.05751053379152968,-0.14472568335101246,13.037769438844157
0.05801103429203018,0.018494668180569843,13.263503407704205
0.058511534792530684,0.18343907310910817,13.12560305486283
0.05901203529303119,0.32023576946236765,13.214577228968441
0.059512535793531676,0.4329007417868853,12.970790361612538
0.06001303629403218,0.5001277431870648,13.15825961832338
0.06051353679453268,0.5213568359389466,13.0524533157017
0.061014037295033186,0.4873959577804392,12.869312436396353
0.06151453779553369,0.4140716268571722,13.121590821302933
0.06201503829603418,0.2879025233738523,13.288257518835925
0.06251553879653468,0.1377796915578169,12.920253259802287
0.06301603929703518,-0.015504772094423924,12.929436454087986
0.06351653979753569,-0.18220308476772393,13.026794571826134
0.06401704029803619,-0.32782387303996063,12.955020428468307
0.06451754079853668,-0.43062656258971604,13.056461823286456
0.06501804129903718,-0.5056220577483621,12.929503783131937
0.06551854179953769,-0.5255567249894821,13.073356153697013
0.06601904230003819,-0.48394459646867516,13.052139439902254
0.06651954280053868,-0.4027003683609525,13.085235141924667
0.06702004330103918,-0.2918536810309476,13.060381839334429
0.06752054380153968,-0.13655330171898028,12.80570847116686
0.06802104430204019,0.025368914295442576,13.11540016577011
0.06852154480254069,0.18596263198785093,12.981512840424744
0.06902204530304118,0.3257950666047359,13.095405330251767
0.06952254580354168,0.4323793132281724,12.951295318061108
0.07002304630404219,0.5014823553095136,13.066187026455554
0.07052354680454269,0.5207666502500918,13.110319410991943
0.07102404730504318,0.48439578745775314,12.8688972238329
0.07152454780554368,0.40425597629247156,12.930065966258038
0.07202504830604418,0.284751270274897,12.879701157148972
0.07252554880654469,0.13242086401479802,13.096033339705713
0.07302604930704519,-0.023254427254904057,13.14406272666906
0.07352654980754568,-0.18541348899829724,13.160699293488726
0.07402705030804618,-0.3238888246492463,12.832668540662004
0.07452755080854669,-0.43629733340443677,12.926028657913172
0.07502805130904719,-0.5034375729201706,13.043653689382285
0.07552855180954768,-0.5190078285576554,13.090829316046323
0.07602905231004818,-0.4865208534875462,13.143828936864482
0.07652955281054868,-0.40547261418659053,12.99514338871413
0.07703005331104919,-0.2803955382116428,13.132520720335812
0.07753055381154969,-0.13823543605004798,13.110692936642051
0.07803105431205018,0.02517440019457122,12.974182132196013
0.07853155481255068,0.18441840298412676,13.169293093750198
0.07903205531305119,0.32954355513243994,13.156238729638892
0.07953255581355169,0.4307810671500574,13.058528290473989
0.08003305631405218,0.5044501064739949,13.147234333812724
0.08053355681455268,0.5183144735527687,13.145985547525814
0.08103405731505318,0.48556824018081535,12.934688316848172
0.08153455781555369,0.39880675523608594,13.047528545805337
0.08203505831605418,0.28607535450601035,12.832764699943668
0.08253555881655468,0.13090886840984334,12.847542935266452
0.08303605931705518,-0.028977841971162707,13.026408083003597
0.08353655981755569,-0.18582981716812955,13.10609721485569
0.08403706031805619,-0.33052416917404664,12.928255531591656
0.08453756081855668,-0.43929638334440774,13.078105211755537
0.08503806131905718,-0.4997735373749386,12.943702971918738
0.08553856181955768,-0.5205027771413936,13.229147280469663
0.08603906232005819,-0.485374670399871,12.897364499664008
0.08653956282055868,-0.40354735444878637,12.773817635066937
0.08704006332105928,-0.27765730733054683,13.243082673515461
0.08754056382155968,-0.1338524246155279,12.951164813894536
0.08804106432206019,0.028495294296704943,13.004215813463698
0.08854156482256069,0.1863036148962516,13.177119525543494
0.08904206532306118,0.3238125284810687,13.15422974611062
0.08954256582356178,0.43745208871461283,13.176276001773568
0.09004306632406228,0.5045501784321054,12.956530159618843
0.09054356682456269,0.519717714159398,13.110333076257644
0.09104406732506318,0.48117003611584147,13.005123803616177
0.09154456782556378,0.4040002103733616,13.152096600455366
0.09204506832606428,0.2832040786088578,12.860806462476859
0.09254556882656478,0.13247481984078852,13.074920436563485
0.09304606932706519,-0.03520431443078385,12.906881910888357
0.09354656982756568,-0.18886637367728212,12.84480069379023
0.09404707032806628,-0.33551506376133916,12.840512629495135
0.09454757082856678,-0.4393002543876884,13.297546209817728
0.09504807132906729,-0.5059166357433089,12.901999179448365
0.09554857182956768,-0.5150747379996542,13.061474472267895
0.09604907233006828,-0.4838192361757437,13.092185023131176
0.09654957283056878,-0.40318008142494166,13.201191965327798
0.09705007333106928,-0.27840144015003376,13.128506839752392
0.09755057383156979,-0.12901903426867073,12.995642842762011
0.09805107433207018,0.026544885062046986,12.922216270736618
0.09855157483257078,0.1933512177494484,13.128611179800986
0.09905207533307128,0.3340307801316187,12.783275073967046
0.09955257583357179,0.44069250807984484,13.008786651731194
0.10005307633407229,0.5085046050298311,12.871990890270165
0.10055357683457278,0.5201064300439964,13.218667637620554
0.10105407733507328,0.48581965582122044,12.823173381004352
0.10155457783557378,0.4031162221995485,13.177104066296247
0.10205507833607429,0.28022495238945755,13.064849189345612
0.10255557883657479,0.12344716349586869,12.901342423499603
0.10305607933707528,-0.0321868667168766,13.00450804097349
0.10355657983757578,-0.1888425689798039,13.046297020285982
0.10405708033807629,-0.32913390559775196,12.941645208745056
0.10455758083857679,-0.4404156809902474,13.338661038791082
0.10505808133907728,-0.5098832628653015,12.924827801358548
0.10555858183957778,-0.5222190599500498,13.093767499696233
0.10605908234007828,-0.48590657987856506,13.247316582602421
0.10655958284057879,-0.40294012177341154,13.217621441489898
0.10706008334107929,-0.272210571416757,13.071301514862759
0.10756058384157978,-0.12619567147098298,12.882253754323468
0.10806108434208028,0.03837677679696923,13.059764008333392
0.10856158484258079,0.19739045805122174,12.78605440720535
0.10906208534308129,0.33680299022845106,13.115784074114949
0.10956258584358178,0.4377817158848619,13.110063536367932
0.11006308634408228,0.5069387421007778,13.159555636883912
0.11056358684458278,0.5173539989757684,13.081581304380672
0.11106408734508329,0.482682085740101,12.606600125835973
0.11156458784558379,0.3950550407200139,12.679669948624387
0.11206508834608428,0.2764859300128288,12.756308965425633
0.11256558884658478,0.12368706496511296,13.151738127632703
0.11306608934708529,-0.03911490443223835,12.878579953764335
0.11356658984758579,-0.20055831548075767,13.007706323502171
0.11406709034808628,-0.3331854674984226,13.115532890172373
0.11456759084858678,-0.44130130139951,13.206982686783904
0.11506809134908728,-0.5048997509833765,13.000484756231998
0.11556859184958779,-0.5221050506654702,12.97504617025384
0.11606909235008829,-0.47753768746169806,13.2603891257994
0.11656959285058878,-0.39967751590949957,13.141199290158777
0.11707009335108928,-0.2750322082101073,13.288497741331444
0.11757059385158979,-0.12005399427328473,13.158336954833924
0.11807109435209029,0.04119714670269633,12.937228896765571
0.11857159485259078,0.201269499119898,12.838639136830725
0.11907209535309128,0.34042190405151396,13.018869741583972
0.11957259585359178,0.4427458135933203,13.03656462808083
0.12007309635409229,0.512368723837513,12.98679739239453
0.12057359685459279,0.5213240021511335,13.17076617116032
0.12107409735509328,0.4824927304298666,13.00622467959092
0.12157459785559378,0.39881572883504335,12.950131543064161
0.12207509835609429,0.26804718164540614,12.999444566765355
0.12257559885659479,0.12672790963539754,13.132063281292522
0.12307609935709529,-0.03995532204371866,12.940416599467365
0.12357659985759578,-0.2034315125854348,12.849878184881014
0.12407710035809627,-0.343660960784765,12.867073248682503
0.12457760085859679,-0.44706701381477393,13.094394703579516
0.12507810135909728,-0.5067558538343316,13.020014870800674
0.1255786018595978,-0.5195047024237366,13.165336666800572
0.12607910236009828,-0.4818365401665455,12.917133388754927
0.12657960286059877,-0.3956360442417909,13.074629803753433
0.1270801033610993,-0.27085832437897356,12.990767938747558
0.12758060386159978,-0.12207592664575474,13.081191841711993
0.1280811043621003,0.03829176430469574,12.965414201950509
0.12858160486260078,0.20350963120231955,13.007854200022404
0.12908210536310127,0.3421408055669572,13.162455309837803
0.1295826058636018,0.44548270018621433,12.822564819186288
0.13008310636410228,0.5072330303721196,13.065680250857204
0.1305836068646028,0.5223813726346505,13.215120404996993
0.1310841073651033,0.4771689797021019,12.889637298363727
0.13158460786560378,0.40106875641306716,13.172628772291858
0.1320851083661043,0.26800129681523654,13.195753895856756
0.13258560886660478,0.11827375597634443,13.165759807133428
0.13308610936710527,-0.042211639513259167,13.0043751375595
0.1335866098676058,-0.20520776582994288,13.060101534540664
0.13408711036810628,-0.34108348193321175,13.188789892581015
0.1345876108686068,-0.44151444196816925,12.954392177500939
0.13508811136910728,-0.5037471918136673,13.114670569405053
0.13558861186960777,-0.518216543185296,12.975428894478819
0.1360891123701083,-0.4789796181467297,12.98985454072426
0.13658961287060878,-0.39049485860427735,13.022319080116995
0.1370901133711093,-0.2674641227380791,13.037315632588909
0.13759061387160978,-0.12130736278399286,13.072516942691399
0.13809111437211027,0.04725372728185176,13.080634886281203
0.1385916148726108,0.20226556239790855,13.045417783663286
0.13909211537311128,0.34516110230055175,13.115013465449232
0.1395926158736118,0.45109000194784366,12.949164149759964
0.1400931163741123,0.5097837684748757,13.090382811063598
0.14059361687461278,0.5209836374543406,13.083860891844934
0.1410941173751133,0.47695127395329223,13.135743631930703
0.14159461787561378,0.3952426750453581,13.109220779931078
0.14209511837611427,0.26663402339003667,13.148611037445948
0.1425956188766148,0.11882713558645965,13.003004092631771
0.14309611937711528,-0.047894108710633605,12.875953673528155
0.1435966198776158,-0.21259394209355614,13.150544455099018
0.14409712037811628,-0.33964062736964046,12.935100274055245
0.14459762087861677,-0.4515176982462063,13.06659460441095
0.1450981213791173,-0.5015379580529682,13.059635956369217
0.14559862187961778,-0.5189162958228459,13.14881397501934
0.1460991223801183,-0.478778962143656,13.003554410518813
0.14659962288061879,-0.388568253689387,13.201470482851317
0.14710012338111927,-0.25986063919527064,13.024764351175774
0.1476006238816198,-0.1117473117046817,13.161574345695012
0.14810112438212028,0.04813553081317674,13.194235456979548
0.1486016248826208,0.21175346359227626,12.999433390385185
0.1491021253831213,0.34284866099357114,13.184523750963667
0.14960262588362178,0.44791254674854886,12.78180039402212
0.1501031263841223,0.5085249542677092,13.040012450333478
0.15060362688462278,0.5189108042826195,13.042073576055513
0.15110412738512327,0.4748596225598714,13.019416481700377
0.1516046278856238,0.38558067150835607,13.160588143851392
0.15210512838612428,0.26176200837010527,12.971921165475592
0.1526056288866248,0.11260722590867758,13.182790098344196
0.15310612938712528,-0.046519848853035506,13.102972266157465
0.15360662988762577,-0.2121799036323217,12.949682409483149
0.1541071303881263,-0.3432833494434947,12.972628462357294
0.15460763088862678,-0.4562239161447636,13.135538075340827
0.1551081313891273,-0.5040633950048715,13.236471579123283
0.15560863188962779,-0.5170235359135981,13.028044684946273
0.15610913239012827,-0.47602917884736107,12.940848229699347
0.1566096328906288,-0.3901187925095255,12.816054351310902
0.15711013339112928,-0.2610830244031515,12.787232330256295
0.15761063389162977,-0.1124059203097673,13.3580287323168
0.1581111343921303,0.04613414750734296,13.055890678400498
0.15861163489263078,0.21298292435549482,12.951731403920071
0.1591121353931313,0.34068200619765887,13.11846085372352
0.15961263589363178,0.4515054471633119,12.782670885732426
0.16011313639413227,0.511441247770941,13.102413652325273
0.1606136368946328,0.5174836053574491,13.30115238651886
0.16111413739513328,0.4819628952961695,13.004100820556454
0.1616146378956338,0.39056592933968576,13.213924106879837
0.16211513839613428,0.26491644856241975,12.944990310543716
0.16261563889663477,0.107499617090922,13.133440546916049
0.1631161393971353,-0.055583688532663975,13.237246272761121
0.16361663989763578,-0.21645648812041807,13.087927058833797
0.1641171403981363,-0.35002114349167535,13.017755066882238
