Time,Vin,Vout
-0.0026623049036155,0.0025508210390356384,0.00042228245457880034
-0.002161804403115,-0.0006024744253873449,0.42317993380985125
-0.0016613039026145001,0.002599136118314138,-0.3114464618102035
-0.001160803402114,-0.0022964952365531217,0.2938269176266726
-0.0006603029016135002,0.007834518891965821,-0.30015022956011156
-0.00015980240111300014,-0.01139643763662136,0.29825652282856774
0.0003406980993874999,0.007860897582087531,-0.30014258928425736
0.000841198599888,-0.016901358672590162,0.29842327061511453
0.0013416991003884996,0.015167931229665095,-0.29576358730584434
0.0018421996008890001,-0.01485052850645902,0.30140780792307664
0.0023427001013894997,0.013851041094042872,-0.3033242395893481
0.0028432006018900002,-0.020457535573530607,0.30128059435884613
0.0033437011023905,0.020169239620153705,-0.3006239162852563
0.0038442016028910004,-0.024937060031449215,0.30592107239014765
0.0043447021033915,0.016920261683084872,-0.3022016525651684
0.004845202603892,-0.023200598507680883,0.302384183824495
0.005345703104392499,0.027349304467381014,-0.2965869919064469
0.005846203604893001,-0.02453797933045197,0.30277905087578594
0.0063467041053935,0.021316557961553708,-0.30214186172974955
0.006847204605894,-0.029355423356806402,0.3037138823377606
0.0073477051063944995,0.03269241163572255,-0.3061829736876934
0.007848205606895,-0.03232256028975508,0.3065839165294882
0.0083487061073955,0.03198975058803992,-0.308345101828113
0.008849206607896,-0.03352535665789576,0.3023184314804319
0.009349707108396499,0.040407647542382234,-0.3063276608658302
0.009850207608896999,-0.03905680519488995,0.3077771597435538
0.010350708109397502,0.03592757348245557,-0.30727186847826815
0.010851208609898001,-0.04196911012736873,0.3046319480662787
0.0113517091103985,0.04010925548968398,-0.3047316484280397
0.011852209610899,-0.037848319039064,0.31087160528216096
0.0123527101113995,0.051035467384925974,-0.30992930399753055
0.0128532106119,-0.04801143885130373,0.3103692615298229
0.0133537111124005,0.049910767570353336,-0.3094329380452489
0.013854211612901002,-0.05027035865115109,0.31326026499298376
0.014354712113401502,0.0516491377531664,-0.3107312290703322
0.014855212613902002,-0.05598973827332676,0.31074613162583314
0.015355713114402501,0.05615241713632932,-0.3097400479795514
0.015856213614903,-0.05357259388134947,0.31651778636963246
0.0163567141154035,0.05545870844143815,-0.3105330957572775
0.016857214615904,-0.0597963230892864,0.3149308319245235
0.0173577151164045,0.05390459740487475,-0.3187230626093368
0.017858215616905,-0.06027596211413515,0.3185794314006013
0.0183587161174055,0.06367625232020926,-0.31144030148270185
0.018859216617906002,-0.059320851201405345,0.31194716128651767
0.019359717118406502,0.06893491857219997,-0.31561137583442606
0.019860217618907,-0.06598169837190467,0.3168404637562909
0.0203607181194075,0.06186355435454418,-0.31489890208941024
0.020861218619908,-0.07216356966655421,0.3183962119869207
0.0213617191204085,0.07530332866135596,-0.3147606551716305
0.021862219620909,-0.07682420470393388,0.31460200644733527
0.0223627201214095,0.07098404791144503,-0.3155108176488389
0.02286322062191,-0.07390939669460451,0.3184776232569718
0.023363721122410502,0.07805536788606485,-0.3124934165040111
0.023864221622911002,-0.08178197800793989,0.31408724921803444
0.0243647221234115,0.08491583303555307,-0.31606459730323727
0.024865222623912,-0.08651873154048519,0.3185042576700462
0.0253657231244125,0.08111887420744321,-0.3165976643646558
0.025866223624913,-0.08392595825624591,0.3170343792482493
0.0263667241254135,0.08856970047193513,-0.3153249816302524
0.026867224625914,-0.08180984002988956,0.3198301041086932
0.0273677251264145,0.08784502825312757,-0.318758599192796
0.027868225626915002,-0.09528611066181727,0.31812959053505513
0.028368726127415502,0.0925211620976819,-0.31614287893526527
0.028869226627916002,-0.09408012248318975,0.3212206741681048
0.029369727128416498,0.0942038468759362,-0.318734461773366
0.029870227628917,-0.0993545977978711,0.3212849390565056
0.030370728129417504,0.09544507266048863,-0.3223990561346697
0.030871228629918,-0.10264736834894092,0.31908399496372214
0.0313717291304185,0.10419187318938691,-0.32414564594575657
0.031872229630919,-0.10256679795184011,0.3222145700171569
0.0323727301314195,0.1066369512331662,-0.3213154681452341
0.03287323063192,-0.10017342829125801,0.3183725298772463
0.0333737311324205,0.10380499565230607,-0.3193276737071569
0.033874231632921,-0.10203009647684036,0.31842882551967533
0.0343747321334215,0.10718751796411674,-0.31832391395626825
0.034875232633922004,-0.11378652679149716,0.3213148399493048
0.0353757331344225,0.11311938768637715,-0.319842740215107
0.035876233634923003,-0.11235950254043332,0.3238137517949754
0.0363767341354235,0.11270126797220868,-0.31942367272423605
0.036877234635924,-0.11768766737535004,0.324789859031866
0.0373777351364245,0.11620557187006045,-0.3215174946939212
0.037878235636925,-0.1223474338223178,0.325258413367041
0.0383787361374255,0.12060092070954104,-0.3239816086511439
0.038879236637926,-0.12208568682011295,0.32430873226899654
0.0393797371384265,0.12193137304822806,-0.3243383918405593
0.039880237638927,-0.12226403341739937,0.3248663156684022
0.040380738139427504,0.12948916112580028,-0.3217325217741361
0.040881238639928,-0.13001931848633125,0.32284137464380946
0.0413817391404285,0.12811117106757963,-0.3240682507929403
0.041882239640929,-0.1296231266782195,0.33150586174339935
0.0423827401414295,0.12926480911657887,-0.32338461830655457
0.04288324064193,-0.13292527424446637,0.3251368868103288
0.0433837411424305,0.13177527783278847,-0.3206435599039946
0.043884241642931,-0.13471078592510624,0.32658343020313224
0.0443847421434315,0.14416261883715942,-0.3262683501214887
0.044885242643932004,-0.139251194744082,0.32974164759541824
0.0453857431444325,0.138523842026816,-0.3281406599617382
0.045886243644933,-0.1397929469092456,0.3238598093987798
0.0463867441454335,0.14220043839343127,-0.32779954570961994
0.046887244645934,-0.15362545144878564,0.32882060654040385
0.0473877451464345,0.14318750847654152,-0.32916545976546185
0.047888245646935,-0.1449214215802837,0.3290981891249617
0.0483887461474355,0.15249833181717198,-0.3324065794677654
0.048889246647936,-0.14626387072591235,0.33207197403173494
0.049389747148436504,0.15561300404630238,-0.32818198497088213
0.049890247648937,-0.15334908010354759,0.3287015960236136
0.0503907481494375,0.15688661023494577,-0.3289044687879224
0.050891248649938,-0.15851105766279916,0.3288875864241178
0.0513917491504385,0.15657005589538026,-0.3293990375665171
0.051892249650939,-0.15282416921101324,0.33150084282025316
0.0523927501514395,0.15808460069462213,-0.32863294337052656
0.05289325065194,-0.1682899575385157,0.3326274336080591
0.0533937511524405,0.1668583744108964,-0.32849569678450147
0.053894251652941004,-0.16399431733837586,0.33066542497759066
0.0543947521534415,0.16972666039083342,-0.33385746158482893
0.054895252653942,-0.16795506087633358,0.33165616864995373
0.0553957531544425,0.16868447587600874,-0.3330729985326085
0.055896253654943,-0.17089094387500492,0.333439587655668
0.0563967541554435,0.1708663785343267,-0.3262016713523375
0.056897254655944,-0.17240310275247328,0.32829738338446485
0.0573977551564445,0.1728643034630934,-0.3271545848420179
0.057898255656945,-0.17738461698544555,0.3301579285826499
0.058398756157445504,0.18037476607882158,-0.3306182344022772
0.058899256657946,-0.18350418497262952,0.3320264378915358
0.0593997571584465,0.1798620451939016,-0.3304045155301039
0.059900257658947,-0.1821393467897747,0.33205484944184815
0.0604007581594475,0.1837016045182889,-0.3285766071577355
0.060901258659948006,-0.1818780874457182,0.3279569605970341
0.061401759160448495,0.1881057599351486,-0.3285161544294003
0.061902259660949,-0.18943383634129551,0.3299586256040426
0.0624027601614495,0.18782375978891988,-0.32778815229994757
0.06290326066195,-0.19291479974192074,0.33024724041944514
0.0634037611624505,0.1912523727137212,-0.32943171542326677
0.06390426166295099,-0.1881696611875748,0.33061519999988304
0.06440476216345149,0.19394204266985543,-0.3297274767608101
0.064905262663952,-0.1956038632958843,0.334251099045439
0.0654057631644525,0.20087540115281924,-0.32599654524938004
0.06590626366495299,-0.19668049162964543,0.329263710422154
0.06640676416545349,0.19945632837785465,-0.3320182339641129
0.066907264665954,-0.20250543878491747,0.33265357047110394
0.0674077651664545,0.1961825415121663,-0.3276949876643972
0.067908265666955,-0.20413745971224223,0.32993823967934527
0.06840876616745549,0.20498216061268337,-0.3274664730212422
0.06890926666795599,-0.20844388171780986,0.3298493311536603
0.0694097671684565,0.20348887976383995,-0.3287646362158843
0.069910267668957,-0.20838074096583764,0.3303261895345359
0.07041076816945749,0.21068231066083212,-0.33218515202326526
0.07091126866995799,-0.21514942395585787,0.3267373560937904
0.0714117691704585,0.21797961839153918,-0.33168541042070787
0.071912269670959,-0.21478529834136478,0.33167356040348733
0.0724127701714595,0.21761361271642507,-0.330679249332765
0.07291327067195999,-0.22067048490356483,0.3335666704122241
0.07341377117246049,0.21641814568230153,-0.33125769524770166
0.073914271672961,-0.22100635142032524,0.33596504309434255
0.0744147721734615,0.2222530771722446,-0.33222788033110306
0.07491527267396199,-0.22333789460762543,0.3265945425629933
0.07541577317446249,0.22091105261676441,-0.32585667059623774
0.075916273674963,-0.2267611993914178,0.3286412830446227
0.0764167741754635,0.22444895610654728,-0.3327621042328403
0.076917274675964,-0.23129117334563173,0.32939717796498663
0.07741777517646449,0.22679577966291106,-0.3315829938806963
0.077918275676965,-0.23179194788186924,0.33064578706526426
0.0784187761774655,0.23012060152589514,-0.3286724840059281
0.078919276677966,-0.23280812871139156,0.33335981420880545
0.07941977717846649,0.23311108552652654,-0.32991358784217323
0.07992027767896699,-0.23277962795190452,0.3321940323940425
0.0804207781794675,0.2366267371669029,-0.3303500929005794
0.080921278679968,-0.2405788112155521,0.3292425614061749
0.08142177918046849,0.23985061768861335,-0.32903635222012084
0.08192227968096899,-0.24251982538075403,0.33190397571876334
0.0824227801814695,0.24217227049783085,-0.3326766282438477
0.08292328068197,-0.24557170102421524,0.32900172593120575
0.0834237811824705,0.24691229097343978,-0.33145930925705097
0.08392428168297099,-0.2465556266680109,0.3341629355327543
0.08442478218347149,0.2429976942391071,-0.33018116492325245
0.084925282683972,-0.24823302240819684,0.33232775307902074
0.0854257831844725,0.2535965571003901,-0.33074301860183997
0.08592628368497299,-0.25056628577225964,0.3292014644523018
0.08642678418547359,0.25610089552979487,-0.326799672405946
0.086927284685974,-0.25668546262451297,0.3269195580683879
0.0874277851864745,0.252530910090997,-0.3289840474621607
0.087928285686975,-0.2525942497244107,0.32937580545526113
0.08842878618747549,0.25904811579964443,-0.32586568518135367
0.08892928668797609,-0.25749125342753354,0.32776826057610997
0.08942978718847659,0.25849463222511704,-0.3265602240368332
0.089930287688977,-0.2583351311728564,0.3261600877919414
0.09043078818947749,0.25849576147674086,-0.3277251820358915
0.09093128868997809,-0.26445195686605255,0.33080271484790863
0.09143178919047859,0.26515874120901084,-0.3283662580927634
0.0919322896909791,-0.2680245923478104,0.3258772059548555
0.0924327901914795,0.267109267712523,-0.3286855980714915
0.09293329069197999,-0.26618273400815695,0.3281751961878251
0.09343379119248059,0.27199113774791256,-0.3307188831013899
0.09393429169298109,-0.26720698806870735,0.3296025342497425
0.0944347921934816,0.2669751254457883,-0.32780636820446263
0.09493529269398199,-0.2754183683126412,0.3246339613023892
0.09543579319448259,0.27191529264745856,-0.32804761452662295
0.09593629369498309,-0.27885984457884017,0.32726531269930004
0.0964367941954836,0.2726883787252904,-0.3236101857027694
0.0969372946959841,-0.2778618052173275,0.32689487927198296
0.09743779519648449,0.27895042368116746,-0.32486882677789103
0.09793829569698509,-0.2779835736970663,0.3279710622973887
0.09843879619748559,0.27836755640261013,-0.3215524132022208
0.0989392966979861,-0.28275369361716046,0.3219801609158319
0.0994397971984866,0.2830104980562635,-0.32633570162466796
0.09994029769898709,-0.28154515431378874,0.3242542292280927
0.10044079819948759,0.28783742692522474,-0.32266914654095247
0.1009412986999881,-0.28457233587296626,0.3235754655109048
0.1014417992004886,0.28574015805543695,-0.32099602153017714
0.1019422997009891,-0.2864748807040176,0.325537722755314
0.10244280020148959,0.2862851930600378,-0.3238634582200925
0.10294330070199009,-0.29063694210343327,0.32532068450167556
0.1034438012024906,0.2922027209052115,-0.3216069210992933
0.1039443017029911,-0.2948999481883618,0.32359409131990846
0.10444480220349159,0.2918864615877974,-0.3242597757723446
0.10494530270399209,-0.29343529375770855,0.32355682384509377
0.1054458032044926,0.29360632146874954,-0.3229044332154091
0.1059463037049931,-0.3018250150141489,0.3241571431204731
0.1064468042054936,0.30047135701783334,-0.3205505166152118
0.10694730470599409,-0.30128228406625346,0.3232275285415247
0.10744780520649459,0.3031594273970743,-0.3195967101950545
0.1079483057069951,-0.30588875356052725,0.3245781937832499
0.1084488062074956,0.3046797342385291,-0.32210808883802394
0.10894930670799609,-0.3017451507536998,0.3201463867178839
0.10944980720849659,0.30554957110401554,-0.3248296875153406
0.1099503077089971,-0.30874229247895363,0.32039918788454896
0.1104508082094976,0.3052537135184119,-0.32086104973587765
0.1109513087099981,-0.309898076103635,0.32640973840993803
0.11145180921049859,0.31260573843936046,-0.31876631664418825
0.11195230971099909,-0.31195131738046905,0.31966879415570904
0.1124528102114996,0.30915263896804374,-0.3204566685955327
0.1129533107120001,-0.3135910713934708,0.32334933643795555
0.11345381121250059,0.3199605792617918,-0.3197941388490545
0.11395431171300109,-0.3218864199175756,0.3209134385803305
0.1144548122135016,0.3208568162937421,-0.3172887549554329
0.1149553127140021,-0.3205469904283275,0.31914696626964373
0.1154558132145026,0.3205196603660692,-0.31911909160118457
0.11595631371500309,-0.31344981793514687,0.3181443695474373
0.11645681421550359,0.32361543673423987,-0.320927510285748
0.1169573147160041,-0.3242850954500344,0.32127980127570827
0.1174578152165046,0.32225613804458964,-0.3191052120205696
0.11795831571700509,-0.3239929720128884,0.31978554855131497
0.11845881621750559,0.32880491236697956,-0.3193458871661928
0.1189593167180061,-0.3279942775189354,0.3202291206280721
0.1194598172185066,0.3315592760993063,-0.3165289629110953
0.1199603177190071,-0.33220312809604513,0.3194134276143573
0.12046081821950759,0.3331982808977073,-0.31383370654869436
0.12096131872000809,-0.3241574212068668,0.31526747781018044
0.1214618192205086,0.33192191945574595,-0.3121032152821447
0.1219623197210091,-0.3341617612542785,0.3152714121346345
0.1224628202215096,0.33394121316962844,-0.31343999448366217
0.12296332072201009,-0.3363373834369125,0.31283905580889204
0.12346382122251058,0.33769900508178585,-0.31116611286187906
0.1239643217230111,-0.34285776731214657,0.3104871729036782
0.12446482222351159,0.33552094682256667,-0.313591545972376
0.1249653227240121,-0.3410591519498525,0.31565796120797174
0.1254658232245126,0.34110668508938363,-0.3141414638692542
0.1259663237250131,-0.34303044529779375,0.3123282512730723
0.1264668242255136,0.344410867389275,-0.3058347323372555
0.1269673247260141,-0.3485046972991577,0.3075396586516941
0.12746782522651462,0.3444956737868981,-0.3118019827812396
0.1279683257270151,-0.34791499309787527,0.3092759933939278
0.1284688262275156,0.3543076287714158,-0.30944095240866076
0.12896932672801611,-0.3448632828397883,0.306929472523379
0.1294698272285166,0.35108281056734275,-0.30517957903448517
0.12997032772901712,-0.3530145192279881,0.30498359308714457
0.1304708282295176,0.34783552506106247,-0.3077551857230157
0.1309713287300181,-0.3474732504292908,0.30661890431586114
0.13147182923051862,0.3507973952748342,-0.3065297798965703
0.1319723297310191,-0.3587001213063831,0.30647232627785526
0.1324728302315196,0.35418650828437,-0.30628615201347387
0.1329733307320201,-0.3610141163991202,0.30610036429991844
0.1334738312325206,0.3618475494604751,-0.30209801297284333
0.13397433173302112,-0.36370972589609213,0.30731433831747806
0.1344748322335216,0.35649645018303755,-0.3017082724915219
0.1349753327340221,-0.35897474764066495,0.30409767863431936
0.1354758332345226,0.36088592253100976,-0.30232634136154346
0.1359763337350231,-0.36417823899096835,0.3030274483591083
0.13647683423552362,0.3598373990788299,-0.30690476401563843
0.1369773347360241,-0.3616448641430343,0.30608292120425573
0.1374778352365246,0.36738212325877295,-0.30532510637094407
0.13797833573702512,-0.3658035730635328,0.3060567742457515
0.1384788362375256,0.36403568285843674,-0.3043508368718953
0.13897933673802612,-0.36205386164671655,0.30167003303246925
0.1394798372385266,0.3669868761630776,-0.3004473981913337
0.1399803377390271,-0.37111425999505726,0.30179762356243833
0.14048083823952762,0.3750957829276496,-0.2994232274653631
0.1409813387400281,-0.37326801055352204,0.30294420631194474
0.1414818392405286,0.3701919101701854,-0.3001168567226922
0.1419823397410291,-0.3717495979140027,0.29849149159999655
0.1424828402415296,0.3723309148397083,-0.29947200792733397
0.14298334074203012,-0.37709367750917533,0.29588535923262144
0.1434838412425306,0.37687681133135187,-0.29779368152030816
0.1439843417430311,-0.3787788711064814,0.299265510257209
0.1444848422435316,0.38352102191365556,-0.29819936747617903
0.1449853427440321,-0.38278085476275125,0.301649886964313
0.14548584324453262,0.38312961194422135,-0.2933978618791318
0.1459863437450331,-0.38086027077889634,0.29527852698700335
0.1464868442455336,0.38026829459271855,-0.2951961664661237
0.14698734474603412,-0.384389049424687,0.2975558699374378
0.1474878452465346,0.3882861598423184,-0.2919709048950538
0.14798834574703512,-0.3836610364094477,0.2925102708692178
0.1484888462475356,0.3887103537482711,-0.28924556845449073
0.1489893467480361,-0.3852308128599196,0.29301703168180976
0.14948984724853662,0.38282742858543056,-0.29101944521384604
0.1499903477490371,-0.3888713466846662,0.2893839776253994
0.1504908482495376,0.38739121056419334,-0.2867687011028843
0.1509913487500381,-0.38833203518189546,0.29039048103805365
0.1514918492505386,0.38825552473713126,-0.28981367733708874
0.15199234975103912,-0.3921487718024635,0.2886161439560962
0.1524928502515396,0.3957255716268884,-0.2900426936161381
0.1529933507520401,-0.3929808735056755,0.2877151339120548
0.15349385125254061,0.3908831018264202,-0.2891238027708917
0.1539943517530411,-0.39629591636767436,0.28704982891052555
0.15449485225354162,0.39335645045644263,-0.28471266794679356
0.1549953527540421,-0.3978690481675076,0.2894822772063966
0.1554958532545426,0.4007928282623285,-0.2841077787240069
0.15599635375504312,-0.39770525136394747,0.2869051241772293
0.1564968542555436,0.3947015528082842,-0.2824417373823237
0.1569973547560441,-0.40178689529236905,0.28571850201893567
0.1574978552565446,0.4005846132911065,-0.28392898967884683
0.1579983557570451,-0.4015267081795696,0.2799516236828496
0.15849885625754562,0.4037071087178178,-0.27939877337310715
0.1589993567580461,-0.39895365177649367,0.2810017693813686
0.1594998572585466,0.40328263879671594,-0.2806541224873631
0.1600003577590471,-0.4005940082385985,0.2812870350419476
0.1605008582595476,0.4023188599970806,-0.2824830716362859
0.16100135876004812,-0.405340747882072,0.28160049656580327
0.1615018592605486,0.4130718678252327,-0.2785468369324884
0.1620023597610491,-0.40572621016529326,0.27758434027263795
