Time,Vin,Vout
0.0001665832446141706,0.0018326191714696997,0.0006796058377429543
0.0006670837451146705,0.14924395638507487,0.0602581480682676
0.0011675842456151705,0.28723973802413255,0.22362601436177423
0.0016680847461156706,0.3923069678749079,0.41973968881464047
0.0021685852466161704,0.45527522210890004,0.5782789452052356
0.0026690857471166705,0.4869489583013358,0.6864411029731631
0.0031695862476171705,0.46449801214280756,0.7297996306100678
0.0036700867481176706,0.39139994802754513,0.6956514033875302
0.00417058724861817,0.28581146213191166,0.6079440663000145
0.004671087749118671,0.14790202575377273,0.4450237031424314
0.00517158824961917,-0.0076303896826704415,0.25502424279085323
0.005672088750119671,-0.15192872796468723,0.015154827718330365
0.0061725892506201705,-0.28881858244113384,-0.20407794151805803
0.006673089751120671,-0.39317978097549144,-0.4228957367067972
0.007173590251621171,-0.46078505708119477,-0.5807436598676804
0.00767409075212167,-0.4826888143480968,-0.6836706544920556
0.00817459125262217,-0.4638676016826569,-0.7373015513415379
0.008675091753122671,-0.3851657407226287,-0.6975455175208372
0.00917559225362317,-0.27901938002947907,-0.6018722296046216
0.00967609275412367,-0.14487299904015064,-0.44281542935089896
0.01017659325462417,0.0032501021365477106,-0.24612560029386338
0.01067709375512467,0.15763507237140745,-0.014004992786349094
0.011177594255625171,0.2878265587184773,0.20992682065662
0.01167809475612567,0.39684308935744794,0.4114873845996742
0.01217859525662617,0.4597898978939272,0.5830591072858006
0.01267909575712667,0.4866675053878023,0.6864160166069732
0.013179596257627171,0.4555908870459821,0.730853485700271
0.013680096758127671,0.3890025312148564,0.7013100769503176
0.01418059725862817,0.28469823436571234,0.5998673958425487
0.01468109775912867,0.14390770675705378,0.44587778007305934
0.01518159825962917,-0.007741418360955468,0.24284823349244986
0.015682098760129673,-0.15268530226403937,0.018588816158069222
0.01618259926063017,-0.28573801069457516,-0.20423236633787792
0.016683099761130672,-0.39632504080139797,-0.4202754835204415
0.017183600261631172,-0.4593141825792327,-0.5774847824554052
0.01768410076213167,-0.48345067267085484,-0.6869872916397591
0.01818460126263217,-0.462624712988161,-0.7198057490968096
0.01868510176313267,-0.391768535072397,-0.6946356902476551
0.01918560226363317,-0.27871478253413595,-0.6031417397260814
0.01968610276413367,-0.1455824009199684,-0.43716105160822916
0.02018660326463417,0.004799481728160521,-0.23270973466629313
0.02068710376513467,0.15713484296095973,-0.013286811674069173
0.02118760426563517,0.2895903427168447,0.20824837286528708
0.021688104766135672,0.3977560646181279,0.4077010662690696
0.02218860526663617,0.4697299004640136,0.5836904248078097
0.02268910576713667,0.48914796223719925,0.695971986552992
0.02318960626763717,0.4623310518781055,0.7313935174356346
0.02369010676813767,0.38597307593406394,0.6891494876494509
0.02419060726863817,0.2812409651207655,0.6012851012283796
0.02469110776913867,0.1392004914807578,0.4396332369469266
0.02519160826963917,-0.008741746874152126,0.22571013628408626
0.02569210877013967,-0.15439188502619658,0.014254785076405294
0.026192609270640172,-0.2927930329286078,-0.21606530048534175
0.026693109771140672,-0.4000884035625691,-0.4161905237522829
0.02719361027164117,-0.4719424807452077,-0.5881292615623931
0.02769411077214167,-0.4831526245383452,-0.696695809763868
0.02819461127264217,-0.46425803355583023,-0.7246216471466922
0.02869511177314267,-0.38853828523305567,-0.697428678574025
0.02919561227364317,-0.27898028401058156,-0.5924886301964405
0.02969611277414367,-0.1369820046007697,-0.4364365542930809
0.03019661327464417,0.006630536681142491,-0.22995953919466716
0.030697113775144672,0.16021563646526374,-0.018733568648625458
0.031197614275645172,0.28750601131722775,0.220790440837451
0.031698114776145675,0.39765561259193677,0.42028616684940184
0.032198615276646164,0.4620659864890609,0.5854976427289325
0.03269911577714667,0.4824548981075559,0.6880923944543538
0.03319961627764717,0.46461826993791777,0.7295517014534547
0.033700116778147673,0.386260351326569,0.6875302624989943
0.03420061727864818,0.274592053198974,0.6023328018477291
0.034701117779148666,0.14571007707569755,0.4289378217832057
0.03520161827964917,-0.008174615563201778,0.23146381287639312
0.03570211878014967,-0.15976062944699462,0.010719948594840678
0.036202619280650175,-0.29106433698766926,-0.2199525446481336
0.036703119781150664,-0.39988892442688345,-0.4280956516786959
0.03720362028165117,-0.4653880932496967,-0.5881463125822177
0.03770412078215167,-0.4874594069878319,-0.6836540867598363
0.038204621282652174,-0.463719450804447,-0.7328354760834881
0.03870512178315268,-0.39145596947235306,-0.6929389127107604
0.039205622283653166,-0.27733032134342245,-0.5886997782044333
0.03970612278415367,-0.13675813825891509,-0.4296929488636018
0.04020662328465417,0.013199786522151128,-0.22123774749141512
0.040707123785154675,0.1609333116465889,-0.0002767528855619148
0.041207624285655164,0.2927330111881066,0.22138486690520345
0.04170812478615567,0.3941906814271597,0.4270362084996409
0.04220862528665617,0.46584340717730066,0.5846595088215862
0.042709125787156674,0.48709927606916137,0.6973307500347801
0.04320962628765718,0.45550996247159176,0.7363615849674621
0.043710126788157666,0.3853296767790291,0.6938264931308907
0.04421062728865817,0.27239236193206656,0.598981687863837
0.04471112778915867,0.13863031887973346,0.426503945250807
0.045211628289659175,-0.016922051804771285,0.22542908045555954
0.045712128790159665,-0.16738281966592597,0.004681970482829933
0.04621262929066017,-0.2976197250232879,-0.22920061263206726
0.04671312979116067,-0.4026100587492646,-0.4273045175363321
0.047213630291661174,-0.4638326570571024,-0.5920408299734269
0.04771413079216168,-0.4834407975647069,-0.690517103910996
0.048214631292662166,-0.4613602254044322,-0.733914933149531
0.04871513179316267,-0.3829395764699858,-0.68524723119734
0.04921563229366317,-0.2749882389870591,-0.5891995309023674
0.049716132794163675,-0.13673911555799487,-0.4270700870184891
0.050216633294664165,0.015490803298710715,-0.2111214944887685
0.05071713379516467,0.1694291770280969,0.005658287548568835
0.05121763429566517,0.29662432226500085,0.23545760533309945
0.051718134796165674,0.4000614704799525,0.4305062708270947
0.05221863529666618,0.47355868135791923,0.5960159691332417
0.052719135797166666,0.4862523425809762,0.6954557607827483
0.05321963629766717,0.4583961244640672,0.7390111877967281
0.05372013679816767,0.3819787601371249,0.7001143901744608
0.054220637298668176,0.2756981419900851,0.5889086340647385
0.054721137799168665,0.13216247632946204,0.42454560256485285
0.05522163829966917,-0.014834104947781835,0.22566358398136824
0.05572213880016967,-0.1698325518216416,0.00819565780230734
0.056222639300670174,-0.2986632887129945,-0.2319252152619883
0.05672313980117068,-0.4063493599704985,-0.43567995863053127
0.057223640301671166,-0.46671843375828154,-0.5920008184892496
0.05772414080217167,-0.48332861220341816,-0.6934025970242825
0.05822464130267217,-0.45657765405556255,-0.7311929050357996
0.058725141803172676,-0.3794731437097735,-0.6891196089127253
0.059225642303673165,-0.2678965974045679,-0.5837513401365118
0.05972614280417367,-0.13100382611030706,-0.4248879141577249
0.06022664330467417,0.015220224716822698,-0.21709355911318562
0.060727143805174674,0.1655676146298098,0.004481681446577007
0.06122764430567518,0.29997631298615157,0.23203578090782367
0.06172814480617567,0.40441799710068926,0.42669814484218244
0.06222864530667617,0.4672482401571304,0.5937280120877015
0.06272914580717667,0.4858738601214068,0.6860490314881431
0.06322964630767718,0.45915983794320964,0.7333914530941719
0.06373014680817768,0.38272342488878847,0.6977987932042765
0.06423064730867817,0.2746403094831132,0.5859455957063843
0.06473114780917867,0.12478089187288523,0.41829766425294723
0.06523164830967917,-0.020206523701951522,0.22099298312887108
0.06573214881017968,-0.17274993537534003,-0.0034118084848999354
0.06623264931068018,-0.3039156899243152,-0.23662943283113227
0.06673314981118067,-0.4048816819628001,-0.4358572799310615
0.06723365031168117,-0.46980257451970286,-0.5994815899545707
0.06773415081218168,-0.4877957017770284,-0.6925619108218619
0.06823465131268218,-0.45479826183223787,-0.7316574762745386
0.06873515181318267,-0.37594958607550155,-0.6889864415089904
0.06923565231368317,-0.263015400414382,-0.5789073994036745
0.06973615281418367,-0.12284022385639409,-0.4280296426481416
0.07023665331468418,0.02272799123113137,-0.220854274370788
0.07073715381518468,0.17082159072177514,-0.0033557761782161658
0.07123765431568517,0.3051072746001367,0.23453428018856431
0.07173815481618567,0.40142066877027627,0.434916640247959
0.07223865531668618,0.4719026951629676,0.5917836766107902
0.07273915581718668,0.4896243587011272,0.6958088484371867
0.07323965631768717,0.4578381782151823,0.7287756670023479
0.07374015681818767,0.38045383064788685,0.6821832365256407
0.07424065731868817,0.26820898047955866,0.5890501950037054
0.07474115781918868,0.12946909035817258,0.4156720751545999
0.07524165831968918,-0.02071003275548651,0.2123459344177386
0.07574215882018967,-0.17313283339410007,-0.01293311018256205
0.07624265932069017,-0.3039269609229699,-0.24415678854025658
0.07674315982119068,-0.4076826752079301,-0.433947338577807
0.07724366032169118,-0.4744042645259334,-0.5911640134777014
0.07774416082219167,-0.48654883678148275,-0.6986060527878618
0.07824466132269217,-0.45639307887377234,-0.7431172818827783
0.07874516182319267,-0.3811325721136373,-0.686063841441735
0.07924566232369318,-0.2703673936668818,-0.5762438704913179
0.07974616282419368,-0.12629907666411913,-0.4107807420180236
0.08024666332469417,0.0209783899566236,-0.21218633732287767
0.08074716382519467,0.17516189371754012,0.017456512143172405
0.08124766432569518,0.29976046205670265,0.23173602190997566
0.08174816482619568,0.4085722714681895,0.44214795605804125
0.08224866532669617,0.4739252401917193,0.5954702780875377
0.08274916582719667,0.484718773400399,0.6960879757939827
0.08324966632769717,0.4601255134940259,0.7337681939873577
0.08375016682819768,0.38374029985520497,0.6797160575152696
0.08425066732869817,0.2631148374512344,0.5760365551275118
0.08475116782919867,0.1282758928465359,0.4235234097921299
0.08525166832969917,-0.020031911206802835,0.20589869202621414
0.08575216883019968,-0.1706689273936578,-0.02153028795357134
0.08625266933070018,-0.29851945971946936,-0.24961733557333637
0.08675316983120067,-0.4014246795688827,-0.4361472765704668
0.08725367033170117,-0.4712388200971918,-0.5985020379446447
0.08775417083220168,-0.48275474037445754,-0.6984215292458296
0.08825467133270218,-0.45446139613759856,-0.7341409867366864
0.08875517183320267,-0.3783086823265679,-0.6893270692600321
0.08925567233370327,-0.2663647877963703,-0.5779055037559361
0.08975617283420367,-0.12334478562018576,-0.42056307110558194
0.09025667333470418,0.0269303629792335,-0.2035946667432765
0.09075717383520468,0.1747227605873099,0.014543890957367498
0.09125767433570517,0.303520355542837,0.236593776796875
0.09175817483620577,0.4078211472407078,0.4447184284758948
0.09225867533670627,0.4675154051732539,0.6065632817858746
0.09275917583720668,0.4894493725541273,0.6930115997654047
0.09325967633770717,0.4580904945962449,0.7362658122390595
0.09376017683820777,0.37412666557096574,0.6853481604443505
0.09426067733870827,0.2640318520698086,0.5800097094906687
0.09476117783920877,0.12868909322339572,0.4098442127848829
0.09526167833970918,-0.026593001842904515,0.21319273986667947
0.09576217884020967,-0.17966256430090377,-0.02462097941187103
0.09626267934071027,-0.30848277845417565,-0.24800492637165203
0.09676317984121077,-0.41008145307719635,-0.44135034305279025
0.09726368034171128,-0.47127053233048527,-0.6043388705417675
0.09776418084221167,-0.483203866744602,-0.7020358569841078
0.09826468134271227,-0.44961247350624484,-0.7265680926116115
0.09876518184321277,-0.3710727881850326,-0.6868445126329017
0.09926568234371327,-0.2571312521748194,-0.5733300359511387
0.09976618284421378,-0.12087528044901334,-0.40274496862526654
0.10026668334471417,0.028884364374815945,-0.1900518152821241
0.10076718384521477,0.1832479631716451,0.023801630088803812
0.10126768434571527,0.3066754289501113,0.2546272303597878
0.10176818484621578,0.410523212256662,0.4556165821050359
0.10226868534671628,0.4761559606797939,0.6019006109902303
0.10276918584721677,0.4888465737788251,0.6981729357523766
0.10326968634771727,0.4497505097410539,0.726343949759379
0.10377018684821777,0.3691956698838423,0.6879734676692955
0.10427068734871828,0.261891466668448,0.5731466545235391
0.10477118784921878,0.11956836919656304,0.41255163753990093
0.10527168834971927,-0.030597899584492706,0.19894532060076642
0.10577218885021977,-0.18423935599637417,-0.02480687312355578
0.10627268935072028,-0.30998568792219083,-0.24678552450266716
0.10677318985122078,-0.4146463098757225,-0.44975895760880336
0.10727369035172127,-0.4750690949106645,-0.6060370041200472
0.10777419085222177,-0.4894476049429509,-0.6928230533207603
0.10827469135272227,-0.44771331928925817,-0.7275216498883041
0.10877519185322278,-0.36946941952999085,-0.6798935183322081
0.10927569235372328,-0.2615446066864651,-0.5792899238065098
0.10977619285422377,-0.12019709226421156,-0.413657565606098
0.11027669335472427,0.036060572728196676,-0.20074767397808654
0.11077719385522478,0.18091776898801973,0.01798098046424128
0.11127769435572528,0.308137918294566,0.25187702412964047
0.11177819485622577,0.4125324952796282,0.4600594987714486
0.11227869535672627,0.4763962157532142,0.6079357622494432
0.11277919585722677,0.4828792746636022,0.7033017421818758
0.11327969635772728,0.44682271905915766,0.7336441002619205
0.11378019685822778,0.37329057462562787,0.677379725931119
0.11428069735872827,0.25716010876332457,0.5651304392522456
0.11478119785922877,0.11405563589438603,0.4057398603486001
0.11528169835972928,-0.0380573409214781,0.20381838045767836
0.11578219886022978,-0.18208105210740677,-0.032991916968020694
0.11628269936073027,-0.3117486803164571,-0.2499630482312728
0.11678319986123077,-0.407009831253978,-0.45659973132961285
0.11728370036173127,-0.4737690432373096,-0.6087279874786535
0.11778420086223178,-0.4904124925835484,-0.7080672358870382
0.11828470136273228,-0.44772323364246414,-0.7311876639740572
0.11878520186323277,-0.37105594875839026,-0.6816158979855836
0.11928570236373327,-0.2572551057963823,-0.5725218345951332
0.11978620286423378,-0.11290339053218479,-0.40809443896260617
0.12028670336473428,0.03598877130445498,-0.19130198930074904
0.12078720386523477,0.18671005078870662,0.033658862692707646
0.12128770436573527,0.3162771391890622,0.25976561582881214
0.12178820486623577,0.41211749727947533,0.45902948195301585
0.12228870536673628,0.4783113739562848,0.6089637816131944
0.12278920586723678,0.4856018029594023,0.7040393648814007
0.12328970636773727,0.44763616670833745,0.7306312096210802
0.12379020686823777,0.3686713188883718,0.6766152298937441
0.12429070736873828,0.2551164394949668,0.5679920214345063
0.12479120786923878,0.11497708837088155,0.4072664852400124
0.12529170836973927,-0.03883542437575401,0.19030207956120537
0.12579220887023976,-0.18932910674178943,-0.031620014667831556
0.12629270937074025,-0.31380688671925483,-0.26199472320342676
0.12679320987124076,-0.41604719446486066,-0.454455769524756
0.12729371037174125,-0.4740775599971793,-0.621213172380276
0.12779421087224177,-0.4817129150363191,-0.7025461125396827
0.12829471137274226,-0.4508880304730164,-0.7270303686933306
0.12879521187324275,-0.37351637094914447,-0.6853613534371837
0.12929571237374327,-0.25080829321662895,-0.5618927507225542
0.12979621287424375,-0.10903404610042025,-0.4001509286497691
0.13029671337474427,0.04032754790456529,-0.18800222628044455
0.13079721387524476,0.1878690303494492,0.0382850956579246
0.13129771437574525,0.31526044525585956,0.2632354306285852
0.13179821487624577,0.413017767366349,0.4668927490462175
0.13229871537674626,0.4715438709630951,0.6234125696802973
0.13279921587724677,0.4833332787938881,0.7017608058953784
0.13329971637774726,0.449232187391664,0.7262633964653126
0.13380021687824775,0.363947255154787,0.6723146301893423
0.13430071737874827,0.25153563553775443,0.5626265749501166
0.13480121787924876,0.11071056631614529,0.39350147118458
0.13530171837974925,-0.03893229683744831,0.17809969281780844
0.13580221888024976,-0.18663112635705678,-0.03794411097818373
0.13630271938075025,-0.31503346102219326,-0.26298900387185187
0.13680321988125077,-0.4166908181326931,-0.45983487000294937
0.13730372038175126,-0.4716538704878172,-0.6179095490488457
0.13780422088225175,-0.4845408270417147,-0.7043924733997954
0.13830472138275227,-0.44934765547063155,-0.7297714508619026
0.13880522188325276,-0.36380015735583837,-0.6777460909695039
0.13930572238375327,-0.25346568444323275,-0.5601143236586931
0.13980622288425376,-0.11445320570124061,-0.3921193899754104
0.14030672338475425,0.041280310325223765,-0.18641307629880943
0.14080722388525477,0.19555377605337762,0.03975552786643769
0.14130772438575526,0.3184083274564164,0.27125948013066536
0.14180822488625577,0.4191567200120372,0.4528993413637535
0.14230872538675626,0.47342813875616624,0.6174271326406758
0.14280922588725675,0.476783294023818,0.7056498383933819
0.14330972638775727,0.4464356399693863,0.7227624884934191
0.14381022688825776,0.373304495079134,0.678423970804158
0.14431072738875825,0.24725760883064654,0.558017132076706
0.14481122788925876,0.1106487645566947,0.3958880860232177
0.14531172838975925,-0.04527565901551552,0.18365168915056604
0.14581222889025977,-0.19103242265830264,-0.0492691689152844
0.14631272939076026,-0.3224546157985969,-0.26878187837340173
0.14681322989126075,-0.4166526581536044,-0.46226493571262967
0.14731373039176127,-0.4779838534614667,-0.6112727404968648
0.14781423089226176,-0.4863609955997102,-0.6989644448948498
0.14831473139276227,-0.4462614506644418,-0.7263646512711747
0.14881523189326276,-0.36594202305776974,-0.6811364800429237
0.14931573239376325,-0.24986149208822725,-0.5591266755428936
0.14981623289426377,-0.10904270574485217,-0.3885584112033383
0.15031673339476426,0.04596479640016094,-0.1813325075752548
0.15081723389526477,0.1928703816889519,0.043269871816153264
0.15131773439576526,0.3210286521994672,0.2656954816589275
0.15181823489626575,0.42164252993742685,0.46285759359469975
0.15231873539676627,0.474329117800819,0.6193268852847763
0.15281923589726676,0.48060249711843167,0.7046838806312918
0.15331973639776725,0.4370520871874207,0.728956596648831
0.15382023689826776,0.3696016026571334,0.6776859432290707
0.15432073739876825,0.24443029209124023,0.5673001381794078
0.15482123789926877,0.10748348642577174,0.38301851208070103
0.15532173839976926,-0.051509695460796937,0.18270547362943165
0.15582223890026975,-0.19629606140170683,-0.0453817856902078
0.15632273940077027,-0.32563845143656933,-0.26909429614176283
0.15682323990127076,-0.4179830060425959,-0.4675692478902942
0.15732374040177127,-0.476441414837889,-0.6266259527967382
0.15782424090227176,-0.4831895579699219,-0.7034755868063644
0.15832474140277225,-0.4422538641317082,-0.7287351766078003
0.15882524190327277,-0.36623060075165703,-0.6876876751941021
0.15932574240377326,-0.2443143575115215,-0.5592736808595167
0.15982624290427375,-0.10463013537501728,-0.3842888297749925
0.16032674340477426,0.043998901670514644,-0.1813003599411709
0.16082724390527475,0.197926036153697,0.05955656525759727
0.16132774440577527,0.31887972830411987,0.27542322362136046
0.16182824490627576,0.41499442915806223,0.4643147805228195
0.16232874540677625,0.47149829101135304,0.6155356158969693
0.16282924590727677,0.48209573662750155,0.7100184057239984
0.16332974640777725,0.43616993361172485,0.7262784361202643
