Time,Vin,Vout
-0.008853115239071356,-0.004081357143513312,0.07218323353623503
-0.008352614738570857,0.15360068563551293,-0.19542891178319857
-0.007852114238070357,0.29747691786313274,-0.13348532379749883
-0.007351613737569857,0.41224874336568595,0.1774680088309076
-0.006851113237069356,0.4937307155008342,1.1850225844620559
-0.0063506127365688565,0.5074812855113346,3.9365035650750517
-0.005850112236068357,0.4800611203222554,11.652559237886132
-0.005349611735567856,0.4133550614744942,12.7980777964438
-0.004849111235067357,0.29312361165229306,12.892768133937995
-0.004348610734566856,0.15429909439520945,12.875147221195203
-0.0038481102340663566,0.0031092406418466866,12.853879854505404
-0.003347609733565856,-0.15511557232334874,12.780788079860326
-0.0028471092330653565,-0.3001673008276565,12.549513311282107
-0.002346608732564856,-0.4048705339021766,12.57895160990865
-0.0018461082320643564,-0.48719519139462214,12.58140431587615
-0.0013456077315638568,-0.5043615790201392,13.112714356094157
-0.0008451072310633571,-0.4836338800638533,12.63370165829066
-0.0003446067305628558,-0.4084479317711555,12.88884720294024
0.00015589376993764385,-0.2919445654531834,12.760401238116117
0.0006563942704381435,-0.16153878107440497,12.752627165907112
0.0011568947709386431,0.0038619903680217485,12.846008205742066
0.0016573952714391427,0.16794392452279952,12.641492682022552
0.002157895771939644,0.29794974274175595,12.785244488015422
0.0026583962724401437,0.41189839724008664,12.820424423402338
0.0031588967729406434,0.4795194480142036,12.79177180351432
0.003659397273441143,0.5093600611061155,12.571802751667304
0.004159897773941644,0.4853125280201549,12.76367299190252
0.004660398274442144,0.4074717633471569,12.804409278265831
0.005160898774942644,0.2961455868347236,12.615499421038812
0.005661399275443143,0.1467146382860797,12.900852764556209
0.006161899775943643,-0.006875814842019079,12.530818760081788
0.006662400276444144,-0.16160084548479933,12.730976702931036
0.007162900776944642,-0.303703677344438,12.846441252345807
0.007663401277445145,-0.41483970946100096,12.774919382710921
0.008163901777945645,-0.4835595252002041,12.7329141560049
0.008664402278446144,-0.5093426607588433,12.924919278639717
0.009164902778946644,-0.48036419596860486,12.835631249140771
0.009665403279447144,-0.40812405706534427,12.775775143381267
0.010165903779947643,-0.29539918686969063,12.568334106292314
0.010666404280448143,-0.14741280141473256,12.777606782957118
0.011166904780948643,0.003658308209066071,12.816211384601829
0.011667405281449142,0.1662209301693328,12.938318687882564
0.012167905781949642,0.3055629433911627,12.852160535329794
0.012668406282450145,0.418596000184641,12.953357510125445
0.013168906782950645,0.4836933606175849,12.675930251249234
0.013669407283451144,0.5106739801317124,12.945372150846536
0.014169907783951644,0.47799971718420675,13.077044274567035
0.014670408284452143,0.40701298910456984,12.727463131047186
0.015170908784952643,0.2878168008496707,12.776378590757263
0.015671409285453144,0.14555697371401016,12.872871643161705
0.01617190978595364,-0.010536005954242806,12.694417628513193
0.016672410286454144,-0.16411390588102062,12.849800381167928
0.017172910786954647,-0.30465966693061786,12.814504399093252
0.017673411287455143,-0.4160280874502446,12.733351208930094
0.018173911787955646,-0.4912333359865831,12.853929361235034
0.018674412288456142,-0.5050259206083653,12.852723568317161
0.019174912788956645,-0.48034355610849294,12.794891389996113
0.01967541328945714,-0.40819281952185665,12.646568470033241
0.020175913789957645,-0.2897760561120866,12.577753259996861
0.02067641429045814,-0.15173264090793817,12.66742076096703
0.021176914790958644,0.012429275943249982,12.954767373463639
0.021677415291459147,0.16660266503314927,12.853838027408138
0.022177915791959643,0.30386647602131195,12.851907656970166
0.022678416292460146,0.4186054050879845,12.843167884213933
0.023178916792960642,0.4866624948060444,12.630258930316629
0.023679417293461145,0.5063672272004676,12.874810181569217
0.02417991779396165,0.4804024842171211,12.749587466036385
0.024680418294462145,0.40700256153005804,12.81226838831105
0.025180918794962648,0.2905153324652174,12.946053797113533
0.025681419295463144,0.14509963822261857,12.928928137965944
0.026181919795963647,-0.016338800371840483,12.796993005549712
0.026682420296464143,-0.16384850564749584,13.113077521121097
0.027182920796964646,-0.3122230641992087,12.940483072949569
0.027683421297465143,-0.42354170463164686,12.85044163721378
0.028183921797965646,-0.48507582730594495,12.819419334550018
0.02868442229846615,-0.5069661240525669,12.694608472165227
0.029184922798966645,-0.48383993676893844,12.569487452091487
0.029685423299467148,-0.40738638150141265,12.95389097841441
0.030185923799967644,-0.2843502263627722,12.929653274600383
0.030686424300468147,-0.14441248915283694,12.788946223288216
0.031186924800968643,0.008234926165160484,12.977183401077962
0.031687425301469146,0.1680244031738656,12.962627534438472
0.03218792580196964,0.3113723473301771,12.969427970887967
0.032688426302470146,0.41337543608452443,12.79552128502967
0.03318892680297064,0.4899688286508401,12.896258391025992
0.033689427303471145,0.5073720807218657,12.689760832584785
0.03418992780397165,0.47731348476212365,12.592200704512603
0.034690428304472144,0.4033613453398619,13.078458355439734
0.03519092880497265,0.2876421264956546,12.97143039212499
0.035691429305473144,0.14439413568839693,12.906919304728502
0.03619192980597365,-0.016436768855696247,12.850674632731627
0.03669243030647414,-0.17141988990303214,13.02937862205701
0.037192930806974646,-0.30974390882634567,12.68932471579987
0.03769343130747514,-0.4174750805965316,12.620338932242737
0.038193931807975645,-0.48578386540819657,12.66859632443751
0.03869443230847615,-0.5098925097383527,12.746986619742847
0.039194932808976644,-0.4821517726893366,12.62935333996239
0.03969543330947715,-0.39612550735645474,12.940273195310914
0.040195933809977644,-0.2867738296341416,13.028737996243775
0.04069643431047815,-0.13846104581486993,12.864019319293273
0.04119693481097864,0.01851944941703105,12.658633258381196
0.041697435311479146,0.17020105819021608,12.82033026037912
0.04219793581197964,0.3163010507593611,12.837306842752396
0.042698436312480145,0.41900713615111257,12.818398547223376
0.04319893681298065,0.48387365416337386,12.979629906552878
0.043699437313481145,0.5067509046380415,12.99435358701322
0.04419993781398165,0.4797147942681352,12.73550073905155
0.044700438314482144,0.4011665272581366,12.953199052543958
0.04520093881498265,0.2825890229328107,12.78148481953926
0.04570143931548314,0.14250346689366217,12.512762738056173
0.046201939815983646,-0.021204845272112235,12.552693825937194
0.04670244031648414,-0.177871297365738,12.513645945160787
0.047202940816984645,-0.31537350197193903,12.684152329609597
0.04770344131748515,-0.42464673450172596,12.957358641534151
0.048203941817985645,-0.49222466309268653,12.779193682087945
0.04870444231848615,-0.5078606171659659,12.712379139422511
0.049204942818986644,-0.47442524670132874,12.660360234968172
0.04970544331948715,-0.40419026352008564,12.946633734802727
0.05020594381998764,-0.2824964905763327,12.602286207822138
0.050706444320488146,-0.14146682872493882,12.870430218209183
0.05120694482098864,0.0178166419538407,12.663536958393731
0.051707445321489146,0.17455147234314222,13.028394153103582
0.05220794582198965,0.31953395404082974,12.940474216660371
0.052708446322490145,0.42242750173469285,12.730921877223889
0.05320894682299065,0.4931945285631243,12.973028556300966
0.053709447323491144,0.501999736605161,12.490384335366322
0.05420994782399165,0.4786484372391598,13.014221817921898
0.05471044832449215,0.40035003307948047,12.956845205755515
0.05521094882499264,0.2816381024391443,12.855104947224435
0.05571144932549314,0.14004989306780502,12.827060802777972
0.056211949825993646,-0.016616182112794857,12.766300906647132
0.05671245032649415,-0.17635261800380952,12.933583674022252
0.05721295082699465,-0.3144168519895577,12.799876101129033
0.05771345132749514,-0.4216495822815433,12.984417712760107
0.058213951827995644,-0.4884319476292543,12.896006073215204
0.05871445232849615,-0.5110148428998802,12.818523514814295
0.05921495282899665,-0.47445481468994966,12.868516693163583
0.05971545332949714,-0.39920728861143706,12.965272511622048
0.06021595382999764,-0.27668696250519165,12.782015985842959
0.060716454330498146,-0.13195764936366025,12.794680690559751
0.06121695483099865,0.025795842785184146,12.770206452429203
0.06171745533149915,0.18158905758294866,12.995506995560286
0.06221795583199964,0.31550480140087805,13.033538300002439
0.06271845633250014,0.4205373514451638,12.630272961101975
0.06321895683300065,0.49221415953522485,12.971215656682348
0.06371945733350115,0.5096980002837243,12.622071832818936
0.06421995783400164,0.4779126173528254,12.730563396704252
0.06472045833450214,0.39978448826428975,13.0598342539779
0.06522095883500265,0.2804548831340029,12.902199676696469
0.06572145933550315,0.1419329978710441,12.656079102361765
0.06622195983600365,-0.01846559398983081,12.734175612296411
0.06672246033650414,-0.1774616749760283,12.772431745261974
0.06722296083700464,-0.3154697347761202,12.789404152407704
0.06772346133750515,-0.426117038482776,12.747513704570865
0.06822396183800565,-0.4914602467845868,12.662167478380667
0.06872446233850614,-0.5056867698428889,12.90169681682781
0.06922496283900664,-0.4702085595279343,12.94473511296251
0.06972546333950715,-0.39276142597192004,12.965045725880026
0.07022596384000765,-0.2724404280784852,12.69105309736831
0.07072646434050815,-0.13033481555759446,12.790437064073004
0.07122696484100864,0.02591752649791432,12.76882493953421
0.07172746534150914,0.18142185038316103,12.95461238723935
0.07222796584200965,0.3222833412221603,12.815719006672259
0.07272846634251015,0.4286215713905591,12.94483462371405
0.07322896684301064,0.4910614111560834,12.789717229558407
0.07372946734351114,0.5087276350593045,12.547051145006524
0.07422996784401165,0.47203926112610073,12.544876087257293
0.07473046834451215,0.39219402037096085,12.870217889642342
0.07523096884501264,0.286048103506736,12.894666259216192
0.07573146934551314,0.13125324619932718,12.763745237140256
0.07623196984601364,-0.02866290346701167,12.650019443602048
0.07673247034651415,-0.18374762312683687,12.91479763479433
0.07723297084701465,-0.3196881364787862,12.774503282120412
0.07773347134751514,-0.428317920521097,12.55891674878984
0.07823397184801564,-0.4877313804316304,12.93920743422694
0.07873447234851615,-0.5066005091679974,12.82472906568018
0.07923497284901665,-0.48051255894768274,12.720264706548859
0.07973547334951714,-0.39493659964316025,12.75910110363609
0.08023597385001774,-0.2724022205790273,12.765074422479502
0.08073647435051814,-0.1335891333375995,12.7563472250107
0.08123697485101865,0.028695547096565292,12.672486900560934
0.08173747535151915,0.182458395378907,12.869991855344063
0.08223797585201964,0.32247044268911296,12.706525841149675
0.08273847635252024,0.4261513758191734,12.83517563199777
0.08323897685302074,0.4927804953679848,12.962319463549292
0.08373947735352115,0.504923381864771,12.883951078429869
0.08423997785402164,0.46940693837604497,13.057461383249402
0.08474047835452224,0.39155703464198693,12.564183545592792
0.08524097885502274,0.27306409502361645,12.82731030291359
0.08574147935552325,0.12877485545949252,12.854571938371361
0.08624197985602365,-0.033960425004258527,12.755391625847324
0.08674248035652414,-0.1845382090769712,12.861769927482873
0.08724298085702474,-0.32469762713841105,12.650168777395837
0.08774348135752524,-0.42353239959381705,12.800139050832804
0.08824398185802575,-0.494395607032818,12.85253367598643
0.08874448235852614,-0.504105051519246,12.888488853189322
0.08924498285902674,-0.47224924995692047,12.785376332252444
0.08974548335952724,-0.39666155457166186,12.60827977055755
0.09024598386002775,-0.27592807637341704,12.882298594005563
0.09074648436052825,-0.12683819602967664,12.683110372827162
0.09124698486102864,0.028915115815731144,12.477872487451092
0.09174748536152924,0.18377217343852711,12.897285073473743
0.09224798586202974,0.3205197594426963,12.908892917472125
0.09274848636253025,0.4363803534754616,12.882041539933402
0.09324898686303075,0.4948959494740955,12.913192510068878
0.09374948736353124,0.5129712754700692,12.713811553992365
0.09424998786403174,0.4712245919435087,12.685212200614947
0.09475048836453225,0.3937247869864565,12.972709255511086
0.09525098886503275,0.2648852659954799,12.635241103961736
0.09575148936553325,0.12095490699370436,12.835995139795024
0.09625198986603374,-0.034876694569106644,12.707995303704205
0.09675249036653424,-0.18983108828965523,12.857544893517819
0.09725299086703475,-0.32198125722287735,12.74213957894379
0.09775349136753525,-0.4307714118731849,12.76396968238711
0.09825399186803574,-0.48926478009339974,12.887200411632765
0.09875449236853624,-0.5026077542178004,13.005505773627556
0.09925499286903675,-0.46982478597231864,12.653268333908738
0.09975549336953725,-0.39372832072980335,12.743858479570443
0.10025599387003775,-0.26924840616208906,12.686512517611519
0.10075649437053824,-0.12164368358959027,12.707687941622803
0.10125699487103874,0.03494811667541645,12.786529196509706
0.10175749537153925,0.18524320978067302,12.706049178280272
0.10225799587203975,0.3264307556258089,12.761881932069471
0.10275849637254024,0.43462438935636805,12.75659192961891
0.10325899687304074,0.48579646103241997,12.807095857696142
0.10375949737354125,0.5082605837587544,12.821966958155635
0.10425999787404175,0.4684903129623712,12.87266003665045
0.10476049837454225,0.3860421801463898,12.679783218091602
0.10526099887504274,0.27008548127783394,12.833562215027932
0.10576149937554324,0.11866878853826228,12.757703661825712
0.10626199987604375,-0.03481163605897959,12.622426249777504
0.10676250037654425,-0.18992429356106919,12.91759777330682
0.10726300087704474,-0.32845015291194546,12.78373378096253
0.10776350137754524,-0.4311182225902297,12.653260019102957
0.10826400187804575,-0.4978620663906224,12.910545348587169
0.10876450237854625,-0.5040267107158706,12.692390443919644
0.10926500287904675,-0.4711707439524845,13.048968364036673
0.10976550337954724,-0.3868433204219268,12.87309546643574
0.11026600388004774,-0.2658948379826591,12.947938242736429
0.11076650438054825,-0.12310435426732273,12.938585617769027
0.11126700488104875,0.040971105827675734,12.969856307609803
0.11176750538154924,0.1977043591045305,12.622675443675153
0.11226800588204974,0.3284950809622844,12.833173746078133
0.11276850638255025,0.42923362115595115,12.91911950086965
0.11326900688305075,0.4892841562420931,12.752469548296485
0.11376950738355125,0.5123856558344632,12.624482074330725
0.11427000788405174,0.4674494877741255,13.059533733256488
0.11477050838455224,0.39152597440045017,12.897492144554308
0.11527100888505275,0.2671384049988424,12.83151882893851
0.11577150938555325,0.11913467868629843,12.71603924091273
0.11627200988605375,-0.03183348441803907,12.818954191206778
0.11677251038655424,-0.19677880294938027,12.905568460378296
0.11727301088705473,-0.3271862596466076,12.79966202401382
0.11777351138755525,-0.4337161836999291,12.725618453663712
0.11827401188805574,-0.4920169113444722,12.938249684953462
0.11877451238855626,-0.5104370345296132,12.984253766053737
0.11927501288905674,-0.466947436838534,12.77516025713711
0.11977551338955723,-0.38167271707380374,12.708069553456902
0.12027601389005775,-0.2634543443849121,12.902213037484609
0.12077651439055824,-0.11270804708387146,12.65931927748508
0.12127701489105876,0.03840351310862395,12.912194410598099
0.12177751539155925,0.19546531785933377,12.764724665564271
0.12227801589205974,0.32980076685224724,12.717197082417773
0.12277851639256025,0.4311936333143706,13.066066478033129
0.12327901689306074,0.492710066990964,12.849340124190272
0.12377951739356126,0.5064861971735669,12.966912595678028
0.12428001789406175,0.46597542297391836,12.76339111625118
0.12478051839456224,0.38454678619821303,12.709628288224343
0.12528101889506274,0.25997715355324225,12.75853903373043
0.12578151939556323,0.10906741773629354,12.475140711602
0.12628201989606372,-0.04427792589596256,12.866351560834667
0.12678252039656424,-0.19302852610971918,12.67842413718077
0.12728302089706472,-0.33177584578451175,12.81637577404343
0.12778352139756524,-0.43903748108165247,12.733433427572669
0.12828402189806573,-0.49504065713869816,12.805023386230932
0.12878452239856622,-0.5184242267204164,12.920400050266467
0.12928502289906674,-0.4664515791209158,12.756980239413918
0.12978552339956723,-0.3870196502798724,12.94505540200033
0.13028602390006774,-0.26183761823079515,12.723563434884818
0.13078652440056823,-0.11677788145559566,12.999495696687877
0.13128702490106872,0.04737662760863646,12.830593874611044
0.13178752540156924,0.19771338374070702,12.925436730275322
0.13228802590206973,0.3332136928140719,12.718319010109408
0.13278852640257024,0.4367707006018737,12.903703797914215
0.13328902690307073,0.5004429520353778,12.940477336549533
0.13378952740357122,0.5012192203287871,12.876277522547282
0.13429002790407174,0.46624112512113625,12.77124236047731
0.13479052840457223,0.38104884621281,12.924883865453886
0.13529102890507272,0.2601168795290199,12.910989968185573
0.13579152940557324,0.11655709163156969,12.816506018711694
0.13629202990607373,-0.0458384554407882,12.895593818849663
0.13679253040657424,-0.2002297596941793,12.858550751879644
0.13729303090707473,-0.33703142361619576,12.66612024694311
0.13779353140757522,-0.4350946265058232,12.822679727188945
0.13829403190807574,-0.4898246286692115,12.951729975977704
0.13879453240857623,-0.5073623642015729,12.581995172604012
0.13929503290907674,-0.4630404642113376,12.928166231876066
0.13979553340957723,-0.37796789109348494,12.78404827492921
0.14029603391007772,-0.2616154654620928,12.865042764134637
0.14079653441057824,-0.11262813064129124,12.918519672627193
0.14129703491107873,0.04572499887254279,13.037167066396885
0.14179753541157925,0.20449061574536503,12.87183762691335
0.14229803591207973,0.33377380823318314,12.783540944202644
0.14279853641258022,0.43656267405884863,12.590298507507502
0.14329903691308074,0.49497069682844014,12.860722771877132
0.14379953741358123,0.4992863707672899,13.007865779308554
0.14430003791408172,0.46539117966379423,12.874514656177114
0.14480053841458224,0.3824672466587475,12.984939842572686
0.14530103891508273,0.25248627605644564,12.9431025768615
0.14580153941558324,0.10553755319385297,12.712576801366296
0.14630203991608373,-0.0527112159861943,12.649475222368984
0.14680254041658422,-0.20023066106219461,12.668098120539172
0.14730304091708474,-0.3345880417565118,12.832426197503183
0.14780354141758523,-0.4361751920917794,12.594057413578026
0.14830404191808574,-0.4915761120492437,12.713210012363144
0.14880454241858623,-0.5050536574814264,12.851689894765661
0.14930504291908672,-0.4587039340081711,12.840988712031155
0.14980554341958724,-0.3789400641612109,12.92638325522672
0.15030604392008773,-0.2468407921768298,12.608422254795284
0.15080654442058822,-0.1098308387455091,12.831431977655013
0.15130704492108873,0.04947011279521961,12.850106677958191
0.15180754542158922,0.20327909783242581,12.818888462490753
0.15230804592208974,0.33842442135890505,12.851808020901466
0.15280854642259023,0.43906983628320084,12.81277207035652
0.15330904692309072,0.49344639024935677,13.000488213751769
0.15380954742359124,0.5088724343737105,12.936970696085472
0.15431004792409173,0.462792928924204,12.946784265869471
0.15481054842459224,0.3802139479396592,12.753710060600207
0.15531104892509273,0.25530424032463567,12.819312874566759
0.15581154942559322,0.1082157107863635,12.84650591654405
0.15631204992609374,-0.05040620697846136,13.026165230507559
