Time,Vin,Vout
-0.00022479780744970312,-0.0028097557803668286,2.4126894196652578e-05
0.00027570269305079683,0.1590178099361727,0.006319467203481957
0.0007762031935512968,0.2930925490990898,0.013947138214373716
0.0012767036940517968,0.4000687222545679,0.014997109657965363
0.0017772041945522967,0.47489427387824257,0.014937795518515807
0.0022777046950527968,0.4961187455890458,0.01467126594032748
0.002778205195553297,0.48157194525455527,0.015029512972457552
0.003278705696053797,0.40051054284198145,0.014808139758361706
0.0037792061965542965,0.29599280021296187,0.014781070414766952
0.004279706697054797,0.15524975880676356,0.014982980867063877
0.004780207197555297,-0.0011201282855293716,0.014484501180301675
0.005280707698055797,-0.1483574439586343,0.006490847752833102
0.005781208198556297,-0.29904620199812837,-0.012796588190886532
0.006281708699056797,-0.40128865643255035,-0.014806566734390595
0.006782209199557297,-0.4751988825791042,-0.01454617651972015
0.0072827097000577965,-0.5027098776000337,-0.014643556161813513
0.007783210200558296,-0.47526085108540567,-0.014735402490312365
0.008283710701058798,-0.4067636812942498,-0.014883846376511503
0.008784211201559297,-0.2876392077955198,-0.014679985691652598
0.009284711702059797,-0.1490132438181859,-0.014688558384754306
0.009785212202560296,-0.0031581206380197763,-0.014401092566192836
0.010285712703060796,0.15737649242606624,-0.005145664640724409
0.010786213203561297,0.29294093600859866,0.013133810947431077
0.011286713704061797,0.41011663599581344,0.014613359326651911
0.011787214204562297,0.47146188387649196,0.014767360219438886
0.012287714705062796,0.4949408686068646,0.014655714443102154
0.012788215205563298,0.4724427627993061,0.014806073131211444
0.013288715706063797,0.39750279803489197,0.014739075653537654
0.013789216206564297,0.2876933939051131,0.014855239252089392
0.014289716707064797,0.15220126573173962,0.014924803605890897
0.014790217207565296,-0.0037918778431518495,0.014584072945339371
0.015290717708065798,-0.1621116816362801,0.004975790478029014
0.015791218208566295,-0.29776137077958087,-0.012881858099187947
0.0162917187090668,-0.4031080555032518,-0.014677155629379494
0.016792219209567298,-0.47516138312677875,-0.014860273952377667
0.017292719710067798,-0.49619209045941925,-0.014659209873051674
0.017793220210568297,-0.4781609916699453,-0.014741967886537331
0.018293720711068797,-0.3985017863606117,-0.014570428924770902
0.018794221211569297,-0.2865283440511542,-0.014970524511971506
0.019294721712069796,-0.14658426511129805,-0.014820387427801035
0.019795222212570296,0.003023494240748554,-0.014530531482426487
0.020295722713070796,0.15885218889675443,-0.005759214393113421
0.020796223213571295,0.3005334130944953,0.013234288420866913
0.021296723714071798,0.4092533175368493,0.01473723077869785
0.021797224214572298,0.4758329421811165,0.01465876733296571
0.022297724715072798,0.49908832643535295,0.01462830439734894
0.022798225215573297,0.46783740159787995,0.014958494374116714
0.023298725716073797,0.39753155472834495,0.014886345757252764
0.023799226216574296,0.2885421476100993,0.014866179014605055
0.024299726717074796,0.14551348893071667,0.014947738345182562
0.024800227217575296,-0.004353305645109366,0.01460919837987546
0.025300727718075795,-0.16394619871914676,0.004611038545914525
0.0258012282185763,-0.30387096927264406,-0.012942306946880328
0.026301728719076798,-0.40662820910094033,-0.01458375903112966
0.026802229219577298,-0.4805191111780697,-0.014692563985396388
0.027302729720077797,-0.4985244756374605,-0.014834886967862858
0.027803230220578297,-0.4727968494412686,-0.014723683456422052
0.028303730721078797,-0.4006803873969339,-0.014567224367776823
0.028804231221579296,-0.28134014044082895,-0.014739802117201266
0.029304731722079796,-0.15192942578371854,-0.01490069707007429
0.029805232222580295,0.0065706880084648546,-0.014274874445746431
0.0303057327230808,0.16976466506189364,-0.0052846917181739415
0.030806233223581298,0.2978039764154869,0.0134210558159296
0.0313067337240818,0.4094716203268277,0.014715872008466796
0.031807234224582294,0.4776834418653445,0.014492400974824009
0.0323077347250828,0.5035781212867815,0.014683610905975725
0.0328082352255833,0.46825464693242297,0.014676428633868444
0.033308735726083796,0.3986807717268342,0.01450273186758985
0.0338092362265843,0.2853693156956949,0.014626044843475355
0.034309736727084796,0.14370798440392527,0.014556929056145241
0.0348102372275853,-0.013935836616202176,0.014474122300302239
0.035310737728085795,-0.16429151430194155,0.004182975265736652
0.0358112382285863,-0.30369771195628953,-0.013003242968203816
0.036311738729086794,-0.4182543876919608,-0.014677870887336427
0.0368122392295873,-0.4690777966069451,-0.014868085505979128
0.0373127397300878,-0.5000059833719266,-0.014932033096261009
0.037813240230588296,-0.4724760763687003,-0.014795557325282408
0.0383137407310888,-0.39257470817264417,-0.01464338432381572
0.038814241231589296,-0.2851307093669242,-0.014822164381757597
0.0393147417320898,-0.13678756050827054,-0.014611725431418832
0.039815242232590295,0.009326040067582671,-0.014413847534821457
0.0403157427330908,0.16885338436416983,-0.004368141999642972
0.040816243233591294,0.3011924165258087,0.013319512476212995
0.0413167437340918,0.40650005510069875,0.015025211496192008
0.04181724423459229,0.47551875958640305,0.014676685996246188
0.0423177447350928,0.5000819212210506,0.014773947990397378
0.0428182452355933,0.47091318900856766,0.014893639795188908
0.043318745736093796,0.39054015240325185,0.014827113088410665
0.0438192462365943,0.2796997391987168,0.014792121228883908
0.044319746737094795,0.1376294125944115,0.014863030367975111
0.0448202472375953,-0.011214175914618598,0.014475892051836407
0.045320747738095794,-0.1655235390286864,0.004625486680136212
0.0458212482385963,-0.3008048834110978,-0.013646012832619497
0.046321748739096794,-0.4093774710272237,-0.014581322291706498
0.0468222492395973,-0.4794900772297716,-0.014546748736535333
0.0473227497400978,-0.49689462144225105,-0.014976391747300947
0.047823250240598296,-0.46457028416596663,-0.014995015462157287
0.0483237507410988,-0.3954732750794376,-0.014758374534876705
0.048824251241599295,-0.28095267320677053,-0.014871278817437336
0.0493247517420998,-0.12952238853192777,-0.014740646023193306
0.049825252242600294,0.01879288352231327,-0.014630064126367635
0.0503257527431008,0.16945459859216994,-0.0032026351095848027
0.050826253243601294,0.31150565095723187,0.013371745283373135
0.0513267537441018,0.4088511596053809,0.014950808205121097
0.0518272542446023,0.47164037544106274,0.014854859506878116
0.052327754745102796,0.4941504512411958,0.014560020796709027
0.0528282552456033,0.4654636092206995,0.014877400604099453
0.053328755746103795,0.3938038241141146,0.015041513866124066
0.0538292562466043,0.28654513077843285,0.014816882375059879
0.054329756747104795,0.13279120873023292,0.01479287434464818
0.0548302572476053,-0.018036522784125365,0.014166551824271616
0.055330757748105794,-0.16961597200355605,0.0037618603124517486
0.0558312582486063,-0.3068316861228286,-0.013300764329952511
0.0563317587491068,-0.4113841103697209,-0.014707043581924723
0.056832259249607296,-0.4815511037561587,-0.014748701373115342
0.0573327597501078,-0.49597068933997407,-0.01479497739421553
0.057833260250608295,-0.47067688275634195,-0.014673195842583496
0.0583337607511088,-0.3989266935268603,-0.014811226512531838
0.058834261251609295,-0.27685615094090515,-0.01461476590677634
0.0593347617521098,-0.13369395332443293,-0.014403764850930615
0.059835262252610294,0.018148609711390096,-0.014352623178712288
0.0603357627531108,0.17165832598038974,-0.003956986543233484
0.0608362632536113,0.31143495013075023,0.013733961037306612
0.061336763754111796,0.41604086837708043,0.014889474937292143
0.0618372642546123,0.4772537301567764,0.014858989793732028
0.062337764755112796,0.5044342818573359,0.01470881280429909
0.0628382652556133,0.46874000538414773,0.014707223837565814
0.0633387657561138,0.3959855356256354,0.014786773156598779
0.06383926625661429,0.2731890923273912,0.014528765035040159
0.0643397667571148,0.136475522122226,0.014669610999665815
0.0648402672576153,-0.019799289730092793,0.014085534671380346
0.0653407677581158,-0.17067422018835254,0.004079896959905963
0.0658412682586163,-0.31168731247729126,-0.013709433523851646
0.06634176875911679,-0.4112097074272428,-0.0149136804102666
0.0668422692596173,-0.4781059049488467,-0.014746532626930873
0.0673427697601178,-0.4961913354663189,-0.01477941685172106
0.0678432702606183,-0.4666427520543248,-0.014674147998322723
0.06834377076111879,-0.39038882783600665,-0.014784132116473812
0.0688442712616193,-0.271163785868046,-0.01483800034721515
0.0693447717621198,-0.13074318301985347,-0.014605528624387451
0.0698452722626203,0.01979141353461225,-0.014490153424529856
0.0703457727631208,0.1715711028232372,-0.0026869005711136593
0.07084627326362129,0.31622026672690834,0.014107148774001765
0.0713467737641218,0.41811470203747875,0.014823521950676176
0.0718472742646223,0.4759960175121642,0.01490912427550528
0.0723477747651228,0.503372112923171,0.01475148768426957
0.07284827526562329,0.46814054471114713,0.014692164903727607
0.0733487757661238,0.38639774562529733,0.014834044023077265
0.0738492762666243,0.27284712087431284,0.01482443039753204
0.0743497767671248,0.1304739125301287,0.014815545296866801
0.0748502772676253,-0.020318857407055475,0.014453460572747741
0.07535077776812579,-0.17945304900745226,0.0033701369299627176
0.0758512782686263,-0.31223427620515626,-0.01383917404468897
0.0763517787691268,-0.4160600181708112,-0.014862011588415066
0.0768522792696273,-0.47600364823327906,-0.014845398992150349
0.07735277977012779,-0.4980640626811931,-0.014493166779276447
0.0778532802706283,-0.46440079085496927,-0.014889798079701847
0.0783537807711288,-0.3870024581330575,-0.015009360754963685
0.0788542812716293,-0.2786197354510127,-0.014541531556592465
0.0793547817721298,-0.1277883971249984,-0.01477747580771079
0.07985528227263029,0.026999317429045374,-0.014185681616442378
0.0803557827731308,0.17841035317173365,-0.0021648586516231994
0.0808562832736313,0.31389996476841475,0.013317494469910322
0.0813567837741318,0.41928971923006686,0.01477702503328568
0.08185728427463229,0.48241728764570363,0.014783103706413588
0.0823577847751328,0.49770895057998327,0.014881742286577793
0.0828582852756333,0.46547116225839313,0.014842573947488915
0.0833587857761338,0.3851428346231201,0.014995546864938201
0.08385928627663429,0.2684979216472836,0.014997164546315124
0.0843597867771348,0.13070630681673284,0.014895874021549968
0.0848602872776353,-0.0231205054451767,0.01387988675601055
0.0853607877781358,-0.18179213069751024,0.0024388899770524794
0.0858612882786363,-0.31302185416352607,-0.013596284439571494
0.08636178877913679,-0.41372626086285713,-0.014776040626158617
0.0868622892796373,-0.48358911906912905,-0.014641746344147246
0.0873627897801378,-0.49795650832620386,-0.014641851087318764
0.0878632902806383,-0.45605308552627305,-0.014805986740502628
0.08836379078113879,-0.39048274842814656,-0.015031351604104511
0.08886429128163939,-0.2666805378951771,-0.014798620929849205
0.0893647917821398,-0.12450863044867963,-0.014683163237121426
0.0898652922826403,0.02823937444804737,-0.014307475973373587
0.0903657927831408,0.18254631532847757,-0.0021720018447612803
0.09086629328364129,0.31815006202347174,0.013905032144181827
0.09136679378414189,0.421409757066848,0.01483689315939688
0.0918672942846424,0.48058062560015635,0.014715106446003358
0.0923677947851428,0.4946210770552008,0.014941434039999106
0.09286829528564329,0.4645553104987672,0.014782691875185508
0.09336879578614389,0.38761822238760557,0.014875784026716842
0.0938692962866444,0.27067977657677506,0.014654854891643733
0.0943697967871449,0.12349560441029649,0.014713941428374944
0.0948702972876453,-0.03158231957261746,0.01424253458690152
0.09537079778814579,-0.17916480209829141,0.0024597604032159572
0.09587129828864639,-0.3197170175499288,-0.014250065242766768
0.0963717987891469,-0.4159747218962034,-0.014646958650289057
0.0968722992896474,-0.4840150917459728,-0.014682010523359853
0.09737279979014779,-0.5038926695122021,-0.014649414166082408
0.09787330029064839,-0.4631760499180367,-0.014657723113272314
0.0983738007911489,-0.37737058994530653,-0.014772317823651172
0.0988743012916494,-0.2691219826958364,-0.014764249321708266
0.0993748017921499,-0.12455199726054515,-0.014828221548143047
0.09987530229265029,0.030822794510345548,-0.014815840676688773
0.10037580279315089,0.1821249131193629,-0.001305108866656831
0.1008763032936514,0.32489167098792326,0.01374284819762074
0.1013768037941519,0.42244059376230964,0.014764711033264122
0.1018773042946524,0.48304205537593525,0.01477921453641296
0.10237780479515289,0.4855391604990317,0.01483050412632792
0.1028783052956534,0.4632825915675192,0.01467545013535965
0.1033788057961539,0.38655043050424576,0.014737814238785101
0.1038793062966544,0.2677080092582162,0.015037315607803848
0.1043798067971549,0.1186602560991207,0.014834381693989594
0.10488030729765539,-0.036406346732753773,0.014249824807050877
0.1053808077981559,-0.18175837268835757,0.001820625505769045
0.1058813082986564,-0.318729290565936,-0.014172284175529959
0.1063818087991569,-0.42804048862909183,-0.014806416272128893
0.10688230929965739,-0.4822607273907933,-0.014756104185424555
0.1073828098001579,-0.4945860055234351,-0.014836163062088585
0.1078833103006584,-0.46275280948423325,-0.014793928363849799
0.1083838108011589,-0.3842120305947501,-0.014548298853378888
0.1088843113016594,-0.26967566792867326,-0.014535971570141335
0.10938481180215989,-0.12274375521030796,-0.014833936204516363
0.1098853123026604,0.0343676508062599,-0.014311761628277669
0.1103858128031609,0.1909242002318966,-0.0008627517548266737
0.1108863133036614,0.3183462679475154,0.013965592051292608
0.11138681380416189,0.4266120457610103,0.014997238616217134
0.1118873143046624,0.48403891016771206,0.014833781023400792
0.1123878148051629,0.497034211419963,0.014888605876620522
0.1128883153056634,0.4616285112100746,0.014660842435329665
0.1133888158061639,0.3791678991124,0.014869826452603756
0.11388931630666439,0.2587144721941014,0.014761533407579294
0.1143898168071649,0.11914149191304405,0.014653972706071995
0.1148903173076654,-0.03366631852377019,0.01396102274953292
0.1153908178081659,-0.19256250071115796,0.0011639822514761802
0.11589131830866639,-0.3256795700886569,-0.0137654092355533
0.1163918188091669,-0.4225765526303121,-0.01475000972989002
0.1168923193096674,-0.48256619364463,-0.01449943709063675
0.1173928198101679,-0.5023613261837889,-0.014729331901783493
0.1178933203106684,-0.4576491740515002,-0.014548513512086539
0.11839382081116889,-0.38075252189264586,-0.014792251821252258
0.1188943213116694,-0.26317625686880425,-0.014595618619911703
0.1193948218121699,-0.11746634557302493,-0.014913785291826045
0.1198953223126704,0.036036255686413554,-0.01423149823069294
0.12039582281317089,0.18559983695158747,-0.000959870259496308
0.1208963233136714,0.3215753589120923,0.013971946713652627
0.1213968238141719,0.41755279317422705,0.01472531687513469
0.1218973243146724,0.48574481447290835,0.014747266625231811
0.1223978248151729,0.4895249551074172,0.014591702440932965
0.12289832531567339,0.46625518728634396,0.014794139535119325
0.1233988258161739,0.37522025071023885,0.014967532342608407
0.1238993263166744,0.26097101379045573,0.01488018602240694
0.1243998268171749,0.11803632758550599,0.014837279808838394
0.1249003273176754,-0.0378912256040654,0.013854840126487598
0.1254008278181759,-0.18972742845117202,0.0009341217147829625
0.1259013283186764,-0.3230336280253447,-0.01415001889873293
0.1264018288191769,-0.42242641012825716,-0.014820198927048446
0.12690232931967738,-0.48515101738736127,-0.014669578310853559
0.12740282982017792,-0.4964308265411052,-0.01459929275115552
0.1279033303206784,-0.4565981226745831,-0.014628384842366152
0.1284038308211789,-0.3738454133032718,-0.014696813448250454
0.1289043313216794,-0.256096434970107,-0.014823238671060847
0.12940483182217988,-0.11182925636783003,-0.014690291476681265
0.12990533232268042,0.04002312200209231,-0.014375594481583603
0.1304058328231809,0.19004470033220183,-0.000172935076461386
0.1309063333236814,0.3224282124302017,0.014037313198403156
0.1314068338241819,0.4211803126376858,0.014804004449593755
0.13190733432468238,0.48278386439913484,0.014895291365420447
0.13240783482518292,0.500693809293317,0.014931913562121469
0.1329083353256834,0.4616058430263274,0.01491790640241274
0.1334088358261839,0.3786778382931959,0.014732989430598649
0.1339093363266844,0.2563813146752063,0.014697861483672959
0.13440983682718488,0.11158216616560748,0.014708672138974395
0.13491033732768537,-0.03772631867650881,0.013850706697258089
0.13541083782818591,-0.19098473766529594,0.00013308537265818227
0.1359113383286864,-0.3248558371829009,-0.01383915901000319
0.1364118388291869,-0.4262808871057306,-0.014997146062213612
0.13691233932968738,-0.48626826117421484,-0.01454838602604623
0.13741283983018787,-0.4964349106533286,-0.014552642857528567
0.13791334033068842,-0.4572897067473997,-0.014813322139489543
0.1384138408311889,-0.369445502518747,-0.014834371624106467
0.1389143413316894,-0.25403752219058956,-0.014909898182699948
0.13941484183218988,-0.11249157603570904,-0.014840000466658012
0.13991534233269037,0.04386705794191701,-0.01411611263165284
0.14041584283319092,0.1953776418371524,1.5132441015322374e-05
0.1409163433336914,0.3298085502476342,0.014035157371395367
0.1414168438341919,0.42829560357687074,0.014679680458472889
0.14191734433469239,0.48706205889367044,0.014806168855409361
0.14241784483519287,0.4948978952952505,0.014817169545647301
0.14291834533569342,0.46216976828878953,0.01508103649663169
0.1434188458361939,0.37107923877594484,0.014822814396601866
0.1439193463366944,0.2577777111314258,0.01479204865151195
0.1444198468371949,0.1105663244397182,0.014587178560718042
0.14492034733769538,-0.044667438028098895,0.014404457492217717
0.14542084783819592,-0.2009994722690028,-0.0003831517815769675
0.1459213483386964,-0.32988542738646937,-0.014382510355546002
0.1464218488391969,-0.43014667164104065,-0.014704223470402216
0.1469223493396974,-0.48705883142725126,-0.014680400918881245
0.14742284984019788,-0.502013983156727,-0.014845898490606545
0.14792335034069842,-0.46240336017131706,-0.01488780493225813
0.1484238508411989,-0.3756919575460377,-0.014760447232017625
0.1489243513416994,-0.24998626074979358,-0.0147930245617911
0.1494248518421999,-0.10879510173102108,-0.014781499213406747
0.14992535234270038,0.04847062645047403,-0.0134641928605638
0.15042585284320092,0.19921497839279367,0.0009052796105701675
0.1509263533437014,0.3320022882823919,0.014096030033660903
0.1514268538442019,0.4322518362873876,0.014864192013990595
0.1519273543447024,0.4889395058279449,0.014891599591158789
0.15242785484520288,0.49449588910501396,0.01459827414584464
0.15292835534570337,0.4557406743575656,0.014661650007768581
0.15342885584620392,0.3731693714977501,0.014917918781386869
0.1539293563467044,0.25578515724263867,0.014635909391556323
0.1544298568472049,0.108813901181575,0.014692240202156854
0.15493035734770538,-0.05451545541554008,0.013668776948282689
0.15543085784820587,-0.20407352984437918,-0.00033277045437646557
0.15593135834870642,-0.3351864700474875,-0.01417906337608831
0.1564318588492069,-0.4323695811239779,-0.014609878055152316
0.1569323593497074,-0.48694471691932273,-0.01477476788711767
0.15743285985020788,-0.4995872828355903,-0.014718787875320933
0.15793336035070837,-0.4518286986026345,-0.014659906461824595
0.15843386085120892,-0.3764820129070386,-0.014854700090237314
0.1589343613517094,-0.250685144847481,-0.014827813202922143
0.1594348618522099,-0.10159511678908716,-0.014645761894564638
0.1599353623527104,0.050527064878457706,-0.014130109979956638
