Time,Vin,Vout
0.0023160453442627477,0.002061310485495846,-0.005547497172852137
0.002816545844763248,0.14702434170016576,0.14296944377843357
0.003317046345263748,0.2816943009975909,0.40172475210581515
0.0038175468457642475,0.38913653991383423,0.5891459050986557
0.004318047346264748,0.452878764314297,0.7401665994991029
0.004818547846765248,0.4763804333926263,0.8062677174969174
0.005319048347265747,0.45312505509707096,0.8073600463439579
0.005819548847766248,0.3881345647973649,0.7121108327619184
0.006320049348266747,0.2723262547092521,0.5548700294632063
0.006820549848767248,0.14591060027575364,0.342758200671407
0.0073210503492677475,-0.0028852248815869684,0.10449354037881825
0.007821550849768249,-0.14637170400973584,-0.1544075901635644
0.008322051350268748,-0.2809181638322199,-0.38581973935030445
0.008822551850769248,-0.38661589268315677,-0.5910181795137035
0.009323052351269748,-0.4551491226622767,-0.7315712560354666
0.009823552851770247,-0.4754778127423943,-0.8070038546526768
0.010324053352270747,-0.4541783655403581,-0.7896888593212988
0.010824553852771248,-0.38191797428491164,-0.7100334397009993
0.011325054353271748,-0.27767658606058515,-0.5611095744464757
0.011825554853772248,-0.1454372792574461,-0.3415606116758959
0.012326055354272747,0.003113135618258323,-0.10082524307026199
0.012826555854773247,0.15112357813247412,0.15509588442917535
0.013327056355273748,0.27843469611030863,0.3926108756175987
0.013827556855774248,0.3888888508247153,0.5961546796206283
0.014328057356274747,0.45442672043963217,0.7322094612133241
0.014828557856775247,0.48044485004783555,0.808988157414629
0.015329058357275748,0.453872164093085,0.8055780482329626
0.015829558857776246,0.3825501030615741,0.7086153260480738
0.01633005935827675,0.27711433463035384,0.5542010491592777
0.016830559858777246,0.14188685087142028,0.3467541472482793
0.01733106035927775,-0.00471564107399766,0.10714322228662708
0.01783156085977825,-0.1532094335128986,-0.16122369132840056
0.018332061360278748,-0.2826154806672946,-0.39215699445961255
0.01883256186077925,-0.38746463267245584,-0.6035801244596266
0.019333062361279747,-0.4536602795052662,-0.731689341949399
0.01983356286178025,-0.47429083659947385,-0.8088539562677515
0.020334063362280747,-0.4515489050817086,-0.792807984052851
0.02083456386278125,-0.37776962392675567,-0.7052470270076525
0.021335064363281746,-0.26791388415122186,-0.5440414790890425
0.02183556486378225,-0.13784497006695356,-0.3427520389149982
0.022336065364282745,0.010838344130495942,-0.09848550649163659
0.022836565864783248,0.14555386417602403,0.15533710390754424
0.023337066365283744,0.2830276054363447,0.4003654987269916
0.023837566865784247,0.3831183208829966,0.6018494759363133
0.02433806736628475,0.4542943250588721,0.7300241446931337
0.024838567866785247,0.4724663843121887,0.8049240285195773
0.02533906836728575,0.4524553531164986,0.7933637812627348
0.025839568867786246,0.3818670582449891,0.7124762740698601
0.02634006936828675,0.27178305844705974,0.5542994817225849
0.026840569868787245,0.14347887132690582,0.3442264438446708
0.027341070369287748,-0.0034296288162843644,0.09385639328494547
0.027841570869788244,-0.1535079586533149,-0.16007135542977863
0.028342071370288748,-0.2820588037088355,-0.3943124043214771
0.02884257187078925,-0.39079285793516916,-0.5967424067252582
0.029343072371289747,-0.4544342896844555,-0.7372439773716629
0.02984357287179025,-0.4749963968232077,-0.8004000440718774
0.030344073372290746,-0.4551922635946201,-0.793205794328503
0.03084457387279125,-0.3787883763315657,-0.7026663787131349
0.031345074373291745,-0.2723046682934207,-0.5450850846606222
0.03184557487379225,-0.13932896167695782,-0.3255881520474588
0.032346075374292745,0.014998536298388926,-0.09035616062849808
0.03284657587479325,0.15612418602640935,0.17419234538892617
0.03334707637529375,0.2828955098517574,0.4086295700143554
0.03384757687579425,0.39318983999839896,0.5974898853225
0.03434807737629474,0.45031921293045885,0.7421432052016935
0.034848577876795246,0.47533908367266997,0.7996755836626729
0.03534907837729575,0.4521264945129695,0.7957942974140546
0.035849578877796245,0.3795943500788626,0.7044444738150838
0.03635007937829675,0.2765179056100599,0.5433247818440908
0.036850579878797245,0.13868573485831354,0.3397903838401658
0.03735108037929775,-0.014190216310931243,0.08665861035559864
0.037851580879798244,-0.16101968953958654,-0.1613353020814209
0.03835208138029875,-0.29151512784742045,-0.39747727447695086
0.03885258188079924,-0.3928563920707558,-0.5962219339330417
0.039353082381299746,-0.4603672360402444,-0.7348703013285532
0.03985358288180025,-0.4801579318865497,-0.8060442942043069
0.040354083382300746,-0.4444786340905677,-0.8004316799550413
0.04085458388280125,-0.37286481439247476,-0.7082210005307199
0.041355084383301745,-0.2691697849281535,-0.5434072394694927
0.04185558488380225,-0.13273939188048475,-0.33084836123524786
0.042356085384302744,0.01157765437354554,-0.08987060099776527
0.04285658588480325,0.162664863773624,0.16450073075161376
0.04335708638530374,0.2907905222795067,0.4063574991242688
0.043857586885804246,0.3981798041719661,0.6034316594676518
0.04435808738630474,0.45895047914443926,0.7484243178077908
0.044858587886805246,0.47694400712768376,0.8160887088995967
0.04535908838730575,0.45277828691435484,0.7866005685447413
0.045859588887806245,0.37730076488003317,0.70138475111356
0.04636008938830675,0.26683048088689076,0.5507237775998843
0.046860589888807244,0.1314706339272803,0.33559308525436626
0.04736109038930775,-0.01470157203007631,0.0888499722640759
0.04786159088980824,-0.15955549116707587,-0.177857905382465
0.04836209139030875,-0.28886675995375205,-0.4064121232776501
0.04886259189080924,-0.3903071236586204,-0.6053673410498631
0.049363092391309746,-0.45355675113694666,-0.7342730276095479
0.04986359289181025,-0.4742722198805019,-0.8124712606672273
0.050364093392310745,-0.453288345443917,-0.7960235631018217
0.05086459389281125,-0.37275214032956056,-0.6992206308855387
0.051365094393311744,-0.26665394691304967,-0.5395694379774478
0.05186559489381225,-0.12786651632875676,-0.3311875264574686
0.052366095394312744,0.012369124120633224,-0.08557502277611782
0.05286659589481325,0.15684602423523708,0.1700316766195204
0.05336709639531374,0.2895899326537618,0.408628879629963
0.053867596895814246,0.39156343663317744,0.6090938359231143
0.05436809739631475,0.4549497483049088,0.7531184335143464
0.054868597896815245,0.47650616546730207,0.8046158667230864
0.05536909839731575,0.44389391796218824,0.8039665521641195
0.055869598897816244,0.37652936990921704,0.7002185040872375
0.05637009939831675,0.2663488731586385,0.5305195518394132
0.056870599898817244,0.1391949302100667,0.32267712043007357
0.05737110039931775,-0.018504764245063733,0.07726698065373298
0.05787160089981824,-0.16549090275441777,-0.1775698515304859
0.058372101400318746,-0.2904176903210911,-0.40679872822025404
0.05887260190081925,-0.3952504457645861,-0.6105474297958062
0.059373102401319745,-0.45803109777570666,-0.744544441600692
0.05987360290182025,-0.47716660342918804,-0.8198246545608592
0.060374103402320745,-0.4444960487178869,-0.7932477038245145
0.06087460390282125,-0.3741812997368938,-0.7013349131453472
0.061375104403321744,-0.269822976548395,-0.5386340908610203
0.06187560490382225,-0.1342918174310442,-0.31767956570963923
0.06237610540432274,0.01680483762133237,-0.07346221191723368
0.06287660590482325,0.1717342761180781,0.18404563205752472
0.06337710640532375,0.2941207042874385,0.4158965313574908
0.06387760690582425,0.39793545825926435,0.6168268044870547
0.06437810740632476,0.4588624077954618,0.7479027317621263
0.06487860790682524,0.4783768860690287,0.8181452741400855
0.06537910840732575,0.44596608175351427,0.7947346653200678
0.06587960890782625,0.3731268970378401,0.7002635528823306
0.06638010940832674,0.2634960817243918,0.5286793778679563
0.06688060990882724,0.13000576504717726,0.31423516347671354
0.06738111040932775,-0.01735295769523733,0.07856677803215772
0.06788161090982825,-0.1685836287422214,-0.18714758332609163
0.06838211141032875,-0.2959871898114409,-0.4156599608546118
0.06888261191082924,-0.39636768870465006,-0.6123605875610655
0.06938311241132974,-0.4572237137494013,-0.750476550420181
0.06988361291183025,-0.4709944902886922,-0.8053991102865409
0.07038411341233075,-0.452897669220067,-0.7960237023460035
0.07088461391283124,-0.37549225867601027,-0.700822928668121
0.07138511441333174,-0.26304583056346453,-0.532309153149126
0.07188561491383225,-0.12459779841875357,-0.319365815780474
0.07238611541433275,0.023448901079899012,-0.06971016398248736
0.07288661591483325,0.16519548553090452,0.1861391135950654
0.07338711641533374,0.29623277188510583,0.42027395227896497
0.07388761691583424,0.40223567508294794,0.6191764097298753
0.07438811741633475,0.4605935752405299,0.7519156975913684
0.07488861791683525,0.478352720210205,0.8120469684073154
0.07538911841733574,0.44390013349384677,0.7892743197279075
0.07588961891783624,0.3744959694329382,0.6980486878705555
0.07639011941833675,0.2602479653869813,0.527240274948171
0.07689061991883725,0.1254327066148903,0.31524002800609274
0.07739112041933775,-0.022435870935309382,0.06854438154317816
0.07789162091983824,-0.16662939260514034,-0.18541893329256107
0.07839212142033875,-0.2959700606877088,-0.4129505176395375
0.07889262192083925,-0.4001750255573056,-0.6053220536574546
0.07939312242133975,-0.4601357174401423,-0.7354360166731939
0.07989362292184024,-0.47433132764608926,-0.8074429218453293
0.08039412342234074,-0.4485177292408323,-0.7913036748160635
0.08089462392284125,-0.3728752402243154,-0.6850822775922287
0.08139512442334175,-0.2606825320407721,-0.5311573591245563
0.08189562492384225,-0.12467417162719921,-0.3033046675741789
0.08239612542434274,0.024196999915450473,-0.06257399337687261
0.08289662592484325,0.1705127978612968,0.18228041615375332
0.08339712642534375,0.30220214149641395,0.4259968428736245
0.08389762692584425,0.3996968963510464,0.6184196431060074
0.08439812742634474,0.46158488481864124,0.7427473633901616
0.08489862792684524,0.475479507527164,0.819139717686327
0.08539912842734575,0.44504399989604004,0.793978651675107
0.08589962892784625,0.3678529934547542,0.6914352585422631
0.08640012942834674,0.26080638887426677,0.5277493482357131
0.08690062992884724,0.12509128183192145,0.3117026751712868
0.08740113042934775,-0.023682335011628333,0.06217777357265752
0.08790163092984825,-0.17588662207077327,-0.19350101390737354
0.08840213143034875,-0.3001395990724198,-0.42776364727136246
0.08890263193084924,-0.40708022395063886,-0.6259279099556914
0.08940313243134974,-0.45667137005854846,-0.7578302727975472
0.08990363293185025,-0.47058041852389954,-0.8113699485287911
0.09040413343235075,-0.4461237215953545,-0.796741060300641
0.09090463393285124,-0.3674704389294221,-0.6957371127522818
0.09140513443335184,-0.2622382866289057,-0.5175311528685926
0.09190563493385225,-0.12281430487565911,-0.3080759777479982
0.09240613543435275,0.025609824174765032,-0.06094780073994259
0.09290663593485325,0.1757368871987799,0.1906204872175001
0.09340713643535374,0.3044074869165099,0.4276265426656362
0.09390763693585434,0.4042482554226684,0.6218394832178888
0.09440813743635484,0.46477268579549375,0.7604169091025393
0.09490863793685525,0.4738566256369657,0.8082418230083106
0.09540913843735574,0.4444396876468773,0.7949817476382818
0.09590963893785634,0.37446288175433834,0.6850627812719052
0.09641013943835684,0.25369177389963427,0.5291868711289746
0.09691063993885735,0.1150922780608291,0.309339976934575
0.09741114043935775,-0.029503067429606566,0.06253119571313201
0.09791164093985824,-0.17877181554650662,-0.19831305195336668
0.09841214144035884,-0.30438925211687207,-0.43853403139062724
0.09891264194085934,-0.40090165476580336,-0.6102734056531923
0.09941314244135985,-0.46391535654745164,-0.7527449940772581
0.09991364294186024,-0.47419667969830354,-0.8043961249380938
0.10041414344236084,-0.4398757826614134,-0.7884217397351682
0.10091464394286134,-0.371232160756233,-0.6866082199261108
0.10141514444336185,-0.25900018543345543,-0.5215441116679171
0.10191564494386235,-0.12170198138783385,-0.3139508767035325
0.10241614544436274,0.025867048306870855,-0.04759830236152194
0.10291664594486334,0.17810866687565383,0.19825324868849728
0.10341714644536384,0.3070551787462997,0.424651535820399
0.10391764694586435,0.39885770690413436,0.6194691641278725
0.10441814744636485,0.46296381897215166,0.747784953254153
0.10491864794686534,0.4783932675239598,0.8065993705619802
0.10541914844736584,0.44214433721242674,0.7894429494541773
0.10591964894786635,0.3610584264539055,0.6922306408856309
0.10642014944836685,0.2527830060003014,0.5282880062548196
0.10692064994886735,0.1209444836750062,0.3048402971201808
0.10742115044936784,-0.03276477216965497,0.04297767777343967
0.10792165094986834,-0.17772827327318805,-0.20854105395049868
0.10842215145036885,-0.30989603737296517,-0.42819664475983005
0.10892265195086935,-0.40277861482948646,-0.6199046617713457
0.10942315245136984,-0.4645750275560645,-0.7575399311925063
0.10992365295187034,-0.4782341233328893,-0.8086434960345086
0.11042415345237085,-0.4387861920453225,-0.78798099412235
0.11092465395287135,-0.36661324181444044,-0.6780682788397618
0.11142515445337185,-0.25430711014624013,-0.5188989674392579
0.11192565495387234,-0.11704233098223107,-0.29885737842771715
0.11242615545437284,0.026790763364592105,-0.058940588128491914
0.11292665595487335,0.1740915608573165,0.2060314610245674
0.11342715645537385,0.3026872432784717,0.43624672260021025
0.11392765695587434,0.40608125273932827,0.6311287634437587
0.11442815745637484,0.4625373030343596,0.7542962125448848
0.11492865795687535,0.47539414439172173,0.8080901046175578
0.11542915845737585,0.44551273395477803,0.7932866352025849
0.11592965895787635,0.3675156656380837,0.6867204785813246
0.11643015945837684,0.25006509990998244,0.5137631731970878
0.11693065995887734,0.11904226310606165,0.30395802435850067
0.11743116045937785,-0.03392054117867371,0.05056097497043093
0.11793166095987835,-0.1864726054014669,-0.20489542584261036
0.11843216146037884,-0.30703552451454186,-0.43365205908503723
0.11893266196087934,-0.40374205340098945,-0.6333735449988752
0.11943316246137985,-0.4645311620178612,-0.7597428645927603
0.11993366296188035,-0.4772656702157833,-0.8111748842011762
0.12043416346238085,-0.44590027312255204,-0.7840270521171556
0.12093466396288134,-0.36652993150019725,-0.6900880149650563
0.12143516446338185,-0.2451472724058474,-0.5108198109146789
0.12193566496388235,-0.10987354610404523,-0.2881077565112562
0.12243616546438285,0.03182145568803147,-0.04483999088342891
0.12293666596488334,0.1849689803770548,0.206589171324666
0.12343716646538384,0.31170998749977213,0.4451466213799228
0.12393766696588435,0.3979930996773823,0.6239178622747414
0.12443816746638485,0.46481237434174727,0.7589132578547502
0.12493866796688535,0.4760909058300331,0.8070937675390784
0.12543916846738584,0.4423239524002368,0.7871332606642533
0.12593966896788636,0.36307731295048823,0.6805112383872342
0.12644016946838685,0.24727674539821057,0.5184316725186785
0.12694066996888737,0.11200558255053164,0.28628908853905927
0.12744117046938785,-0.03721764142647464,0.04873503586836826
0.12794167096988834,-0.1875198244661522,-0.20442656678836488
0.12844217147038883,-0.31117463506282544,-0.44078292428721966
0.12894267197088935,-0.4069423562051243,-0.6307581718936937
0.12944317247138984,-0.46356501441144454,-0.755477320795027
0.12994367297189036,-0.46978887978304673,-0.8090094738418414
0.13044417347239085,-0.43874140535786094,-0.7805218102322218
0.13094467397289133,-0.36031589528708685,-0.6804517272893548
0.13144517447339185,-0.25015380011672,-0.5001427723299867
0.13194567497389234,-0.10740513410159842,-0.2804666288524109
0.13244617547439286,0.043509971411720014,-0.04152964007954504
0.13294667597489335,0.18280089020970552,0.2126917192877866
0.13344717647539384,0.31375052922662405,0.4472308533998204
0.13394767697589435,0.40903443150171404,0.6330249969941318
0.13444817747639484,0.45923279608763445,0.7604390378117297
0.13494867797689536,0.4738248399559355,0.8173160969226132
0.13544917847739585,0.43737597034813647,0.7850520113532109
0.13594967897789634,0.36265551953200276,0.6826122740638331
0.13645017947839685,0.24288330576889292,0.519598405695862
0.13695067997889734,0.11100029653578741,0.2945473296587656
0.13745118047939783,-0.036123064613974916,0.03627311656315642
0.13795168097989835,-0.1887150344995313,-0.21319011260319035
0.13845218148039884,-0.3126190167731276,-0.45260149931616317
0.13895268198089936,-0.40512928655041797,-0.6435720560271615
0.13945318248139985,-0.4663912729262995,-0.7571810301757693
0.13995368298190033,-0.47687628469663434,-0.8028305204624342
0.14045418348240085,-0.43804736838746905,-0.7835137738460516
0.14095468398290134,-0.3612388308809062,-0.6779531974276058
0.14145518448340186,-0.24661135514195046,-0.5015866791260191
0.14195568498390235,-0.10744103486465394,-0.2910502883609218
0.14245618548440284,0.03599674492503982,-0.03578609492615437
0.14295668598490335,0.1899478355698954,0.2213793436763578
0.14345718648540384,0.3143207265243336,0.44589666239217574
0.14395768698590436,0.40469220183819893,0.6268633696006957
0.14445818748640485,0.4675375136582945,0.7662505586752029
0.14495868798690534,0.47278514494995205,0.8097542851480023
0.14545918848740585,0.4376441478717174,0.7839010461507468
0.14595968898790634,0.3618293203352795,0.6854719609812584
0.14646018948840683,0.24471464434651743,0.504695689078783
0.14696068998890735,0.10622351330630483,0.2907363066808052
0.14746119048940784,-0.042430081343886365,0.035274333429135045
0.14796169098990836,-0.19065666060084438,-0.21714185645836515
0.14846219149040885,-0.3102871089966932,-0.45635543628882247
0.14896269199090933,-0.4099816284835595,-0.6345550559756338
0.14946319249140985,-0.4675448640190014,-0.7630952806013925
0.14996369299191034,-0.4719497660141025,-0.8117470813523767
0.15046419349241086,-0.43555906442034703,-0.7739077164679664
0.15096469399291135,-0.35514361343478085,-0.6767818929409585
0.15146519449341184,-0.24144451143656662,-0.49519195021474466
0.15196569499391235,-0.1072663946323562,-0.28416096857294804
0.15246619549441284,0.04273860736629491,-0.03036204751389372
0.15296669599491336,0.18460225345172773,0.2168556656804633
0.15346719649541385,0.313656922218503,0.45286502463072154
0.15396769699591434,0.40703567691463854,0.6376449737865363
0.15446819749641486,0.46105543438351776,0.7700189567521406
0.15496869799691534,0.47071851901116535,0.8100889967859701
0.15546919849741583,0.43351189628783693,0.7743908694533104
0.15596969899791635,0.35643332074992123,0.6753289382457919
0.15647019949841684,0.24643998353571864,0.5064503286997026
0.15697069999891736,0.1031075867723285,0.27589883874249277
0.15747120049941785,-0.04810655240727312,0.02389226012579823
0.15797170099991834,-0.19013816429434038,-0.21734536431357257
0.15847220150041885,-0.31758526290684586,-0.4587011112210051
0.15897270200091934,-0.40997850143930575,-0.6460188584471449
0.15947320250141986,-0.4709603243213555,-0.766231452679026
0.15997370300192035,-0.4750294515812934,-0.8062366909895642
0.16047420350242084,-0.4368799239937105,-0.7738410122091478
0.16097470400292135,-0.356490267182123,-0.6653612025341494
0.16147520450342184,-0.24226683926983258,-0.4955534742925542
0.16197570500392233,-0.0972939457253038,-0.2691282015021077
0.16247620550442285,0.0407447246943942,-0.023069971816567045
0.16297670600492334,0.1941032384090667,0.22948812270874847
0.16347720650542386,0.31870420243401554,0.45112222160853865
0.16397770700592434,0.4088575889294723,0.6471952982962956
0.16447820750642483,0.46931498535162464,0.7683075432566592
0.16497870800692535,0.47035505026830277,0.8092521623776209
0.16547920850742584,0.4321356007895336,0.7786522688453685
