Time,Vin,Vout
0.009323860405777018,0.0003657578151003145,0.0047998871922079155
0.009824360906277517,0.16063279416904852,0.09336813661996476
0.010324861406778017,0.30636652991912483,0.28120725336808206
0.010825361907278518,0.4192941704149548,0.4905855482683537
0.011325862407779018,0.49946039180882496,0.6516257532627403
0.011826362908279518,0.5194462398313966,0.7456631816388283
0.012326863408780017,0.4925731788491227,0.7546992966155139
0.012827363909280517,0.424364986146659,0.7076126045085428
0.013327864409781016,0.30558702299775425,0.5876128159891253
0.013828364910281518,0.1646917945374074,0.3968891603009223
0.014328865410782017,-0.006307161585717373,0.17578181044711821
0.014829365911282519,-0.15703541960327963,-0.05898467889561426
0.015329866411783018,-0.3165725000805713,-0.29854425449747324
0.015830366912283518,-0.42604272496312545,-0.49885434257548783
0.016330867412784018,-0.4886418583902743,-0.6452215787968326
0.016831367913284517,-0.5203707464200616,-0.7345210397561871
0.017331868413785017,-0.49361413141504407,-0.7478821242584998
0.017832368914285517,-0.42389523723519085,-0.7042211694148802
0.01833286941478602,-0.3055075204667408,-0.5778111308788215
0.018833369915286516,-0.1543189494939322,-0.39057086218772225
0.01933387041578702,0.0069411539746823845,-0.1835107354915531
0.019834370916287515,0.16033732948849905,0.05496419272642693
0.020334871416788018,0.3085018411305409,0.2931251128827722
0.020835371917288518,0.42164480294098644,0.4973858452040253
0.021335872417789017,0.4955437465121863,0.6492557987238596
0.021836372918289517,0.5182520683997863,0.7386640249521366
0.022336873418790017,0.49055755922439,0.7604268353553995
0.02283737391929052,0.4161501401129372,0.6940029231619945
0.023337874419791016,0.3052118759839471,0.5815284411034845
0.02383837492029152,0.15826357210703385,0.394493798873827
0.024338875420792015,-0.004549435873380111,0.17413276351382348
0.02483937592129252,-0.16623970516582523,-0.05805859280939503
0.025339876421793014,-0.3061736025045376,-0.2950592789880088
0.025840376922293518,-0.42723616188595703,-0.49052633137409585
0.02634087742279402,-0.4958135376835854,-0.6535490175170641
0.026841377923294517,-0.5217175803124755,-0.7442689276165153
0.02734187842379502,-0.49278989571852105,-0.7550759266348644
0.027842378924295516,-0.41748432858616585,-0.6935513929115967
0.02834287942479602,-0.30279263706210263,-0.5766600164083903
0.028843379925296515,-0.15123522785579668,-0.39321233708081416
0.02934388042579702,0.008237811897688905,-0.17365644280266207
0.029844380926297515,0.16667079534018367,0.06595049603468972
0.030344881426798018,0.31039044025018037,0.30235866967080716
0.03084538192729852,0.42161748080602324,0.4936457997655243
0.03134588242779902,0.49101158025928515,0.6584249602279894
0.03184638292829952,0.5216283306130153,0.7465134052588032
0.032346883428800016,0.4883856601257641,0.7567344041264883
0.03284738392930052,0.42473885745475404,0.7059765707677995
0.033347884429801015,0.29794867010388826,0.5650661875583988
0.03384838493030152,0.15620754511439572,0.38798741117280944
0.034348885430802015,-0.010392827470582086,0.17251234836393475
0.03484938593130252,-0.1678071284667085,-0.0705950517809265
0.03534988643180302,-0.3085275691437977,-0.28660599916315116
0.03585038693230352,-0.42392808047782704,-0.48613501697163597
0.03635088743280402,-0.49669303000030407,-0.6409232282683702
0.036851387933304516,-0.5219180131717286,-0.7470150165178565
0.03735188843380502,-0.4919760557292697,-0.7536104675539242
0.037852388934305516,-0.4168101295158341,-0.6988269590933897
0.03835288943480602,-0.2911760202430262,-0.564658469121305
0.038853389935306515,-0.150213060489848,-0.39114996079303743
0.03935389043580702,0.009417367412075486,-0.16095481774780013
0.03985439093630752,0.16765479778580084,0.06808157384596783
0.04035489143680802,0.3173842545264844,0.30579877294924385
0.04085539193730852,0.42672065650808233,0.500280298510505
0.041355892437809016,0.4927775816225602,0.6565336723504964
0.04185639293830952,0.522929029096029,0.7449300642273873
0.04235689343881002,0.48732507830053934,0.75272190563284
0.04285739393931052,0.4145053224573767,0.6887399868227424
0.04335789443981102,0.29323430027678676,0.5743421550884281
0.04385839494031152,0.15350147102408523,0.38414857519327866
0.04435889544081202,-0.008418926436733979,0.15918860764669573
0.04485939594131252,-0.17742205428160515,-0.06892932266150707
0.04535989644181302,-0.3108252760976702,-0.3042992624033643
0.04586039694231352,-0.43240928366118114,-0.5034270271995567
0.04636089744281402,-0.4976405175771278,-0.6619879313710915
0.04686139794331452,-0.5212603134185957,-0.744058917523708
0.04736189844381502,-0.49023898909611435,-0.7531196792219623
0.04786239894431552,-0.40891729906312835,-0.7014272470350482
0.04836289944481602,-0.2939878600220054,-0.5637500581269412
0.04886339994531652,-0.14572795066435898,-0.3687607332108954
0.04936390044581702,0.014106364246905128,-0.16203686732558564
0.04986440094631752,0.17061188577433106,0.07337401450039226
0.05036490144681802,0.31904544723981904,0.307851032260233
0.05086540194731852,0.42883592850927804,0.5110883477001944
0.051365902447819016,0.49962544486320276,0.6607778633839199
0.05186640294831952,0.5261930221917595,0.7461346484204531
0.05236690344882002,0.48821140286790626,0.7601570973226227
0.05286740394932052,0.41264751661705235,0.7040627194217356
0.05336790444982102,0.29448398647485785,0.5610526063004895
0.05386840495032152,0.14602238750660163,0.391324795367196
0.05436890545082202,-0.014720551622394914,0.16226515508665887
0.05486940595132252,-0.17750160343175064,-0.06886062129019702
0.05536990645182302,-0.3175134049851572,-0.3071206974721385
0.055870406952323516,-0.4297465074845793,-0.5066914192044127
0.05637090745282402,-0.4996386817910962,-0.659851837079012
0.05687140795332452,-0.5271255798509215,-0.7502011111636068
0.05737190845382502,-0.48772326644379,-0.7588740391785781
0.05787240895432552,-0.41173563747835445,-0.6940970050924015
0.05837290945482602,-0.2931925440308095,-0.5672785292935872
0.05887340995532652,-0.1468694642904513,-0.3788966948338033
0.05937391045582702,0.022580951752714917,-0.15864945204134343
0.05987441095632752,0.17351813230887791,0.07746506782325864
0.060374911456828016,0.32194097518748094,0.30884926534498003
0.06087541195732852,0.4325551799959681,0.5171529397754878
0.06137591245782902,0.500323154046496,0.6641253294159705
0.06187641295832952,0.523341664431068,0.7448231396959581
0.06237691345883002,0.49001154719995754,0.7509736739106272
0.06287741395933051,0.4136565823400456,0.6947288205255164
0.06337791445983101,0.29040170619704014,0.5690114785907365
0.06387841496033152,0.1468413593624015,0.3679579086498053
0.06437891546083202,-0.01701818711915525,0.1571169465105537
0.06487941596133251,-0.17201085778999617,-0.08383742174874705
0.06537991646183301,-0.3204591105461608,-0.3101884553678416
0.06588041696233352,-0.4367874994750389,-0.5154755710271831
0.06638091746283402,-0.49685572968055636,-0.6549882144232284
0.06688141796333452,-0.5176780017857477,-0.7482972546429943
0.06738191846383501,-0.4895818520471534,-0.7540490007800883
0.06788241896433551,-0.408826244904871,-0.6918785121189732
0.06838291946483602,-0.2890017329546521,-0.5624402354794642
0.06888341996533652,-0.14125477570261794,-0.3638927762486838
0.06938392046583701,0.01816826916495344,-0.15343177232467414
0.06988442096633751,0.17690613744140682,0.07908810660994811
0.07038492146683802,0.3211102047003932,0.3141754797543826
0.07088542196733852,0.43439709265753607,0.521546222393963
0.07138592246783902,0.5000386892476778,0.6658894873185026
0.07188642296833951,0.515998048162393,0.7397684306608667
0.07238692346884001,0.4908930484464138,0.7529628016742174
0.07288742396934052,0.4106099360538224,0.6965775492646492
0.073387924469841,0.29207149730488335,0.5599138572190822
0.07388842497034151,0.14496473327300602,0.3715136013135546
0.07438892547084201,-0.022409462667305795,0.15812129642050793
0.07488942597134252,-0.17800309874688225,-0.09437519588716589
0.07538992647184302,-0.32145123572110795,-0.3203438582300523
0.07589042697234351,-0.4333080355820512,-0.5199563807891883
0.07639092747284401,-0.5018016746070645,-0.6585510239415894
0.07689142797334451,-0.5220080554812513,-0.7369856371872398
0.07739192847384502,-0.49133801697433116,-0.7584071453480831
0.0778924289743455,-0.40693798931021746,-0.7060744923716098
0.07839292947484601,-0.2891334326823076,-0.5612257810580625
0.07889342997534651,-0.14036380811754381,-0.3738867998638415
0.07939393047584702,0.02060292770777106,-0.14776604573434393
0.07989443097634752,0.1846386340843119,0.09214418241997334
0.08039493147684801,0.3272355946769502,0.3135457331227775
0.08089543197734851,0.43629639262660724,0.5149966467765031
0.08139593247784901,0.5048509109425673,0.6591855735589152
0.08189643297834952,0.5177186290908649,0.7523796094934777
0.08239693347885,0.48792829487321787,0.747677317538017
0.08289743397935051,0.4068156166257224,0.6907034314318562
0.08339793447985101,0.28581811481442987,0.5515054156815352
0.08389843498035152,0.14046844562023597,0.37113284824109016
0.08439893548085202,-0.026694010486550557,0.15689881693953545
0.08489943598135251,-0.18693726096756372,-0.09176274124401611
0.08539993648185301,-0.32527678663255555,-0.32488398453133355
0.08590043698235351,-0.4380901157172073,-0.5197081489863172
0.08640093748285402,-0.4985464141325419,-0.6636141231087339
0.08690143798335451,-0.5242059663341267,-0.7486903213759994
0.08740193848385501,-0.4866042325119524,-0.7597154723369307
0.08790243898435551,-0.40396905678402445,-0.6888113644977644
0.08840293948485602,-0.28635426521861324,-0.5540292074365523
0.08890343998535652,-0.12815294127901888,-0.36293547914853963
0.08940394048585701,0.02333549792881237,-0.14756517936067612
0.08990444098635751,0.18414626408429355,0.09811690047559467
0.09040494148685801,0.32892931057784097,0.3223642624338462
0.09090544198735852,0.43629294064274343,0.5236357078714068
0.09140594248785901,0.5018243034139415,0.6576439680111026
0.09190644298835951,0.5187814279162022,0.7430927398609666
0.09240694348886001,0.4822128740346994,0.7586200170038292
0.09290744398936052,0.40122313547703875,0.688058940414341
0.093407944489861,0.2865199336336022,0.5510084865235793
0.09390844499036151,0.1360394182854761,0.3734921888571625
0.09440894549086201,-0.023318123653437016,0.13447665095348216
0.09490944599136251,-0.18488727546040315,-0.08923365416639868
0.09540994649186302,-0.3271120709078444,-0.3236762522167488
0.09591044699236351,-0.43755812112319453,-0.5177415950349914
0.09641094749286401,-0.4997753437076452,-0.6670529266493788
0.09691144799336451,-0.5204182703701992,-0.7496615331840076
0.09741194849386502,-0.488841297106519,-0.7550090712636613
0.0979124489943655,-0.407458497647424,-0.6825117623039774
0.0984129494948661,-0.2841485088041375,-0.5581940058414913
0.09891344999536651,-0.13762374213484396,-0.36362742902308115
0.09941395049586702,0.03119387260666771,-0.14952534793188846
0.09991445099636752,0.19059330320984527,0.1071156528479813
0.10041495149686801,0.3298703441327975,0.3308099322294254
0.10091545199736861,0.4418275257033753,0.5364832100698805
0.10141595249786911,0.5028460532678277,0.6735368717474222
0.10191645299836952,0.512687990405747,0.7348371862345305
0.10241695349887,0.48340759225211505,0.7540876662803023
0.1029174539993706,0.4030662856216503,0.6821844479880211
0.10341795449987111,0.28219449402486907,0.5474919567271798
0.10391845500037161,0.13085681283502562,0.35724645502197694
0.10441895550087202,-0.03464792054106885,0.1440879794003499
0.10491945600137251,-0.19103997214513418,-0.10057825861326404
0.10541995650187311,-0.3279080432951006,-0.3257632419935242
0.10592045700237361,-0.43587035400819757,-0.5296721093000661
0.10642095750287411,-0.49836391674206476,-0.6729387865545122
0.1069214580033745,-0.5200820341355058,-0.7471117397233703
0.1074219585038751,-0.48668889125826015,-0.7452154061145944
0.10792245900437561,-0.4077322477796851,-0.6914819613695455
0.10842295950487611,-0.2775749796581302,-0.5528356883230355
0.10892346000537662,-0.13004024979828024,-0.3508557695148715
0.10942396050587701,0.03573704687709139,-0.12433328873199245
0.10992446100637761,0.19703379836247567,0.10372541230782698
0.11042496150687811,0.33517708821522096,0.3379570423490194
0.11092546200737861,0.438335055049319,0.5170285417104175
0.11142596250787912,0.5004696288979572,0.6781694139398388
0.1119264630083796,0.5201247459374435,0.7432191535491172
0.11242696350888011,0.48607422502393965,0.759584526231137
0.11292746400938061,0.3978208602178842,0.6926072665025469
0.11342796450988112,0.2809176811556907,0.5458103236378316
0.11392846501038162,0.12888330462326186,0.3505459892265882
0.11442896551088211,-0.03343919295086793,0.13169458777169965
0.11492946601138261,-0.19533903699119698,-0.10192776778165924
0.11542996651188311,-0.3261385478105204,-0.33722099219636376
0.11593046701238362,-0.44427937553814006,-0.5245133203932296
0.1164309675128841,-0.4979926660572838,-0.6694203395605935
0.11693146801338461,-0.5115271552920047,-0.7465227149144
0.11743196851388511,-0.4841043187132189,-0.7584443556569201
0.11793246901438562,-0.39630864748506756,-0.68464508788357
0.11843296951488612,-0.28068388400244065,-0.5439300134889787
0.11893347001538661,-0.1280779720625695,-0.3640278968951571
0.11943397051588711,0.03680487787069218,-0.1267064417240559
0.11993447101638761,0.2018933204453365,0.10813523759450007
0.12043497151688812,0.33671978775438605,0.34123101077725115
0.1209354720173886,0.4476736687917837,0.5321472447037147
0.12143597251788911,0.5084899219013197,0.6815212531588066
0.12193647301838961,0.5159442560025911,0.7471616213850504
0.12243697351889012,0.4820101764961904,0.7503081060890521
0.12293747401939062,0.3988322068753547,0.6884419438170016
0.12343797451989111,0.278362164581379,0.5429606217314102
0.12393847502039161,0.12341556845290101,0.3480637566317738
0.12443897552089211,-0.03701086747585094,0.12291752979224678
0.12493947602139262,-0.1961148252616843,-0.1036368452791421
0.12543997652189312,-0.331616467891686,-0.3390242384575347
0.1259404770223936,-0.44052225754577334,-0.5317860617707985
0.12644097752289413,-0.509284714703252,-0.6697114056912539
0.12694147802339462,-0.5165784271849411,-0.7475268064943591
0.12744197852389513,-0.4872724360649824,-0.7496117726123738
0.12794247902439562,-0.39872888386623556,-0.6822240996897923
0.1284429795248961,-0.2720006954630713,-0.5360520733822938
0.12894348002539663,-0.12032960659727843,-0.34973356548352263
0.12944398052589712,0.039891927693237295,-0.120066293696979
0.1299444810263976,0.2022819195054677,0.1139274939703818
0.13044498152689812,0.34111542740482653,0.3408882108751452
0.1309454820273986,0.4418831803962371,0.5373402265646573
0.13144598252789913,0.5016192357598672,0.6766879126886032
0.13194648302839962,0.5184501448922968,0.7548931365599872
0.1324469835289001,0.47794878862259765,0.7516093539247041
0.13294748402940063,0.39490870268904493,0.6843893872942275
0.13344798452990111,0.27607701945740193,0.536116718808702
0.13394848503040163,0.12304628616988737,0.34298754353083233
0.13444898553090212,-0.04548564117412399,0.12054417081910403
0.1349494860314026,-0.20441306228005662,-0.11930738778772436
0.1354499865319031,-0.3357650111080561,-0.3428174514124096
0.13595048703240362,-0.4479016807931735,-0.5307512566431053
0.1364509875329041,-0.5014856482922079,-0.6799324127301895
0.13695148803340462,-0.5160287616867362,-0.7547681962653922
0.1374519885339051,-0.47699539538861424,-0.7426804408529138
0.1379524890344056,-0.39574380773022055,-0.6770549200976197
0.13845298953490612,-0.2688111560533097,-0.5336651302029054
0.1389534900354066,-0.11322103214461778,-0.3459314853758252
0.13945399053590712,0.04159135616878382,-0.11185854153811935
0.1399544910364076,0.20387873973061119,0.11581558656211687
0.1404549915369081,0.3386083855306119,0.3472692118496267
0.14095549203740862,0.4469756757601693,0.5419199625325363
0.1414559925379091,0.5095477786964336,0.6866854256239503
0.14195649303840963,0.5223801166400098,0.7488307234130086
0.14245699353891011,0.48083510723615075,0.7434272668838475
0.1429574940394106,0.3922096691409888,0.6835172061228761
0.14345799453991112,0.2672386361038523,0.5441436382863919
0.1439584950404116,0.11836890043692865,0.3426929147137775
0.1444589955409121,-0.04658970285433918,0.11804450935052524
0.14495949604141262,-0.2037099779507983,-0.11106867622434474
0.1454599965419131,-0.34103472159901743,-0.34746990753203727
0.14596049704241362,-0.4455391293797929,-0.5315846170846809
0.1464609975429141,-0.5083972354563749,-0.674459534531418
0.1469614980434146,-0.5186100093074273,-0.7461468358697962
0.14746199854391512,-0.4772012920261837,-0.750943946806033
0.1479624990444156,-0.39210616866503695,-0.6848330577971808
0.14846299954491612,-0.2645873108333758,-0.5396815370953689
0.1489635000454166,-0.1218786328412502,-0.33724804857454943
0.1494640005459171,0.039935382847742375,-0.11340070452440315
0.14996450104641762,0.20718408156106494,0.12675144157990365
0.1504650015469181,0.3369345148381172,0.34707001766415657
0.15096550204741863,0.44134816363158447,0.5437644328161698
0.15146600254791912,0.5033792436530957,0.6801875807120991
0.1519665030484196,0.5160520422855643,0.7448872439708744
0.15246700354892012,0.47964473076250175,0.7522121589249776
0.1529675040494206,0.3928869655322061,0.6715337569853783
0.1534680045499211,0.2622031689599139,0.5359813585727272
0.15396850505042162,0.11935995126178175,0.335341546051076
0.1544690055509221,-0.045739264426299,0.10921692262948797
0.15496950605142262,-0.21219445709353282,-0.13098091755842858
0.1554700065519231,-0.345816438820852,-0.34473524048285803
0.1559705070524236,-0.4403694349824117,-0.5414797861673697
0.15647100755292412,-0.5055113163590806,-0.6787885900175129
0.1569715080534246,-0.5176523873638328,-0.7580960145013277
0.15747200855392512,-0.4836523210278733,-0.7492253909461604
0.1579725090544256,-0.3913140800261582,-0.6811790655237778
0.1584730095549261,-0.2653948432759963,-0.5287677507280337
0.15897351005542662,-0.1145318049268593,-0.33742107300563945
0.1594740105559271,0.046821279566200594,-0.10849164857972918
0.15997451105642763,0.20536103935699307,0.12522231553119806
0.16047501155692812,0.34344663387905344,0.3491210301330263
0.1609755120574286,0.4500677233810245,0.5549819436614731
0.16147601255792912,0.505938712372404,0.6770501290953405
0.1619765130584296,0.5194315730008576,0.7441293499726117
0.1624770135589301,0.4761397212606574,0.7500894315168631
0.16297751405943062,0.3918173502006792,0.671266059583085
0.1634780145599311,0.2626848228118975,0.5310712306897086
0.16397851506043162,0.11189946388311167,0.3354773540392723
0.1644790155609321,-0.04894327203996828,0.11198508243554366
0.1649795160614326,-0.21312883462761004,-0.1332324807842787
0.16548001656193312,-0.33901259636133313,-0.3474435709405545
0.1659805170624336,-0.44452891392472754,-0.5554552666586832
0.16648101756293412,-0.5089548439733665,-0.6813173547996828
0.16698151806343461,-0.515826155983665,-0.7457409364508613
0.1674820185639351,-0.4803552671453654,-0.7498449090961855
0.16798251906443562,-0.3837793329757032,-0.6700328956956374
0.1684830195649361,-0.2630806354738195,-0.5185720648120054
0.1689835200654366,-0.10671507867014979,-0.33220498164963896
0.16948402056593712,0.04946350334096284,-0.09464001151650031
0.1699845210664376,0.20985576797006686,0.13090647759812646
0.17048502156693812,0.34848577018609495,0.35102538356245433
0.1709855220674386,0.45304967913113153,0.5429152138506591
0.1714860225679391,0.5075444720770721,0.6848850309204924
0.17198652306843962,0.5087111321121991,0.7497830086226458
0.1724870235689401,0.47554123225427614,0.7573352730719158
0.17298752406944062,0.38682863553597063,0.6689362804411748
0.1734880245699411,0.26124964636885034,0.5275050546358436
