Time,Vin,Vout
-0.006862624434371183,0.0032691501504440927,-0.00701568848972724
-0.006362123933870683,0.15114488864731443,0.1414704485289899
-0.0058616234333701825,0.2860943526150037,0.38541332073797885
-0.005361122932869683,0.3957443843962255,0.5912687999779602
-0.004860622432369182,0.45893239980335865,0.7333153794784375
-0.004360121931868683,0.4756202101362531,0.8091681638916169
-0.0038596214313681826,0.4546081627530755,0.800118214634061
-0.0033591209308676826,0.3891491168320434,0.7136343980444678
-0.002858620430367183,0.2800675781664794,0.5608351851476188
-0.0023581199298666825,0.1446483885493482,0.350284758466669
-0.0018576194293661828,-0.007264520215233961,0.09801619898088593
-0.0013571189288656823,-0.15040149434813074,-0.1546483365901793
-0.0008566184283651827,-0.2831053561308548,-0.37781465373570516
-0.0003561179278646822,-0.39612350071777375,-0.591892266167585
0.00014438257263581743,-0.4597135726697355,-0.7327624319429419
0.0006448830731363171,-0.4843349373269714,-0.8105836407142615
0.0011453835736368167,-0.45843290421032984,-0.800499005161991
0.001645884074137318,-0.39205058760534844,-0.7132304525459044
0.0021463845746378177,-0.28234722926031103,-0.5496763574907054
0.0026468850751383173,-0.1440409266328625,-0.34301824587869306
0.003147385575638817,0.0031536971368634264,-0.10060552848737384
0.0036478860761393166,0.15313206341295815,0.14915775042960297
0.004148386576639818,0.2863530044599146,0.39154910577133534
0.0046488870771403176,0.3868905873429039,0.5928606004691266
0.005149387577640817,0.45614539158529827,0.7327601717388641
0.005649888078141317,0.4844573386189663,0.8107507945468223
0.006150388578641818,0.4547652979183915,0.7945463262810217
0.006650889079142318,0.3850194055761656,0.7136369202506848
0.0071513895796428174,0.27779123295685615,0.552753724313193
0.007651890080143317,0.14821320787144845,0.34527389068851255
0.008152390580643817,-0.0032228591522018395,0.095498280725825
0.008652891081144318,-0.15041732233644475,-0.14216559606098703
0.009153391581644816,-0.2852450424862495,-0.3890554089224375
0.009653892082145319,-0.3982375054157342,-0.5852899530395326
0.010154392582645819,-0.45766439421389005,-0.734101300885731
0.010654893083146318,-0.47867880156598347,-0.8011735495593176
0.011155393583646818,-0.4571992678716553,-0.8038762526591373
0.011655894084147318,-0.3869171744323434,-0.7119151993352799
0.012156394584647817,-0.27699177588897517,-0.5573590086439604
0.012656895085148317,-0.14374932688309386,-0.34799872842697466
0.013157395585648816,0.0075905682542472845,-0.07663228363645562
0.013657896086149316,0.155703270511194,0.15549463487480178
0.014158396586649816,0.28998618787113606,0.39531634782450087
0.014658897087150319,0.3983685057797825,0.5981845307997378
0.015159397587650818,0.4628541300508227,0.7452565642610587
0.015659898088151318,0.48291176290942806,0.8115919352621582
0.016160398588651818,0.45144283057498247,0.7970750307316588
0.016660899089152317,0.3854794725095538,0.7103930205308688
0.017161399589652817,0.2798242759112964,0.5584357187225283
0.017661900090153317,0.13542144896439282,0.3393675668345501
0.018162400590653816,-0.0037925881450616037,0.08064647225043162
0.018662901091154316,-0.15911439102011926,-0.15220848643978263
0.01916340159165482,-0.2891779555158718,-0.37976373325768015
0.01966390209215532,-0.39661438291816364,-0.60469556015915
0.020164402592655818,-0.45342558621328843,-0.7458544371692732
0.020664903093156318,-0.47897633437435266,-0.8108292755369109
0.021165403593656817,-0.4553060117666956,-0.7970754915220507
0.021665904094157317,-0.382971963964954,-0.7037301492984238
0.022166404594657817,-0.27615075763643704,-0.5493736720687346
0.022666905095158316,-0.14054255039553012,-0.33399562240271224
0.023167405595658816,0.009156820102662189,-0.0952529689904116
0.02366790609615932,0.15875202533338706,0.16723250476018034
0.02416840659665982,0.291937632400428,0.40920173934256054
0.02466890709716032,0.3936029288005057,0.6060736677734696
0.025169407597660814,0.4605983254985042,0.7341351755786055
0.025669908098161318,0.48180152582050734,0.8096489355721986
0.02617040859866182,0.45139224354525664,0.7919705551919832
0.026670909099162317,0.38404501519675244,0.7005132652833078
0.02717140959966282,0.27324564679552615,0.5467175990807703
0.027671910100163316,0.135498557926948,0.3360603548813098
0.02817241060066382,-0.00635952173417609,0.08023131025404157
0.028672911101164315,-0.15833896879236206,-0.17297769327871534
0.02917341160166482,-0.2924034738049201,-0.40825291291502075
0.029673912102165315,-0.4003176620571859,-0.6060423278938055
0.030174412602665818,-0.45978770250665546,-0.7296472413420402
0.03067491310316632,-0.4784643768568562,-0.814167789576505
0.031175413603666817,-0.454500195498647,-0.7985563643727763
0.03167591410416732,-0.38006174577788704,-0.7030095072250602
0.032176414604667816,-0.2752006691981375,-0.5358911435758961
0.03267691510516832,-0.13840761169494598,-0.3401141434698611
0.033177415605668815,0.011956184998815924,-0.08804288909333606
0.03367791610616932,0.15963545189792155,0.16595510843187808
0.034178416606669815,0.29727468946475744,0.4088992559543062
0.03467891710717032,0.3938481375604245,0.5967644504154775
0.035179417607670814,0.4615196953263913,0.7422242301580326
0.03567991810817132,0.48462245940457815,0.8083973548080378
0.03618041860867182,0.4428385607659861,0.8007603812746342
0.036680919109172316,0.38306733582537456,0.7046049150225456
0.03718141960967282,0.27096100887395674,0.5469592793416149
0.037681920110173316,0.13429316309290018,0.33448173867672015
0.03818242061067382,-0.014662111201023367,0.07563373923132734
0.038682921111174315,-0.16486886532338613,-0.1719682692831787
0.03918342161167482,-0.29121374189179505,-0.4059373081004976
0.039683922112175314,-0.40147302278214125,-0.6148982328720346
0.04018442261267582,-0.4617497434312485,-0.731886395486868
0.04068492311317632,-0.4800244749224133,-0.8034561131817403
0.041185423613676816,-0.4507018378073487,-0.8053801792907134
0.04168592411417732,-0.38190296444398597,-0.6958456068907811
0.042186424614677816,-0.2652215637549897,-0.5444340964628851
0.04268692511517832,-0.13583580653449984,-0.32430325530263204
0.043187425615678815,0.013128399631970098,-0.08572270595238188
0.04368792611617932,0.16268626243350776,0.17489405622910364
0.044188426616679814,0.29592309426508034,0.41647530013479667
0.04468892711718032,0.4031490197384278,0.6086515762034652
0.04518942761768082,0.4595857845662242,0.7361972313537645
0.04568992811818132,0.4901419811063073,0.8081217618240043
0.04619042861868182,0.448116045965119,0.7942376699361783
0.046690929119182316,0.375604694172771,0.7029750714850124
0.04719142961968282,0.27292385851721995,0.536307456587589
0.047691930120183315,0.1342950654687876,0.3254443154365327
0.04819243062068382,-0.019625517517120203,0.0799878573407993
0.048692931121184314,-0.16473518775295418,-0.17692594569276335
0.04919343162168482,-0.29676078167427355,-0.41080436116494556
0.04969393212218532,-0.4050884635594259,-0.6022081240912137
0.05019443262268582,-0.46790531515095435,-0.7493881444369189
0.05069493312318632,-0.47973973294511374,-0.812126553815898
0.051195433623686816,-0.4549602536407344,-0.7942975001764864
0.05169593412418732,-0.3831200783270568,-0.6956690971507908
0.052196434624687815,-0.26986820424229907,-0.5431205093351654
0.05269693512518832,-0.1338974154152494,-0.31997930072585984
0.053197435625688815,0.012963823686449605,-0.07998068533369808
0.05369793612618932,0.17072884923548323,0.1786815861366061
0.05419843662668982,0.2956830686317659,0.4167819818628981
0.05469893712719032,0.4040796776529922,0.6256028643500725
0.05519943762769082,0.46599036273913663,0.7460897837445291
0.055699938128191316,0.48050996847886757,0.8187742602017368
0.05620043862869182,0.45535740653980367,0.7981672730428854
0.05670093912919232,0.3791062496236806,0.6939065452962481
0.05720143962969281,0.2610677276634197,0.5389419969868939
0.057701940130193315,0.1326557185178591,0.3260130188653659
0.05820244063069382,-0.02195619994960477,0.07972140984982666
0.05870294113119432,-0.16741667912356323,-0.1829913150353107
0.059203441631694824,-0.295375155224359,-0.4190296343897853
0.05970394213219531,-0.3928523404054475,-0.6188086690164646
0.060204442632695816,-0.4669080789323817,-0.7583853671937405
0.06070494313319632,-0.48630357288485326,-0.813273771610037
0.06120544363369682,-0.45205061291546444,-0.786938775287796
0.06170594413419731,-0.3724945541010964,-0.6983223170434848
0.062206444634697815,-0.2637873180254245,-0.5343325159294197
0.06270694513519831,-0.1309870803746815,-0.31791067237469867
0.06320744563569883,0.020309815988550056,-0.07262410954782682
0.06370794613619932,0.16903691165631696,0.18760875575455765
0.0642084466366998,0.3004303059208529,0.42830219387878876
0.06470894713720032,0.4002160742206788,0.6204135145478097
0.06520944763770081,0.4660554835457041,0.7535377456911995
0.06570994813820133,0.4815788589792175,0.8104756992641484
0.06621044863870182,0.45773571792024104,0.786503034393448
0.06671094913920231,0.3766457877466638,0.6885685782085713
0.06721144963970282,0.2621786787813757,0.532003579464398
0.06771195014020331,0.1303897054370587,0.3164659645266054
0.06821245064070383,-0.018185061378732076,0.06853917532119938
0.06871295114120432,-0.1729403565743132,-0.1835556434696145
0.06921345164170481,-0.29802930113105663,-0.42711453319410553
0.06971395214220533,-0.4036196681141166,-0.6094518900792204
0.07021445264270582,-0.46394682275503846,-0.7540383704376535
0.0707149531432063,-0.4747897726499122,-0.8080133953689865
0.07121545364370682,-0.45067474873315594,-0.7859886279490746
0.07171595414420731,-0.3755071472418705,-0.6964475754966343
0.07221645464470783,-0.26412051414048027,-0.5287102243730109
0.07271695514520832,-0.12622631930373338,-0.3106605447889134
0.0732174556457088,0.02502215773193094,-0.0504240568635874
0.07371795614620932,0.16829882872791413,0.19071720024348188
0.07421845664670981,0.2989091328883782,0.4222064939155207
0.07471895714721033,0.4048974365373889,0.6224843513596848
0.07521945764771082,0.46443658637230345,0.7472785155351866
0.07571995814821131,0.475511787009864,0.808134233868652
0.07622045864871183,0.4559178712290029,0.7962560032108585
0.07672095914921231,0.37083460279350083,0.693721586245202
0.0772214596497128,0.26569364966446923,0.5219991550386305
0.07772196015021332,0.12418284417856904,0.3178985885962627
0.07822246065071381,-0.020349469252491693,0.055178259412530066
0.07872296115121433,-0.1710952540425007,-0.18144123240933732
0.07922346165171482,-0.30247543527949483,-0.4214157656964549
0.0797239621522153,-0.39987755979013767,-0.6200115880637027
0.08022446265271582,-0.4697723794297238,-0.7447144841705585
0.08072496315321631,-0.4697649846953854,-0.8184161739107036
0.08122546365371683,-0.450194732160655,-0.797539265237582
0.08172596415421732,-0.37655515624691993,-0.6851858383870603
0.08222646465471792,-0.2605318825427041,-0.5314627836413303
0.08272696515521832,-0.11968218714724965,-0.2990997046860261
0.08322746565571881,0.03190221308578316,-0.06966570520960691
0.08372796615621933,0.17355597875617235,0.19672652268031193
0.08422846665671982,0.30743484191782366,0.4220398894052548
0.08472896715722042,0.40594560446362954,0.6293106011756129
0.08522946765772091,0.46434377362145507,0.7548687695508212
0.08572996815822131,0.47976962643131416,0.8052496928978866
0.0862304686587218,0.4450701595232018,0.7997723832409719
0.0867309691592224,0.3673934195724334,0.6863663914218144
0.08723146965972292,0.261055902461781,0.5295435662605104
0.08773197016022341,0.11574615507893049,0.29723450599239254
0.08823247066072382,-0.02656401482709826,0.06741053978055707
0.0887329711612243,-0.17544565646524973,-0.19257391997395945
0.0892334716617249,-0.3051092119749573,-0.4389084615145884
0.08973397216222542,-0.4095992690698034,-0.6237071833938329
0.09023447266272591,-0.46223748680607957,-0.7518940139931378
0.09073497316322632,-0.47467629263714395,-0.7993040426224771
0.09123547366372692,-0.45152870702622555,-0.7924717227513371
0.09173597416422741,-0.37083507253048154,-0.6897122791863178
0.09223647466472792,-0.2590757018586406,-0.5156805571411778
0.09273697516522841,-0.12191851911530932,-0.30838328978454094
0.09323747566572882,0.028584242139731316,-0.059018536119167755
0.09373797616622942,0.17571176792080692,0.20282702768832359
0.09423847666672991,0.30783701580097944,0.43289515841242265
0.09473897716723043,0.40532200416479425,0.6250111113876472
0.09523947766773092,0.46524230392794447,0.7550302585549736
0.0957399781682314,0.4779348474637959,0.812432006740036
0.09624047866873192,0.4455478908646023,0.7922121898028539
0.09674097916923241,0.3707189670763418,0.6807314375401535
0.09724147966973293,0.25731093044216125,0.5258410797748917
0.09774198017023342,0.11822221515795715,0.30049145445850267
0.0982424806707339,-0.03238735987646206,0.06137152152843626
0.09874298117123442,-0.18146282855555398,-0.2068639788211494
0.09924348167173491,-0.304740984691791,-0.4334915445963882
0.09974398217223543,-0.4053036480914641,-0.6239643553426927
0.10024448267273592,-0.46398520238200514,-0.7564309106626775
0.10074498317323641,-0.4787134436542486,-0.8266673214727751
0.10124548367373692,-0.44560940876730837,-0.788332084158526
0.10174598417423741,-0.3742724092275929,-0.6852115796597419
0.10224648467473793,-0.25237762374003225,-0.5179932712812668
0.10274698517523842,-0.11281616591566962,-0.3025867617500391
0.10324748567573891,0.036123336253036466,-0.05050712349555987
0.10374798617623943,0.18064416450290377,0.19673931669607161
0.10424848667673992,0.31051665565885334,0.44675954979127064
0.1047489871772404,0.4078489453210037,0.6294121648654394
0.10524948767774092,0.46972647554111335,0.7650873977835994
0.10574998817824141,0.4859203004458348,0.8168106224913992
0.10625048867874193,0.44751193334526623,0.7902417716564086
0.10675098917924242,0.3694124975839565,0.6854642356118426
0.1072514896797429,0.2550529258891489,0.5148799299451565
0.10775199018024342,0.11309353493705684,0.30334761818540185
0.10825249068074391,-0.033792433499007325,0.0490289467724527
0.10875299118124443,-0.18435040103965733,-0.19918761934077694
0.10925349168174492,-0.31109869734094936,-0.4397006894301035
0.10975399218224541,-0.4065703871044694,-0.6229422826916835
0.11025449268274592,-0.47143608716710095,-0.7559836196824448
0.11075499318324641,-0.48126463847728007,-0.8027619790058012
0.11125549368374693,-0.4513758272446753,-0.7965879355198132
0.11175599418424742,-0.3666374821571858,-0.6909512146047224
0.11225649468474791,-0.2620842175557715,-0.5111544621961837
0.11275699518524843,-0.11042413731928957,-0.2946217547684607
0.11325749568574892,0.03983602873713667,-0.042025096795010694
0.1137579961862494,0.1779244874247032,0.2025812163311237
0.11425849668674992,0.31142907331292674,0.431644370158112
0.11475899718725041,0.41136612500534264,0.6329688894188955
0.11525949768775093,0.46990914257887717,0.7631224875402304
0.11575999818825142,0.47756199759778345,0.8124970076274507
0.1162604986887519,0.4493514857460154,0.7850945681732889
0.11676099918925242,0.3676548224609103,0.68968848508618
0.11726149968975291,0.25347672382861514,0.5178850183120512
0.11776200019025343,0.11341205592976214,0.29730721420769285
0.11826250069075392,-0.03126204096804825,0.04138024303035485
0.11876300119125441,-0.18511729637191185,-0.21082483397678298
0.1192635016917549,-0.3121396036607441,-0.4329250882712854
0.11976400219225541,-0.4090020035873342,-0.6393188827211209
0.1202645026927559,-0.4693439883124466,-0.757429870353216
0.12076500319325642,-0.47898147128348945,-0.8198875366269638
0.12126550369375691,-0.4493840216217645,-0.7905138213332826
0.1217660041942574,-0.36408184875708455,-0.6801972087245715
0.12226650469475792,-0.2507856097454098,-0.5075287391397578
0.1227670051952584,-0.10729011940912776,-0.3002765922097864
0.12326750569575892,0.041735954952548254,-0.04429571705006244
0.12376800619625941,0.18796520630796787,0.21393745662692334
0.1242685066967599,0.30891447002438605,0.448921664107132
0.12476900719726042,0.41272168049706764,0.6242552419752305
0.1252695076977609,0.4724458736183513,0.7573526152334523
0.12577000819826142,0.483680375651697,0.8080044822644971
0.1262705086987619,0.4450472398493727,0.7828583082818863
0.1267710091992624,0.36383839734735335,0.6847603614877766
0.12727150969976292,0.25030420392570224,0.5036301630863947
0.1277720102002634,0.10834455638443291,0.2901189044034427
0.1282725107007639,-0.0440397994851943,0.03826993041584268
0.12877301120126441,-0.19058665628873067,-0.2080398791891498
0.1292735117017649,-0.31620207911460596,-0.4441664574778995
0.12977401220226542,-0.4062369741487005,-0.6291526716207586
0.1302745127027659,-0.4714807373558833,-0.7610482747924419
0.1307750132032664,-0.4825743269305004,-0.8103818864653154
0.13127551370376692,-0.4375202425836997,-0.78832670480755
0.1317760142042674,-0.36144621459051923,-0.6777005192990946
0.13227651470476792,-0.24870975116781216,-0.5035657266966942
0.1327770152052684,-0.11064949148617083,-0.2932934332203172
0.1332775157057689,0.038803474896811616,-0.03702128130000058
0.13377801620626942,0.18801010001169852,0.22306102825488308
0.1342785167067699,0.31663160474627083,0.44645882334413023
0.13477901720727042,0.4132084347430508,0.636752679053893
0.1352795177077709,0.47457027661869533,0.7575659431253321
0.1357800182082714,0.4805313418964908,0.8096578016951886
0.13628051870877192,0.4407140262034387,0.7897728621532949
0.1367810192092724,0.3631535880977542,0.672081946989703
0.1372815197097729,0.24878611143849302,0.5101503313921117
0.13778202021027341,0.10440277846265965,0.28278830853485654
0.1382825207107739,-0.04330116826009617,0.036439561653607844
0.13878302121127442,-0.19128939839823025,-0.2191840484859131
0.1392835217117749,-0.3192275992740515,-0.45311018944203973
0.1397840222122754,-0.41073846195997277,-0.6404552252341502
0.14028452271277592,-0.46992455724217186,-0.7703119118612033
0.1407850232132764,-0.47521475688182774,-0.8071517934447098
0.14128552371377692,-0.4432815645814175,-0.7755594118744473
0.1417860242142774,-0.36560263508693297,-0.6722095642914268
0.1422865247147779,-0.24440775882739685,-0.5002734422502793
0.14278702521527842,-0.099656197078823,-0.27509383195554094
0.1432875257157789,0.042978219741213367,-0.03266208817140673
0.14378802621627942,0.19127559944847408,0.22377658026380381
0.1442885267167799,0.31466085328565346,0.4538705250186865
0.1447890272172804,0.4158433579317423,0.6365402864517485
0.14528952771778092,0.46963156847936927,0.7682137321315933
0.1457900282182814,0.48135096511241476,0.8141337172879437
0.1462905287187819,0.4368579641440698,0.785205618366215
0.14679102921928242,0.36335098627870865,0.6776910896015945
0.1472915297197829,0.247236367374771,0.5010981310534374
0.14779203022028342,0.10100841137415348,0.28100756533670124
0.1482925307207839,-0.04682702404512505,0.02856939474098682
0.1487930312212844,-0.19007391469396498,-0.2108180153297791
0.14929353172178492,-0.3199049752200094,-0.44775016390542477
0.1497940322222854,-0.41181600424156517,-0.6414252215614837
0.15029453272278592,-0.4760566374716326,-0.7731189403704315
0.1507950332232864,-0.47767679604434393,-0.8023314468902234
0.1512955337237869,-0.4389660453006591,-0.7754196200061325
0.15179603422428742,-0.35841073233703663,-0.6699237787437097
0.1522965347247879,-0.23799154142121712,-0.49249860068808804
0.1527970352252884,-0.10710844211122461,-0.28694188581994834
0.1532975357257889,0.046540990626473294,-0.01464404513995222
0.1537980362262894,0.19049315100680267,0.21943653281294354
0.15429853672678992,0.31924284711799455,0.45796760885965404
0.1547990372272904,0.41337070493552924,0.6441715107196707
0.1552995377277909,0.47509714720117613,0.7646773559315941
0.15580003822829142,0.4770058978107895,0.8089552655678589
0.1563005387287919,0.43944516865648453,0.7769551610831293
