Time,Vin,Vout
-0.0019747331128752,0.00226569690709139,0.007145794489716705
-0.0019246830628251498,0.014359246965862162,0.0029626488795219614
-0.0018746330127750999,0.030186280217518936,0.0018456110585520498
-0.0018245829627250999,0.04276752943179537,0.009375363423668343
-0.001774532912675,0.06150521901448686,0.011677230426515427
-0.001724482862625,0.07859121609899324,0.016280505322193405
-0.0016744328125748997,0.09358889268893181,0.03189538708662876
-0.0016243827625248997,0.10289361868708473,0.03942803908563254
-0.0015743327124748,0.1192610425297079,0.05593798797010323
-0.0015242826624248,0.13450929343984225,0.08055909817090016
-0.0014742326123746998,0.15427550010488728,0.09473120763203025
-0.0014241825623246998,0.16166768730352166,0.12100656239704778
-0.0013741325122745998,0.17761708254527162,0.14277087029939195
-0.0013240824622245998,0.1972131306614431,0.15627657775599824
-0.0012740324121744999,0.20731271760240405,0.17626199328263245
-0.0012239823621244999,0.21610486847396124,0.20203754746421124
-0.0011739323120743999,0.23813270014964164,0.22650542550565406
-0.0011238822620243999,0.24598173900093642,0.26863439884394974
-0.0010738322119743,0.2629853443622087,0.2820883266394554
-0.0010237821619243,0.2682423428622836,0.3115213704234143
-0.0009737321118742,0.28647827789476815,0.32257050631899004
-0.0009236820618241999,0.29547624807843537,0.35530986243594936
-0.0008736320117740998,0.30795178292816155,0.3729388974353078
-0.0008235819617240998,0.3223847709089188,0.40424765229153037
-0.0007735319116739998,0.33163944070599605,0.42020775505548397
-0.0007234818616239998,0.3391646951140782,0.45327822824990954
-0.0006734318115738998,0.3516755799019286,0.46703298083554634
-0.0006233817615238998,0.3629606839019776,0.48598429809094623
-0.0005733317114737999,0.37363596475957744,0.5214194726725002
-0.0005232816614237999,0.3811933519514098,0.5293726566682363
-0.0004732316113736999,0.39324090751938595,0.5634023218175677
-0.0004231815613236999,0.4018109654880386,0.5727342274363771
-0.0003731315112735999,0.4088908969951244,0.5967064170305256
-0.0003230814612235999,0.4196789963229469,0.5995166083548603
-0.00027303141117349995,0.42767004306877204,0.6294750353689545
-0.00022298136112349994,0.4333257795606343,0.6420968204146269
-0.00017293131107339976,0.4376519709864194,0.6497821575197574
-0.00012288126102339976,0.44385896643196104,0.6730957972084995
-7.283121097329979e-05,0.452948250090226,0.6909985591097553
-2.278116092329979e-05,0.4533590394406341,0.6983596102587936
2.726888912679996e-05,0.45926007748255376,0.7142392355293309
7.731893917679996e-05,0.4653427731107152,0.728348325517267
0.00012736898922690015,0.4695590246867592,0.7318910941642863
0.00017741903927690015,0.47392837712929947,0.7416365668777274
0.00022746908932700033,0.47278174548103336,0.7470211871323419
0.00027751913937700034,0.47986658382789776,0.7620193073170417
0.0003275691894271001,0.482543042807393,0.7674786575166473
0.0003776192394771001,0.47470698636314657,0.7909919515059005
0.00042766928952720027,0.481466438873554,0.7876348064250737
0.0004777193395772003,0.4801168782449402,0.7943628596107515
0.0005277693896273,0.48424311098601786,0.8000362624807753
0.0005778194396773,0.4858048354603842,0.8012146785944194
0.0006278694897274002,0.4800818134604893,0.8100051759822505
0.0006779195397774002,0.4845853875590389,0.8103780476288291
0.0007279695898275,0.484341730481269,0.8220730868712066
0.0007780196398775,0.4811553137902797,0.8112696422559743
0.0008280696899276001,0.47538703792192244,0.816972083510087
0.0008781197399776001,0.4720681650658618,0.8242748615838901
0.0009281697900277003,0.4689216673572684,0.812653855051551
0.0009782198400777003,0.4577516251070479,0.8025919410406049
0.0010282698901278,0.46042131628572425,0.8160077272845181
0.0010783199401778,0.4585228225953923,0.7993578241355604
0.0011283699902279003,0.44841539292696936,0.7971895082738809
0.0011784200402779003,0.4452162719735077,0.8079181974390008
0.001228470090328,0.43109879966701303,0.7933917686734462
0.001278520140378,0.43078565765318494,0.7920475888341447
0.0013285701904281002,0.4314959035746105,0.774819698535638
0.0013786202404781002,0.42197332066349513,0.7668016206066979
0.0014286702905282,0.4082463726737768,0.7626894456027236
0.0014787203405782,0.3990073236400782,0.7422269639977711
0.0015287703906283001,0.38741639092987395,0.7494995419856861
0.0015788204406783002,0.3765510826069292,0.7344504130294306
0.0016288704907284003,0.3704608465974004,0.7226863111435492
0.0016789205407784003,0.36193828624924795,0.7015188270759496
0.0017289705908285,0.3474143927849931,0.6920531360214962
0.0017790206408785,0.3431972354468692,0.6809301034502417
0.0018290706909286003,0.3260791907754538,0.6684851474239726
0.0018791207409786003,0.3188854138123655,0.6564792611446523
0.0019291707910287,0.31271310268634267,0.6388433170446077
0.0019792208410787,0.29475701365460627,0.6118453120606625
0.0020292708911287998,0.28020871110472445,0.604624530440806
0.0020793209411787998,0.2677126016346146,0.5822464165902023
0.0021293709912289004,0.25926173800612273,0.5666904862655279
0.0021794210412789004,0.24278471816526995,0.5444853962908226
0.002229471091329,0.23794716769477361,0.5273813601736139
0.002279521141379,0.21369622161626228,0.503087559189293
0.0023295711914291,0.2030214165372181,0.4902611740062839
0.0023796212414791,0.1835117135210452,0.4733154706880409
0.0024296712915292005,0.17466771042491064,0.44523211979278376
0.0024797213415792005,0.16750162415444986,0.4253896569958212
0.0025297713916293003,0.15036823179018008,0.40644090616811657
0.0025798214416793003,0.1318974855745924,0.383894995911684
0.0026298714917294,0.11871231698051352,0.3510934631778822
0.0026799215417794,0.10389535036773896,0.3330458401009295
0.0027299715918294998,0.09019046763306832,0.29933684532138
0.0027800216418794998,0.07332056590914436,0.2939652489756286
0.0028300716919296004,0.06229961696407348,0.2606230260452297
0.0028801217419796004,0.04243070146222805,0.24054348537972842
0.0029301717920297,0.02720936693248102,0.21252017372626378
0.0029802218420797,0.019891997689234605,0.19752437116819227
0.0030302718921298,-0.0014766481722074225,0.16158984961660766
0.0030803219421798,-0.016248432174362157,0.1348126906056505
0.0031303719922299005,-0.029732563229260045,0.1265820699638036
0.0031804220422799005,-0.046389257379937564,0.09664434157337964
0.0032304720923300003,-0.058937282336769606,0.06791916410907815
0.0032805221423800003,-0.07348511831133588,0.040330532078835996
0.0033305721924301,-0.09207700335207138,0.013897104827917704
0.0033806222424801,-0.10516883994664794,-0.02770752497679249
0.0034306722925301998,-0.11990449095436685,-0.042557325566171936
0.0034807223425801998,-0.13553034773612432,-0.060906312227365644
0.0035307723926303004,-0.1513208698544505,-0.0879686624716387
0.0035808224426803004,-0.16749699572355928,-0.12652114091493785
0.0036308724927304,-0.1767654040095882,-0.14023476588341488
0.0036809225427804,-0.19093630373767453,-0.168297877170629
0.0037309725928305,-0.20777610543852124,-0.19499519944752447
0.0037810226428805,-0.21861676378559203,-0.21614984005299218
0.0038310726929306005,-0.2336268652660997,-0.2444416607034722
0.0038811227429806005,-0.24686419630057113,-0.2679179172753739
0.0039311727930307,-0.25660118866790277,-0.28831721991044384
0.0039812228430807,-0.27234531670829976,-0.3197516800677612
0.0040312728931308,-0.28833670261880034,-0.3395236598828465
0.0040813229431808,-0.29916751085988136,-0.35656027983813254
0.0041313729932309,-0.3046760750535272,-0.38946280745138656
0.0041814230432809,-0.3208831439154342,-0.4122166469037155
0.004231473093331,-0.32746526733117187,-0.4260404013225748
0.004281523143381,-0.34486071022686443,-0.4434795526874009
0.0043315731934311,-0.3557748129011071,-0.4662932800185102
0.0043816232434811,-0.36206723643973937,-0.4944568782542397
0.0044316732935312,-0.3758503546997002,-0.5172523751504337
0.0044817233435812,-0.3814625408098725,-0.5415934755983299
0.0045317733936313005,-0.3918000566648319,-0.5563790463263765
0.0045818234436813005,-0.4053970143797966,-0.56396055330011
0.0046318734937314,-0.4098612092561189,-0.5881666896410432
0.0046819235437814,-0.41870533083142375,-0.6117848983419736
0.0047319735938315,-0.4240425619689885,-0.623184197152435
0.0047820236438815,-0.43509665190214764,-0.6530477112628975
0.0048320736939316,-0.437539976579004,-0.6499972332977765
0.0048821237439816,-0.441183556240858,-0.6601442310757855
0.0049321737940317,-0.4549050559122532,-0.679360023646192
0.0049822238440817,-0.4507020679594069,-0.7028445042671673
0.0050322738941318,-0.4575100378916949,-0.7187789848647816
0.0050823239441818,-0.46480466495488343,-0.7249288730275995
0.0051323739942319,-0.4723079555552039,-0.7287923428550886
0.0051824240442819,-0.4718816035060684,-0.7444131649472725
0.0052324740943320005,-0.47496090276205144,-0.7542438181712704
0.0052825241443820005,-0.47889134721757476,-0.7534090765798818
0.0053325741944321,-0.4802486022372014,-0.7687238699964439
0.0053826242444821,-0.48306955917714545,-0.7818873386353075
0.0054326742945322,-0.48479965934907876,-0.7959664846246054
0.0054827243445822,-0.48681699356335173,-0.7998288797207667
0.0055327743946323,-0.4784438843131805,-0.800951255299942
0.0055828244446823,-0.4804281232112093,-0.7983057453942821
0.0056328744947324,-0.48213048267756825,-0.8121299397458073
0.0056829245447824,-0.47688967409013394,-0.811044916847886
0.0057329745948325,-0.4792888346547399,-0.8145274517582525
0.0057830246448825,-0.4801105037202827,-0.8138858044522131
0.0058330746949326,-0.478214344236087,-0.819099559247692
0.0058831247449826,-0.4731985472283798,-0.8116674339876396
0.0059331747950327005,-0.4664200827291474,-0.815977624983663
0.0059832248450827005,-0.45908224743230214,-0.8144750963184273
0.006033274895132799,-0.4574549269489071,-0.8106116946977315
0.006083324945182799,-0.4560691288102627,-0.808563304819148
0.0061333749952329,-0.44529169261228607,-0.8047357800137972
0.0061834250452829,-0.44199204414752474,-0.8025552959143974
0.006233475095333001,-0.44597261105824015,-0.7961823224355381
0.006283525145383001,-0.4290866831582442,-0.7911395391866378
0.0063335751954330995,-0.4211379769452824,-0.7680329888460536
0.0063836252454830995,-0.4185764796309312,-0.7720201058702941
0.0064336752955332,-0.4105056868455986,-0.7617632583452381
0.0064837253455832,-0.3978120787754502,-0.7607982360477504
0.006533775395633301,-0.3871636172342398,-0.7400237942977982
0.006583825445683301,-0.380128243672747,-0.7358576753779941
0.0066338754957334,-0.37507337568311294,-0.7192695578732413
0.0066839255457834,-0.3619728753805568,-0.7108310907342033
0.0067339755958335,-0.3515684904063105,-0.6923298040487137
0.0067840256458835,-0.34017798299954677,-0.673488870946754
0.006834075695933601,-0.3228315355995977,-0.6589178760768777
0.006884125745983601,-0.31323803061986444,-0.6507647677448767
0.0069341757960337,-0.3109906217603382,-0.6321941519651231
0.0069842258460837,-0.2971687073812868,-0.6133781289013948
0.0070342758961338,-0.28040001786529745,-0.5942774679064098
0.0070843259461838,-0.26888622238588766,-0.5791940701810467
0.007134375996233899,-0.26241574729497896,-0.5691833090545817
0.007184426046283899,-0.2463288500961943,-0.5391544135814195
0.007234476096334,-0.22934306740403268,-0.5259507357631319
0.007284526146384,-0.21961602083530374,-0.5057187929526318
0.0073345761964341005,-0.199919593740873,-0.48856292237425075
0.0073846262464841005,-0.18748549776562057,-0.4606463315056542
0.007434676296534199,-0.1766422792372572,-0.4446322951090149
0.007484726346584199,-0.16167589177494324,-0.417286350528185
0.0075347763966343,-0.14899211420321662,-0.3863121845386362
0.0075848264466843,-0.13135991737083005,-0.36549479999697987
0.007634876496734401,-0.1180697289480354,-0.35488947557908695
0.007684926546784401,-0.10281378694594127,-0.33024806859837874
0.0077349765968344995,-0.09118048695971381,-0.2972279811208123
0.0077850266468844995,-0.06804118052215159,-0.29120237514554614
0.0078350766969346,-0.05653724172091392,-0.2596059620734241
0.0078851267469846,-0.04249585087707292,-0.2254342738402302
0.0079351767970347,-0.027153746466709226,-0.2093566747662456
0.0079852268470847,-0.0121488751934493,-0.18138271025278047
0.0080352768971348,0.005823079732976737,-0.156646431969251
0.0080853269471848,0.01904525245205754,-0.12284941759597184
0.0081353769972349,0.030662372262835913,-0.10615285027328278
0.0081854270472849,0.04765228645299178,-0.07775189670115042
0.008235477097335001,0.06567686467955264,-0.06476978094787708
0.008285527147385001,0.08469865302791302,-0.03274631192393286
0.0083355771974351,0.0932484741806957,-0.014785988927844104
0.0083856272474851,0.10638586086448666,0.017792037535055476
0.0084356772975352,0.12302289981168572,0.04558982295238219
0.0084857273475852,0.1378810474243988,0.06970307461714689
0.0085357773976353,0.15514778122848594,0.09430475008565774
0.0085858274476853,0.16549080035620412,0.12489709525821008
0.0086358774977354,0.17914337967343705,0.14676391127194915
0.0086859275477854,0.19979353573372288,0.17373693908402654
0.0087359775978355,0.2019578242414508,0.19266906990595492
0.0087860276478855,0.22016421339856534,0.2157881538018325
0.0088360776979356,0.22706230860320323,0.24086759867020535
0.0088861277479856,0.24946532525775322,0.2640489511589033
0.0089361777980357,0.2707040339413169,0.30096807561833333
0.0089862278480857,0.27748295400045164,0.31763209609170057
0.0090362778981358,0.28064934534404273,0.34017976956679896
0.0090863279481858,0.30229938433506587,0.37017391048038134
0.0091363779982359,0.31017898479136696,0.3873880632798967
0.0091864280482859,0.31808936563442836,0.41499163491396374
0.009236478098336,0.33082745831886073,0.4403841468286669
0.009286528148386,0.3470767762786913,0.4588749348507317
0.0093365781984361,0.35395113215085927,0.47416592280172337
0.0093866282484861,0.36261821123079874,0.4981242008384167
0.0094366782985362,0.38010142764094235,0.5282930456233488
0.0094867283485862,0.3889676776476174,0.533524175521037
0.0095367783986363,0.38720879234713534,0.5500507934812994
0.0095868284486863,0.4044583993361821,0.5757840732816711
0.009636878498736401,0.41168794419031024,0.5875660373359508
0.009686928548786401,0.4169037500373177,0.6034632816965859
0.0097369785988365,0.43392701403998135,0.6285958414353673
0.0097870286488865,0.43132393796714713,0.6443623588379894
0.0098370786989366,0.4412772337780897,0.6641701978060425
0.0098871287489866,0.44240180513673544,0.6809692046656475
0.0099371787990367,0.45177131946645516,0.6859508229668401
0.0099872288490867,0.46075919342471305,0.6990879948264263
0.0100372788991368,0.4591316739355186,0.717061976174327
0.0100873289491868,0.4707325227077526,0.7269025899049902
0.0101373789992369,0.46819273799332867,0.7269680961474997
0.0101874290492869,0.47121882620079436,0.7415639052535195
0.010237479099337,0.4753030754223818,0.7549042836197487
0.010287529149387,0.4817809661036399,0.7606929648809467
0.0103375791994371,0.4814539940380803,0.7816608941149895
0.0103876292494871,0.482421991105142,0.7721855829478294
0.0104376792995372,0.47825006301740874,0.7866111311229411
0.0104877293495872,0.4846150342858241,0.7959079975790505
0.0105377793996373,0.48585841194291374,0.7941127020378562
0.0105878294496873,0.47700067674246,0.807342949159275
0.0106378794997374,0.48383340798313373,0.8103358751709029
0.0106879295497874,0.48509427489452506,0.8057509518764723
0.0107379795998375,0.4778772454307714,0.8170281781238561
0.0107880296498875,0.47352970753442686,0.8247310426322371
0.0108380796999376,0.47694456377200717,0.8176133703549909
0.0108881297499876,0.47241954054360585,0.8097956326021942
0.0109381798000377,0.4643589302569793,0.822061046182069
0.0109882298500877,0.46261595404509753,0.8047455660885494
0.011038279900137801,0.46036103200984735,0.8192222253407526
0.011088329950187801,0.4537629930455036,0.807009763943579
0.0111383800002379,0.44912961144220803,0.8079239855605921
0.0111884300502879,0.43932269852373057,0.8009219266730646
0.011238480100338,0.4386343389966979,0.7930453152950011
0.011288530150388,0.42539899578035134,0.7863453534818349
0.0113385802004381,0.4177607097272731,0.7809499776569411
0.0113886302504881,0.42019675700208453,0.7685911469719837
0.0114386803005382,0.41273935966296893,0.7689191992397024
0.0114887303505882,0.398924560020334,0.7634221490025673
0.0115387804006383,0.39601322707109204,0.7368142975025622
0.0115888304506883,0.3799304337985801,0.725764344972671
0.0116388805007384,0.36602921737397837,0.7092080354771567
0.0116889305507884,0.36066150561081595,0.707696218153029
0.0117389806008385,0.34977130169848025,0.6880135324735861
0.0117890306508885,0.3417182638663271,0.6778552495527421
0.0118390807009386,0.32785507280071513,0.6589313399825117
0.0118891307509886,0.3155228889706112,0.6440636268524376
0.0119391808010387,0.3057704875522124,0.6314195985698112
0.0119892308510887,0.2904697022197183,0.6236757913863752
0.0120392809011388,0.2778355685830788,0.6035969711373782
0.0120893309511888,0.2732643117625852,0.5796048262210663
0.0121393810012389,0.2549631694769339,0.5652719855808165
0.0121894310512889,0.24664661996275838,0.5485193646408504
0.012239481101339,0.22991325211852034,0.5244028979328689
0.012289531151389,0.21090310095693307,0.49943659631223114
0.0123395812014391,0.2000773503377741,0.47348472863093005
0.0123896312514891,0.18522309323756608,0.4577835458511011
0.012439681301539201,0.17223506681609052,0.4367299539357005
0.012489731351589201,0.1603788749191947,0.41120594319487547
0.0125397814016393,0.1528902608117075,0.3956017750079606
0.0125898314516893,0.13041871478646297,0.3722104658602094
0.0126398815017394,0.11800210165790628,0.3493404980402553
0.0126899315517894,0.10307316551119947,0.32776115256985755
0.0127399816018395,0.08648656714641446,0.30256910889021854
0.0127900316518895,0.07304506026267242,0.27441470666396006
0.0128400817019396,0.05210660801873966,0.25479646419899893
0.0128901317519896,0.043687638172233235,0.2323635217205963
0.0129401818020397,0.0270887767071496,0.2106942726103984
0.0129902318520897,0.012318470857175884,0.18098425294220724
0.0130402819021398,-0.0062709926128270135,0.1566416046140928
0.0130903319521898,-0.024651792728409394,0.13127174997032964
0.0131403820022399,-0.034937119865659005,0.11338843550968448
0.0131904320522899,-0.05068775139114692,0.0760118632348749
0.01324048210234,-0.0671919454988907,0.06319310916840368
0.01329053215239,-0.0860528505863549,0.02815928377319875
0.0133405822024401,-0.09658802850007459,0.001805858415676829
0.0133906322524901,-0.11132163144006532,-0.0191115246333453
0.0134406823025402,-0.12360883511116323,-0.04564714810435208
0.0134907323525902,-0.1374011060666355,-0.06519074239258293
0.0135407824026403,-0.1558105924977655,-0.11310338471787264
0.0135908324526903,-0.1682820601398916,-0.1210457870146496
0.0136408825027404,-0.18445604934329538,-0.1515818105228127
0.013690932552790401,-0.20220859893032536,-0.17055287743133882
0.0137409826028405,-0.20997203959337477,-0.20658223755129557
0.013791032652890499,-0.22881379902100976,-0.2266314580406048
0.013841082702940601,-0.23562505367534164,-0.24268777909784547
0.0138911327529906,-0.25022558508465986,-0.26990086718913325
0.013941182803040702,-0.2639470445408865,-0.29337824688677494
0.0139912328530907,-0.2747287846275343,-0.33134851970283635
0.014041282903140799,-0.2860794451053877,-0.34083524615476324
0.0140913329531908,-0.3032311425873548,-0.3730282630869487
0.0141413830032409,-0.31536323446196174,-0.38388504264650514
0.014191433053290901,-0.3248223811462633,-0.413664675264947
0.014241483103341,-0.33345552974484544,-0.43844904071991
0.014291533153391002,-0.3457461477073796,-0.459537208524484
0.0143415832034411,-0.36598617241943837,-0.47558346424898335
0.014391633253491099,-0.365553990436789,-0.5143022847123053
0.014441683303541201,-0.3712810655719106,-0.5181303989724394
