Time,Vin,Vout
-0.006481820971690368,0.007685368521910806,8.150921817570996e-05
-0.006381720871590268,0.0067976006639676265,0.021178133768012513
-0.006281620771490168,0.0047171894667442415,0.028068569598143845
-0.006181520671390068,0.0076744585145069235,0.027726443292184804
-0.006081420571289968,0.012572937695090509,0.02352153775264835
-0.005981320471189868,0.019176372591928073,0.017864717891692625
-0.005881220371089768,0.02364436930184168,0.012368241392187132
-0.005781120270989668,0.021580065331327596,0.007679896340701023
-0.005681020170889568,0.027206686382663832,0.003996769411791005
-0.005580920070789468,0.03288872700505093,0.0015587992902059322
-0.005480819970689368,0.03199380188961952,-5.714882170516646e-06
-0.005380719870589268,0.028643714277389185,-0.0008466235804486859
-0.0052806197704891675,0.03376063308432961,-0.0011955022400874594
-0.005180519670389068,0.044751443989659453,-0.0011785775484915502
-0.005080419570288968,0.04739164506335822,-0.0010236204910406622
-0.004980319470188868,0.0458674564838142,-0.0008345484289130433
-0.0048802193700887685,0.05552601032380405,-0.0006216134885620407
-0.004780119269988668,0.06170693751436714,-0.00044830419989794624
-0.004680019169888568,0.05708442820680185,-0.0002982073786390453
-0.004579919069788468,0.0659851385520035,-0.00019047791160811065
-0.004479818969688368,0.06828002018420187,-0.00019967016305029548
-0.004379718869588268,0.06569716497102235,-0.00017459105055561133
-0.004279618769488168,0.07191071821169506,-0.00020929859170183186
-0.004179518669388068,0.06869294042322525,-0.000266823095055686
-0.004079418569287968,0.08009663280188055,-0.00024240416373036248
-0.003979318469187868,0.08786652889292478,-0.0003104804608828781
-0.003879218369087768,0.07935766711237376,-0.0003102343753236137
-0.0037791182689876682,0.08639410201192176,-0.0004085567321524582
-0.003679018168887568,0.09415353269384821,-0.0003781932915311598
-0.003578918068787468,0.09038516348048749,-0.0004540158510686361
-0.003478817968687368,0.10130172826063961,-0.0004537201701164346
-0.003378717868587268,0.10017864375133957,-0.0005029905846548809
-0.003278617768487168,0.10191727208168355,-0.0005077571962414707
-0.003178517668387068,0.10313884688364101,-0.0005293713134355934
-0.0030784175682869682,0.11274122043279904,-0.0005482019103853443
-0.002978317468186868,0.11236719732713175,-0.0005458113540351975
-0.002878217368086768,0.11162323932819959,-0.0005605510454875476
-0.002778117267986668,0.11848466879449684,-0.0005789906924794423
-0.002678017167886568,0.1257572736825913,-0.0006752249065517285
-0.002577917067786468,0.1256691561455163,-0.0006652441541934433
-0.0024778169676863684,0.12895990427081896,-0.000733716896299267
-0.002377716867586268,0.12785548035657285,-0.0008053621969243166
-0.002277616767486168,0.13217642547873923,-0.0007506357750150528
-0.0021775166673860683,0.1373627859418245,-0.0007355163714689158
-0.0020774165672859677,0.14312079411890907,-0.0007654193208359128
-0.001977316467185868,0.1477027275061354,-0.0007966974336425783
-0.0018772163670857682,0.1495238027442858,-0.0008207226934398063
-0.0017771162669856684,0.15226940466855424,-0.0008292122757285078
-0.0016770161668855678,0.14892521073931006,-0.0009037543976706242
-0.001576916066785468,0.1638653214172317,-0.0008983354597111183
-0.0014768159666853683,0.16132738562487486,-0.000956532578506642
-0.0013767158665852677,0.1610698088364649,-0.0010066550301075555
-0.001276615766485168,0.17188694363671086,-0.0009625703801549979
-0.0011765156663850682,0.16379398234201048,-0.0010240948487210374
-0.0010764155662849684,0.17380430691154525,-0.0010305325573483522
-0.0009763154661848678,0.18377465463821135,-0.0010382830993617023
-0.000876215366084768,0.1808522298279675,-0.0010943538804511032
-0.0007761152659846683,0.18072116578299105,-0.0010727011211982196
-0.0006760151658845677,0.18353788803861576,-0.0011270397400870084
-0.0005759150657844679,0.18745040494184462,-0.0011329596666176489
-0.00047581496568436816,0.1922851240016348,-0.0011707624644132545
-0.0003757148655842684,0.18646068331582305,-0.0012301435525114348
-0.0002756147654841678,0.19844081771357605,-0.0012365723915288697
-0.00017551466538406803,0.19486368385453695,-0.0012119551496788056
-7.541456528396828e-05,0.206786388477326,-0.001287882260515274
2.4685534816132337e-05,0.20783509465668185,-0.0013012782971198835
0.0001247856349162321,0.20985998451382593,-0.001286003920595047
0.00022488573501633184,0.21154024148192124,-0.001307186379002434
0.0003249858351164316,0.21513370374020707,-0.0013322677630312437
0.0004250859352165322,0.22074757387007646,-0.0013418932680845585
0.000525186035316632,0.22455786720777884,-0.0014092174786648048
0.0006252861354167317,0.22502205927890329,-0.0014329515076108204
0.0007253862355168323,0.22832069458654047,-0.0014851776404344525
0.0008254863356169321,0.2348134189466565,-0.0014335024817318136
0.0009255864357170318,0.23297932399672797,-0.00148833075842071
0.0010256865358171316,0.23876093995755002,-0.0015202606400448355
0.0011257866359172322,0.24177549256652106,-0.0015009352467702292
0.001225886736017332,0.24439176832153972,-0.0015339567090116846
0.0013259868361174317,0.24737659005238052,-0.0015430467241691747
0.0014260869362175323,0.24846065449598034,-0.0016252432066512575
0.0015261870363176312,0.25555165873664987,-0.001624221698309999
0.0016262871364177318,0.2561841002733179,-0.0016396009475798865
0.0017263872365178325,0.2519560952881243,-0.0016543733591763176
0.0018264873366179313,0.2547028092250094,-0.0016738029633673213
0.001926587436718032,0.26056228657454306,-0.001687258671229252
0.0020266875368181326,0.26468709006313834,-0.001722323630131364
0.0021267876369182315,0.26467592620911473,-0.0017616170742179812
0.002226887737018332,0.2739771798714072,-0.0017699363754918821
0.0023269878371184327,0.2774426190867514,-0.0017761711585251366
0.0024270879372185316,0.28137619127284247,-0.0017901034379435544
0.002527188037318632,0.2712782468747532,-0.0018153174776227455
0.002627288137418731,0.28390724221185415,-0.0017842945914479616
0.0027273882375188317,0.2856358231641843,-0.0018476585430178653
0.0028274883376189323,0.29381909814258583,-0.0018919419389162497
0.0029275884377190312,0.289845553834062,-0.0019170404088390026
0.003027688537819132,0.2961917786257887,-0.0018792647820845955
0.0031277886379192325,0.2938038970502035,-0.0019543368420931765
0.0032278887380193313,0.297321028987544,-0.0019400046446948554
0.003327988838119432,0.3043844779039229,-0.0020182303746304406
0.0034280889382195326,0.3064087531221507,-0.002002186894427385
0.0035281890383196315,0.3084655534361782,-0.0019986253844149777
0.003628289138419732,0.30833041356869717,-0.0020671942320850665
0.0037283892385198327,0.3099845664155416,-0.002111596417200715
0.0038284893386199316,0.3198053829135182,-0.0020329021078108202
0.003928589438720032,0.3176345368200235,-0.002111166255851235
0.004028689538820131,0.321457570152029,-0.002096982580109647
0.004128789638920232,0.3229260369305655,-0.0021258137849343895
0.004228889739020332,0.3212106416199217,-0.0021471689612555067
0.004328989839120431,0.32758425905431354,-0.0021370634878784935
0.004429089939220532,0.3247815238416749,-0.0021500715900655194
0.0045291900393206325,0.3309827346999277,-0.0022160403794132507
0.004629290139420731,0.33712483332345294,-0.0022626129216500356
0.004729390239520832,0.34192408676606817,-0.0022497657328128234
0.004829490339620933,0.3317301207337781,-0.0022752749150600567
0.0049295904397210315,0.3457649777057818,-0.0023100397958388274
0.005029690539821132,0.3503978905048564,-0.00229719095060509
0.005129790639921233,0.3473920700891016,-0.002319897941452099
0.005229890740021332,0.3509232896374257,-0.002331621604246499
0.005329990840121432,0.35188504657342734,-0.002367810863900748
0.005430090940221531,0.35905518406973175,-0.00238493674805565
0.005530191040321632,0.35901164676244657,-0.0023853308999153963
0.005630291140421732,0.35283566048091125,-0.002411870437322234
0.005730391240521831,0.36048993412632996,-0.0024437434517583273
0.005830491340621932,0.3637357085874057,-0.0024537620469602833
0.0059305914407220325,0.3634959649640272,-0.0024542608885823043
0.006030691540822131,0.36529600457447725,-0.0024701004308177107
0.006130791640922232,0.37695127660252203,-0.002490942389507824
0.006230891741022333,0.3761449012170097,-0.0024799576842900674
0.0063309918411224315,0.3738082458774228,-0.0025296178122832594
0.006431091941222532,0.38009296949084553,-0.002553345762318232
0.006531192041322633,0.37921150614613913,-0.002560479464289426
0.006631292141422732,0.38625401595187825,-0.0025797341561059066
0.006731392241522832,0.38682752301914913,-0.0025562861335646438
0.006831492341622931,0.3902596010058756,-0.0026300256224634803
0.006931592441723032,0.39301744693390994,-0.0026063673541902132
0.007031692541823132,0.3938656391445394,-0.0026872607964410294
0.007131792641923231,0.3900428738672157,-0.0026770550684838976
0.007231892742023332,0.3996605624305309,-0.0027363067077445153
0.0073319928421234325,0.39892098482657257,-0.0026910727275474312
0.007432092942223531,0.40330367002693657,-0.0027252636477755935
0.007532193042323632,0.40600854824342497,-0.00273213359266598
0.007632293142423733,0.4056470859617999,-0.0027256679665727144
0.0077323932425238315,0.4069877922890282,-0.002729960203415555
0.007832493342623932,0.4032807080321647,-0.0027877623965423706
0.007932593442724033,0.41008390575491543,-0.0027388602743959136
0.008032693542824132,0.41181299420620987,-0.002807620903840257
0.008132793642924232,0.40915811825697695,-0.002797072877090412
0.008232893743024331,0.4176389507633495,-0.002773759391064475
0.008332993843124432,0.41677681849418896,-0.0028037555585375025
0.008433093943224532,0.4184344055247481,-0.0028231573622564178
0.008533194043324631,0.42096084769506803,-0.0028475760810962383
0.008633294143424732,0.4264264437215039,-0.0028862591997908904
0.008733394243524832,0.4248273227741434,-0.002875200086525001
0.008833494343624931,0.42822554078019737,-0.0029197368311754688
0.008933594443725032,0.4296922662362076,-0.0029098190078846752
0.009033694543825133,0.43066067065662994,-0.002917238101576889
0.009133794643925231,0.4321332137031792,-0.002952705159702292
0.009233894744025332,0.437566217950172,-0.002966752204660038
0.009333994844125433,0.4338441531605896,-0.0029630256669735035
0.009434094944225533,0.4389019894554601,-0.002993169275355549
0.00953419504432563,0.446176876686346,-0.0030058312827849383
0.009634295144425731,0.44358610919917446,-0.0030313164963009496
0.009734395244525832,0.44060453798117116,-0.0030098212689149612
0.009834495344625932,0.4471366858761349,-0.0030466865920954827
0.009934595444726033,0.4455864673847067,-0.0030483841694066405
0.010034695544826134,0.4535967744885619,-0.003067343795529656
0.01013479564492623,0.4492326848145283,-0.0030844169368252116
0.010234895745026331,0.4571037729878739,-0.0030624035940265385
0.010334995845126432,0.4599087196854639,-0.0031501469482795755
0.010435095945226533,0.45866173082936024,-0.003122177090028547
0.010535196045326633,0.45740747421363587,-0.0030945293360337004
0.01063529614542673,0.45786922918089284,-0.0031626742939822807
0.010735396245526831,0.46008546531619615,-0.003113590820835118
0.010835496345626932,0.4598792435717314,-0.00317728880088941
0.010935596445727032,0.46618414256126506,-0.003156893902287084
0.011035696545827133,0.4660999895903919,-0.0032182551602949537
0.011135796645927233,0.46283328037340404,-0.0031990825498224005
0.01123589674602733,0.46630146600504674,-0.003206947037226128
0.011335996846127431,0.4763848293931669,-0.0031825353435913284
0.011436096946227532,0.4669452848023459,-0.003177513369277126
0.011536197046327632,0.47092322711500684,-0.003241016017418812
0.011636297146427733,0.47234371000096803,-0.003216536984926875
0.01173639724652783,0.47348633085622277,-0.003218859324825805
0.01183649734662793,0.47403159626194497,-0.0032716576548762854
0.011936597446728031,0.4787788282837591,-0.0031940035214688576
0.012036697546828132,0.47745564268698754,-0.0032381691523987004
0.012136797646928233,0.479972971132707,-0.0032659011615751325
0.012236897747028333,0.47920503424509997,-0.003306944512248308
0.01233699784712843,0.48317091349939906,-0.0032709106489722736
0.012437097947228531,0.480912515512213,-0.0032569525489491062
0.012537198047328632,0.48004273314429524,-0.0033352423923069673
0.012637298147428732,0.4860978461171883,-0.0033032517734760264
0.012737398247528833,0.49271132074642815,-0.00334627416632024
0.012837498347628934,0.486585907190121,-0.0033673954901662644
0.01293759844772903,0.48212164151722353,-0.0033461418298254726
0.013037698547829131,0.48845764903228833,-0.003383667948110802
0.013137798647929232,0.49436314033758827,-0.0033492731843889926
0.013237898748029333,0.4935921217461351,-0.003336458096598768
0.013337998848129433,0.49599877033356216,-0.0033852731144851248
0.01343809894822953,0.49705470021680304,-0.0034376108058444712
0.013538199048329631,0.4997234376460213,-0.0034325625861188445
0.013638299148429732,0.5009690101055222,-0.0034033772122194295
0.013738399248529832,0.4976750014052821,-0.003402672334072786
0.013838499348629933,0.5008148120463626,-0.0033760422044698105
0.013938599448730033,0.4970899697729072,-0.003418759220939893
0.01403869954883013,0.49570688335469265,-0.0033928488913269757
0.014138799648930231,0.4993989699792097,-0.0034562560502591185
0.014238899749030332,0.5007493704103269,-0.0034168881738898403
0.014338999849130432,0.5044902086400437,-0.0034082061682559673
0.014439099949230533,0.5061722921578707,-0.003423997502875897
0.01453920004933063,0.5022442815720249,-0.003460303544754578
0.01463930014943073,0.5082969782832626,-0.0034490624686862883
0.014739400249530831,0.5007170237169515,-0.0034394612855343466
0.014839500349630932,0.5044703922567314,-0.003425071124079016
0.014939600449731033,0.5062659938959515,-0.0034612085741437364
0.015039700549831133,0.5013034209827986,-0.0034574136491761285
0.01513980064993123,0.5098385580591113,-0.003481427221460436
0.015239900750031331,0.5143476460816743,-0.003528123014036065
0.015340000850131432,0.5106937525673817,-0.0034579216133276782
0.015440100950231532,0.5076426377560159,-0.0034646573553545447
0.015540201050331633,0.5084891949107819,-0.003455001274240069
0.015640301150431732,0.5108789130002158,-0.003543988953737392
0.015740401250531832,0.5102907022079687,-0.0034641761642594925
0.015840501350631933,0.5135214985012334,-0.003537296939218277
0.015940601450732034,0.515162119702902,-0.003495452304114203
0.016040701550832134,0.5128126064707192,-0.0034886536082031554
0.016140801650932235,0.513910006246757,-0.003503936538762472
0.01624090175103233,0.5204746912595373,-0.003523331497273142
0.01634100185113243,0.5208522024417164,-0.003528586409503048
0.01644110195123253,0.5247368639902115,-0.0035558919388905255
0.01654120205133263,0.5149336368948934,-0.0035193751209367705
0.01664130215143273,0.523509088927219,-0.003559169416891152
0.016741402251532832,0.5173066070599606,-0.003512694335489468
0.016841502351632932,0.5202878371235821,-0.0035553688144679277
0.016941602451733033,0.5221851089134357,-0.0035383272944131063
0.017041702551833134,0.5170966623212832,-0.0034683413833983988
0.017141802651933234,0.5176255025634529,-0.0035139579470428108
0.017241902752033335,0.5126082646082222,-0.003496179194363078
0.01734200285213343,0.5163248410576252,-0.0035502628486878242
0.01744210295223353,0.522010627019939,-0.0034872726482926136
0.01754220305233363,0.5186448778468625,-0.0034831283782969097
0.01764230315243373,0.5184439466129647,-0.0035447006243033976
0.01774240325253383,0.5208794407811169,-0.0035118539397602467
0.01784250335263393,0.519068936715653,-0.003512417198393524
0.017942603452734032,0.5192709401114692,-0.0035308540537792223
0.018042703552834133,0.5174786209788491,-0.0035606455313310368
0.018142803652934233,0.5242509330256184,-0.0035267923421262288
0.018242903753034334,0.5193785111576537,-0.0035209535427777566
0.018343003853134435,0.5206130354042289,-0.003518215592518713
0.018443103953234535,0.5190513133555988,-0.003573500619674178
0.01854320405333463,0.5190179544306074,-0.0035745012428783514
0.01864330415343473,0.5206835079219859,-0.0035296200150481214
0.01874340425353483,0.52435382426063,-0.00353263115030814
0.01884350435363493,0.5195993131717168,-0.003510864020259628
0.01894360445373503,0.5199700502456878,-0.003557523083283854
0.019043704553835132,0.5178656832513523,-0.0035071031577670686
0.019143804653935233,0.5215532429852532,-0.0034807834787473177
0.019243904754035333,0.5214649207237373,-0.003569312283043536
0.019344004854135434,0.519177229484086,-0.003501118557070329
0.019444104954235535,0.524013838204254,-0.0034947199980443285
0.019544205054335635,0.5167862972575882,-0.0035043710103226855
0.01964430515443573,0.5162409528107057,-0.0035185715045203455
0.01974440525453583,0.515319085055537,-0.0034998157167097136
0.01984450535463593,0.520827369039519,-0.0034814438555412167
0.01994460545473603,0.5230122679811666,-0.0035159367910579595
0.02004470555483613,0.5190217043974367,-0.0034584001198774885
0.020144805654936232,0.5224535853459846,-0.003510420055993911
0.020244905755036333,0.5156153616331631,-0.003493039787161152
0.020345005855136433,0.5222093548139883,-0.003494509863418665
0.020445105955236534,0.5177117692175557,-0.003451863595800099
0.020545206055336634,0.5163816108439068,-0.0035014545201906932
0.020645306155436735,0.5135384822595409,-0.0034225305455936536
0.02074540625553683,0.5121034535928789,-0.0034357045696755376
0.02084550635563693,0.5122573525437102,-0.0034804946782916115
0.02094560645573703,0.5131764896719491,-0.0034754708822893857
0.02104570655583713,0.5141633382201127,-0.003434290195136396
0.02114580665593723,0.5143359566888638,-0.0034178204661226763
0.021245906756037332,0.5157674055434379,-0.0034500770259939875
0.021346006856137432,0.505601195868736,-0.003412543322090028
0.021446106956237533,0.5088962546485369,-0.0034190045767609808
0.021546207056337634,0.5117900843616183,-0.003386425614054383
0.021646307156437734,0.5118269678164121,-0.0034238706129421995
0.021746407256537835,0.5105475790403722,-0.003411700221128069
0.02184650735663793,0.5088144865108782,-0.003420665011746333
0.02194660745673803,0.5101706505158096,-0.0033864405759290654
0.02204670755683813,0.5021906740149182,-0.0033872417639267895
0.02214680765693823,0.504832219783576,-0.003364840961271646
0.02224690775703833,0.5002242809340017,-0.0034290199033761935
0.022347007857138432,0.5093321517429009,-0.0033568488210218585
0.022447107957238532,0.5076490472088415,-0.0033366593687442375
0.022547208057338633,0.5068281322258298,-0.00336823423915411
0.022647308157438734,0.5028937467468839,-0.0033585334786429702
0.022747408257538834,0.5082492708148434,-0.003324495393123543
0.022847508357638935,0.49975323309443576,-0.003366998764316327
0.02294760845773903,0.4994966194085907,-0.0033335701746095604
0.02304770855783913,0.5034667738626889,-0.003308568232906676
0.02314780865793923,0.4990435571163384,-0.0032867950498941547
0.02324790875803933,0.49815874075846517,-0.003296689492201496
0.02334800885813943,0.49751886095453696,-0.0032695210257835407
0.02344810895823953,0.4948784177561163,-0.0032343945997498676
0.023548209058339632,0.4962686746160984,-0.0033059416156549903
0.023648309158439733,0.4980696385203756,-0.003312349838595159
0.023748409258539833,0.49479746191820684,-0.0032455157655007522
0.023848509358639934,0.49354715309172237,-0.003250129440213606
0.023948609458740035,0.4853748475099476,-0.0032587431200216273
0.024048709558840135,0.48977249406305273,-0.0031759233426806154
0.02414880965894023,0.4880648867447836,-0.0032014523424490175
0.02424890975904033,0.4905374940997382,-0.003181799334590107
0.02434900985914043,0.48347428984641594,-0.0031685698491328634
0.02444910995924053,0.4825497400012677,-0.003174116049779645
