Time,Vin,Vout
0.0,0.0,0.0
0.0005005005005005005,0.2162467050248589,0.12811537224957267
0.001001001001001001,0.40983065377856936,0.4421153003662106
0.0015015015015015015,0.565526264803424,0.7425189019613657
0.002002002002002002,0.6634466517968334,0.9557554098026877
0.0025025025025025025,0.6970616313089548,1.0750860401690032
0.003003003003003003,0.6643997932311466,1.0934394079528666
0.0035035035035035035,0.5626823205202046,0.9981065210607808
0.004004004004004004,0.4092152964076369,0.8108737323544042
0.0045045045045045045,0.21353249206134328,0.5402786230831161
0.005005005005005005,-0.002125342155552601,0.21841760695769935
0.0055055055055055055,-0.2183885794851822,-0.12534649405636875
0.006006006006006006,-0.4116119774025702,-0.4555730335723466
0.0065065065065065065,-0.5666793664382864,-0.7433829273809167
0.007007007007007007,-0.6642125849932173,-0.9558509154669581
0.0075075075075075074,-0.696980934291595,-1.0748274053201579
0.008008008008008008,-0.6638921699628397,-1.092458593408418
0.008508508508508508,-0.5613950246498659,-0.9957493049424383
0.009009009009009009,-0.40734430706215913,-0.807426085688023
0.00950950950950951,-0.21147249428224388,-0.5364205457265541
0.01001001001001001,0.004321641885235192,-0.2140794970332494
0.01051051051051051,0.22052693472430535,0.12973129465744887
0.011011011011011011,0.4133933010265711,0.45965512449646145
0.011511511511511512,0.5678324680731496,0.7466820671594517
0.012012012012012012,0.6649785181896013,0.9586131899567035
0.012512512512512512,0.6969002372742351,1.0763277608017783
0.013013013013013013,0.663384546694533,1.093282234570742
0.013513513513513514,0.5601077287795267,0.9952577098804177
0.014014014014014014,0.4054733177166804,0.8058353868196697
0.014514514514514514,0.20941249650314628,0.5344157470312296
0.015015015015015015,-0.006517941614918178,0.21159612407750755
0.015515515515515516,-0.22266528996343044,-0.13226058918132852
0.016016016016016016,-0.415174624650572,-0.4618813582968828
0.016516516516516516,-0.5689855697080117,-0.7481251890585792
0.017017017017017015,-0.6657444513859848,-0.9595196670662369
0.017517517517517518,-0.6968195402568753,-1.075972829919929
0.018018018018018018,-0.662876923426226,-1.0922511788243146
0.018518518518518517,-0.5588204329091879,-0.9929118067664854
0.01901901901901902,-0.4036023283712025,-0.8023904866449357
0.01951951951951952,-0.2073524987240467,-0.530556531414742
0.02002002002002002,0.008714241344600908,-0.20725788257762973
0.02052052052052052,0.22480364520255247,0.13664529387990773
0.02102102102102102,0.41695594827457155,0.4659634500455398
0.021521521521521522,0.5701386713428739,0.7514243329248462
0.022022022022022022,0.6665103845823694,0.9622819378938148
0.02252252252252252,0.6967388432395154,1.07747318088243
0.023023023023023025,0.6623693001579187,1.0930748148835452
0.023523523523523524,0.5575331370388485,0.9924202076622082
0.024024024024024024,0.40173133902572494,0.8007997866692358
0.024524524524524523,0.20529250094494833,0.5285517362782493
0.025025025025025023,-0.010910541074282097,0.20477451692837656
0.025525525525525526,-0.22694200044167634,-0.13917458231947596
0.026026026026026026,-0.41873727189857346,-0.46818968165335656
0.026526526526526525,-0.5712917729777364,-0.7528674583314989
0.02702702702702703,-0.6672763177787535,-0.9631884180934013
0.027527527527527528,-0.6966581462221555,-1.077118254123936
0.028028028028028028,-0.6617943411981682,-1.0919326283033872
0.028528528528528527,-0.5562458411685102,-0.9900743085195662
0.029029029029029027,-0.3998603496802482,-0.7973548874437169
0.02952952952952953,-0.20323250316584845,-0.5246925171789683
0.03003003003003003,0.013106840803966062,-0.2004362682455112
0.03053053053053053,0.22898713730153336,0.14350164217774855
0.031031031031031032,0.4205185955225744,0.4722717756931756
0.03153153153153153,0.5724448746125994,0.7561665988334386
0.03203203203203203,0.668042250975137,0.9659506857562018
0.032532532532532535,0.6965774492047956,1.0786186008437526
0.03303303303303303,0.6608792993564377,1.0920838260823034
0.033533533533533534,0.5549585452981711,0.989582705539798
0.03403403403403403,0.39798936033477117,0.7957641866588603
0.03453453453453453,0.20117250538675074,0.5226877254527222
0.035035035035035036,-0.01530314053364907,0.19795290966253223
0.03553553553553553,-0.23098537225746363,-0.14594426601073338
0.036036036036036036,-0.42229991914657505,-0.47449800491627014
0.03653653653653654,-0.5735979762474634,-0.7576097274669937
0.037037037037037035,-0.6688081841715208,-0.9668571691911115
0.03753753753753754,-0.6964967521874358,-1.0782636784421664
0.03803803803803804,-0.6599642575147058,-1.090380344040493
0.03853853853853854,-0.5536712494278323,-0.9872368101814558
0.03903903903903904,-0.39611837098929076,-0.7923192881082056
0.03953953953953954,-0.1991125076076541,-0.5188285030115222
0.04004004004004004,0.017499440263331494,-0.19361465402457545
0.04054054054054054,0.23298360721339287,0.150242326376674
0.04104104104104104,0.4240812427705737,0.4785801014292025
0.04154154154154154,0.5747510778823246,0.7609088648727793
0.04204204204204204,0.6695741173679038,0.9696194335526165
0.04254254254254254,0.6964160551700761,1.079764020696903
0.043043043043043044,0.659049215672975,1.0905315395093844
0.04354354354354354,0.5523839535574935,0.9867452035032737
0.044044044044044044,0.3942473816438109,0.7907285867762722
0.04454454454454455,0.19705250982855022,0.5168237145632745
0.04504504504504504,-0.019695739993013932,0.19113130229095732
0.045545545545545546,-0.23498184216932408,-0.15268494312852976
0.04604604604604605,-0.4258625663945787,-0.4808063280953149
0.046546546546546545,-0.5759041795171871,-0.7623519964772018
0.04704704704704705,-0.6703400505642891,-0.9705259203509548
0.047547547547547545,-0.6963353581527161,-1.0794091028638002
0.04804804804804805,-0.6581341738312452,-1.0888280599219613
0.04854854854854855,-0.5510966576871543,-0.984399311761746
0.04904904904904905,-0.3923763922983351,-0.7872836886503327
0.04954954954954955,-0.19499251204945395,-0.5129644889041192
0.050050050050050046,0.0218920397226939,-0.1867930399042368
0.05055055055055055,0.23698007712525057,0.15698301043482432
0.05105105105105105,0.42764389001857606,0.4848884272443318
0.05155155155155155,0.5770572811520495,0.7656511310312396
0.05205205205205205,0.6711059837606723,0.9732881812911792
0.052552552552552555,0.6962546611353562,1.0809094404522843
0.05305305305305305,0.657219131989515,1.0889792527989977
0.053553553553553554,0.5498093618168141,0.9839077015435154
0.05405405405405406,0.3905054029528547,0.7856929870100553
0.05455455455455455,0.1929325142703553,0.5109597036178488
0.055055055055055056,-0.024088339452379384,0.1843096948238475
0.05555555555555555,-0.23897831208118178,-0.15942562038116254
0.056056056056056056,-0.4294252136425798,-0.48711465119953623
0.05655655655655656,-0.5782103827869135,-0.7670942653733296
0.057057057057057055,-0.671871916957056,-0.9741946715650722
0.05755755755755756,-0.6961739641179964,-1.0805545273787984
0.058058058058058054,-0.6563040901477845,-1.0872757759355323
0.05855855855855856,-0.548522065946476,-0.9815618132692301
0.05905905905905906,-0.38863441360737694,-0.7822480890811252
0.059559559559559556,-0.19087251649125664,-0.507100474849115
0.06006006006006006,0.026284639182061816,-0.1799714258746466
0.06056056056056056,0.24097654703710872,0.16372369436424866
0.06106106106106106,0.43120653726657654,0.4911967531298834
0.06156156156156156,0.5793634844217731,0.7703933972979705
0.062062062062062065,0.6726378501534405,0.9769569289793216
0.06256256256256257,0.6960932671006361,1.0820548601195144
0.06306306306306306,0.655389048306053,1.0874269659629783
0.06356356356356356,0.547234770076139,0.9810701996520798
0.06406406406406406,0.3867634242618991,0.7806573873495768
0.06456456456456457,0.18881251871215893,0.5050956926237168
0.06506506506506507,-0.028480938911748507,0.17748808727067253
0.06556556556556556,-0.24297478199303438,-0.1661662977570356
0.06606606606606606,-0.4329878608905788,-0.49342297423719284
0.06656656656656657,-0.580516586056637,-0.7718365341658879
0.06706706706706707,-0.6734037833498271,-0.9778634228263654
0.06756756756756757,-0.6960125700832765,-1.0816999519778485
0.06806806806806806,-0.6544740064643193,-1.0857234920697492
0.06856856856856856,-0.5459474742058024,-0.9787243147120831
0.06906906906906907,-0.3848924349164211,-0.7772124894108708
0.06956956956956957,-0.1867525209330625,-0.5012364608395234
0.07007007007007007,0.030677238641430266,-0.17314981192668907
0.07057057057057058,0.24497301694896662,0.17046437817615603
0.07107107107107107,0.43476918451458024,0.49750507907791264
0.07157157157157157,0.5816696876914977,0.7751356636629263
0.07207207207207207,0.6741697165462146,0.9806256766238961
0.07257257257257257,0.6959318730659173,1.0832002797075129
0.07307307307307308,0.6535589646225834,1.085874679012288
0.07357357357357357,0.5446601783354659,0.9782326978211477
0.07407407407407407,0.3830214455709432,0.7756217877849348
0.07457457457457457,0.1846925231539616,0.49923168158759273
0.07507507507507508,-0.03287353837111203,0.17066647964026627
0.07557557557557558,-0.2469712519048941,-0.17290697524526505
0.07607607607607608,-0.43655050813858776,-0.49973129721603077
0.07657657657657657,-0.5828227893263588,-0.776578802864607
0.07707707707707707,-0.6749356497426037,-0.9815321741281982
0.07757757757757758,-0.6958511760485583,-1.0828453766522943
0.07807807807807808,-0.6526439227808498,-1.0841712083139263
0.07857857857857858,-0.5433728824651257,-0.9758868160978446
0.07907907907907907,-0.38115045622546556,-0.7721768896491281
0.07957957957957958,-0.1826325253748653,-0.4953724468689138
0.08008008008008008,0.035069838100791,-0.16632819805192184
0.08058058058058058,0.2489694868608211,0.17720506188095617
0.08108108108108109,0.43833183176258944,0.503813405081078
0.08158158158158157,0.58397589096122,0.7798779301167638
0.08208208208208208,0.6757015829389919,0.9842944242311609
0.08258258258258258,0.6957704790312,1.0843456992245637
0.08308308308308308,0.651728880939117,1.08432239195722
0.08358358358358359,0.5420855865947899,0.9753951960435009
0.08408408408408408,0.37927946687998804,0.7705861883069766
0.08458458458458458,0.18057252759576908,0.4933676705155987
0.08508508508508508,-0.037266137830474784,0.16384487194068925
0.08558558558558559,-0.2509677218167482,-0.1796476528357659
0.08608608608608609,-0.44011315538659135,-0.506039620143088
0.08658658658658659,-0.5851289925960848,-0.7813210714785483
0.08708708708708708,-0.6764675161353803,-0.9852009254645472
0.08758758758758758,-0.6956897820138416,-1.0839908013941515
0.08808808808808809,-0.6508138390973838,-1.082618924658166
0.08858858858858859,-0.5407982907244537,-0.9730493174334439
0.0890890890890891,-0.37740847753450546,-0.7671412898047916
0.08958958958958958,-0.17851252981667298,-0.48950843293138036
0.09009009009009009,0.0394624375601564,-0.15950658424249187
0.09059059059059059,0.25296595677267636,0.1839457454884288
0.09109109109109109,0.4418944790105942,0.5101217311325708
0.0915915915915916,0.5862820942309466,0.7846201966507907
0.0920920920920921,0.6770344073411897,0.987673041790649
0.09259259259259259,0.6956090849964834,1.0854911186783032
0.09309309309309309,0.6498987972556514,1.082770104807327
0.0935935935935936,0.5395109948541185,0.9725576943125372
0.0940940940940941,0.3755374881890282,0.7655505889071464
0.0945945945945946,0.17634512955485515,0.4872088303005603
0.09509509509509509,-0.04165873728983805,0.157023264179485
0.09559559559559559,-0.2549641917286075,-0.18638833051911957
0.0960960960960961,-0.44367580263459633,-0.5123479430248987
0.0965965965965966,-0.5874351958658086,-0.7860633400160737
0.0970970970970971,-0.6773837377158947,-0.9879722950316556
0.09759759759759759,-0.6955283879791256,-1.0851362261960367
0.0980980980980981,-0.648983755413918,-1.0810666410931828
0.0985985985985986,-0.5382236989837834,-0.9702118187252874
0.0990990990990991,-0.3736664988435512,-0.7621056898860525
0.0995995995995996,-0.1741752879015267,-0.4830480584042741
0.10010010010010009,0.04385503701952284,-0.15268497049123053
0.1006006006006006,0.25696242668453495,0.19068642900760674
0.1011011011011011,0.4454571262585987,0.5164300572261682
0.1016016016016016,0.588588297500671,0.7893624632569584
0.1021021021021021,0.6777330680906,0.9901272820355653
0.10260260260260261,0.6954476909617681,1.086636538075785
0.1031031031031031,0.6480687135721866,1.0812178175714255
0.1036036036036036,0.5369364031134489,0.969720192622182
0.1041041041041041,0.3717955094980741,0.7605149895775827
0.1046046046046046,0.17200544624819805,0.4807417573765881
0.10510510510510511,-0.04605133674920922,0.15020165636357422
0.1056056056056056,-0.25896066164046155,-0.1931290082866461
0.1061061061061061,-0.4472384498826005,-0.5186562658674245
0.1066066066066066,-0.5897413991355341,-0.7908056084849797
0.10710710710710711,-0.6780823984653056,-0.9904265415178592
0.10760760760760761,-0.6953669939444107,-1.0862816510511304
0.10810810810810811,-0.6471536717304527,-1.0795143576104191
0.1086086086086086,-0.5356491072431143,-0.9673743199792332
0.1091091091091091,-0.3699245201525974,-0.7570700899005671
0.10960960960960961,-0.1698356045948696,-0.4765809819451643
0.11011011011011011,0.04824763647889082,-0.14586335679142537
0.11061061061061062,0.26095889659639476,0.19742711244685737
0.1111111111111111,0.44901977350660327,0.5227383833561626
0.11161161161161161,0.590894500770397,0.7941047299278716
0.11211211211211211,0.6784317288400115,0.9925815223732891
0.11261261261261261,0.6952862969270538,1.0877819574235108
0.11311311311311312,0.6462386298887213,1.0796655302577445
0.1136136136136136,0.5343618113727798,0.966882690966802
0.11411411411411411,0.3680535308071167,0.7554793903109943
0.11461461461461461,0.1676657629415412,0.47427468454335864
0.11511511511511512,-0.05044393620857242,0.14338004849935915
0.11561561561561562,-0.26295713155232253,-0.1998696861302224
0.11611611611611611,-0.4508010971306061,-0.5249645886761405
0.11661661661661661,-0.5920476024052621,-0.7955478768924336
0.11711711711711711,-0.6787810592147178,-0.9928807879151796
0.11761761761761762,-0.6952055999096972,-1.0874270759531617
0.11811811811811812,-0.6453235880469903,-1.0779620742019154
0.11861861861861862,-0.5330745155024422,-0.9645368212006039
0.11911911911911911,-0.3661825414616403,-0.752034489855362
0.11961961961961962,-0.16549592128821283,-0.47011390539940445
0.12012012012012012,0.05264023593825406,-0.13904174313698284
0.12062062062062062,0.26495536650825047,0.20416779581397287
0.12112112112112113,0.45258242075461413,0.5290467095173337
0.12162162162162161,0.5932007040401254,0.7988469966566012
0.12212212212212212,0.6791303895894242,0.9950357627953
0.12262262262262262,0.6951249028923409,1.0889273767274774
0.12312312312312312,0.644408546205258,1.0781132428739237
0.12362362362362363,0.5317872196321078,0.9640451893413212
0.12412412412412413,0.36431155211615884,0.7504437911005938
0.12462462462462462,0.16332607963488455,0.4678076117925528
0.12512512512512514,-0.05483653566794447,0.13655844059269354
0.12562562562562563,-0.2669536014641821,-0.2066103640423645
0.12612612612612611,-0.45436374437861504,-0.5312729114560829
0.12662662662662663,-0.5943538056749919,-0.800290145245078
0.12712712712712712,-0.6794797199641323,-0.9953350342318097
0.12762762762762764,-0.6950442058749837,-1.0885725008963765
0.12812812812812813,-0.6434935043635279,-1.0764097908603107
0.12862862862862862,-0.5304999237617753,-0.9616993223943594
0.12912912912912913,-0.3624405627706841,-0.7469988897569175
0.12962962962962962,-0.16115623798155262,-0.46364682877511715
0.13013013013013014,0.05703283539762722,-0.1322201295222499
0.13063063063063063,0.2689518364201103,0.21090847911619665
0.13113113113113112,0.45614506800261856,0.5353550357048827
0.13163163163163163,0.5955069073098554,0.8035892634368287
0.13213213213213212,0.6798290503388393,0.9974900032936983
0.13263263263263264,0.694963508857628,1.0900727959931793
0.13313313313313313,0.6425784625217976,1.0765609554270272
0.13363363363363362,0.5292126278914419,0.9612076877410605
0.13413413413413414,0.36056957342520823,0.7454081919402136
0.13463463463463463,0.15898639632822442,0.4613405391163402
0.13513513513513514,-0.05922913512730886,0.12973683264898606
0.13563563563563563,-0.2709500713760386,-0.21335104201610422
0.13613613613613612,-0.4579263916266221,-0.5375812342118349
0.13663663663663664,-0.5966600089447195,-0.8050324135490209
0.13713713713713713,-0.6801783807135466,-0.9977892804754376
0.13763763763763764,-0.6948828118402725,-1.0897179258754544
0.13813813813813813,-0.6416634206800677,-1.0748575075787696
0.13863863863863865,-0.5279253320211015,-0.9588618235649423
0.13913913913913914,-0.35869858407973254,-0.7419632896112462
0.13963963963963963,-0.15681655467489625,-0.45717975207976785
0.14014014014014015,0.06142543485699053,-0.12539851594205875
0.14064064064064064,0.272948306331967,0.21764916236013665
0.14114114114114115,0.45970771525063575,0.5416633619144784
0.14164164164164164,0.5978131105795862,0.8083315302627083
0.14214214214214213,0.6805277110882543,0.9999442438611532
0.14264264264264265,0.6948021148229174,1.0912182152256644
0.14314314314314314,0.6407483788383379,1.0750086679235464
0.14364364364364365,0.5266380361507685,0.9583701861617978
0.14414414414414414,0.3568275947342519,0.7403725928240878
0.14464464464464463,0.15464671302156813,0.4548734665075699
0.14514514514514515,-0.06362173458667222,0.12291522467317578
0.14564564564564564,-0.27494654128789553,-0.22009172004504773
0.14614614614614616,-0.46148903887463966,-0.5438895569475312
0.14664664664664664,-0.5989662122144507,-0.8097746818099172
0.14714714714714713,-0.6808770414629621,-1.0002435266531533
0.14764764764764765,-0.6947214178055625,-1.0908633508855408
0.14814814814814814,-0.6398333369966086,-1.0733052243510022
0.14864864864864866,-0.5253507402804358,-0.9560243247164514
0.14914914914914915,-0.3549566053887764,-0.7369276894238641
0.14964964964964964,-0.15247687136824004,-0.45071267532026776
0.15015015015015015,0.06581803431635389,-0.11857690239168564
0.15065065065065064,0.2769447762438242,0.22438984555198893
0.15115115115115116,0.4632703624986438,0.5479716881421365
0.15165165165165165,0.6001193138493155,0.8130737971288289
0.15215215215215216,0.6812263718376723,1.0023984844908722
0.15265265265265265,0.6946407207882078,1.0923636344295562
0.15315315315315314,0.6389182951548794,1.0734563803695145
0.15365365365365366,0.5239697486204472,0.9553619788181978
0.15415415415415415,0.353085616043301,0.7353369937469694
0.15465465465465467,0.15030702971489998,0.44840639395952986
0.15515515515515516,-0.0680143340460356,0.11609361666980131
0.15565565565565564,-0.27894301119975295,-0.226832398123248
0.15615615615615616,-0.4648261683223346,-0.5499312488633575
0.15665665665665665,-0.6012724154841805,-0.8145169500329188
0.15715715715715717,-0.6815757022123808,-1.00269777277151
0.15765765765765766,-0.6945600237708536,-1.0920087759222263
0.15815815815815815,-0.6380032533131506,-1.0717529411711855
0.15865865865865866,-0.522359668779873,-0.9524280334432799
0.15915915915915915,-0.3512146266978258,-0.731892089199834
0.15965965965965967,-0.148137188061572,-0.44424559850306433
0.16016016016016016,0.07021063377572542,-0.11175528886677769
0.16066066066066065,0.28094124615567645,0.23113052869738726
0.16116116116116116,0.46632212534651296,0.5536759917114833
0.16166166166166165,0.6024255171190458,0.8178160640302832
0.16216216216216217,0.6819250325870877,1.0048527251765762
0.16266266266266266,0.6944793267534984,1.09350905360906
0.16316316316316315,0.6370882114714198,1.071904092770498
0.16366366366366367,0.520749588939293,0.9513483071957686
0.16416416416416416,0.3493436373523536,0.7303013947039975
0.16466466466466467,0.14596734640824408,0.4419393214661107
0.16516516516516516,-0.07240693350540733,0.10927200864299019
