Time,Vin,Vout
0.008441447093883758,0.0016536656183080366,-0.0721201081018807
0.008941947594384258,0.15705501745596334,0.1980904966817009
0.009442448094884757,0.30179616518976526,-0.07873502483517715
0.009942948595385259,0.4056092771569469,0.37726154109783455
0.010443449095885758,0.48545857894300926,1.2258089739880005
0.010943949596386258,0.5032988992394649,4.395513296790171
0.011444450096886757,0.47948847999280986,12.433336239110869
0.011944950597387257,0.41310523706612884,13.364738646677127
0.012445451097887757,0.29226941560384123,13.206502020337343
0.012945951598388258,0.1530129564076838,13.497766997278209
0.013446452098888758,0.00047988288132096233,13.548872365654566
0.013946952599389259,-0.1548189052063693,13.544365155235688
0.014447453099889759,-0.30551206172628836,13.53322949684301
0.014947953600390258,-0.41335935543607194,13.404103541943476
0.015448454100890758,-0.4817170438162808,13.721725613919416
0.015948954601391258,-0.5048692763639725,13.702200395787337
0.016449455101891757,-0.48219724286004995,13.444304240432281
0.016949955602392257,-0.4134797813758649,13.21617539648198
0.01745045610289276,-0.296061372347557,13.40010942161293
0.017950956603393256,-0.1506343173492891,13.559089891128336
0.01845145710389376,0.006077160907114014,13.451965198637511
0.018951957604394255,0.16150527383183944,13.32282959982166
0.01945245810489476,0.29923013581449626,13.774805452124047
0.019952958605395258,0.40755115863699465,13.514453771028622
0.020453459105895758,0.48405290110525884,13.537836403545064
0.020953959606396257,0.5101463130692714,13.494538177864763
0.021454460106896757,0.4816106104924172,13.68040788607901
0.02195496060739726,0.4090690993918747,13.585253547540043
0.022455461107897756,0.29154522256351906,13.626178344131018
0.02295596160839826,0.15107327673682056,13.354065241588701
0.023456462108898755,-0.012122018551418397,13.669260478038513
0.02395696260939926,-0.1627706585161109,13.508437983608752
0.024457463109899755,-0.29956563624196897,13.448042994832404
0.024957963610400258,-0.4102581769615145,13.535940530925732
0.02545846411090076,-0.48852721569854907,13.393655684804623
0.025958964611401257,-0.5085988268996549,13.495613203482455
0.02645946511190176,-0.4818184781228373,13.482369223043571
0.026959965612402256,-0.4003209074284836,13.54609932239069
0.02746046611290276,-0.286489112584593,13.581698984644513
0.027960966613403256,-0.15246055952572066,13.446706586428501
0.02846146711390376,0.001672374987390978,13.089877200000547
0.028961967614404255,0.15929741505443396,13.580398710548067
0.029462468114904758,0.3054658295370127,13.526782365059645
0.02996296861540526,0.4199262398400577,13.296787137992249
0.030463469115905757,0.4793095108508142,13.351833661907788
0.03096396961640626,0.5110291222782875,13.507976831043669
0.031464470116906756,0.4824805995358204,13.317718964958262
0.03196497061740726,0.40412577851390913,13.423008571299652
0.032465471117907756,0.29495902227761384,13.5070463975484
0.03296597161840826,0.14844237030118465,13.461453500662282
0.033466472118908755,-0.0038303983295136287,13.371039743993347
0.03396697261940926,-0.16407211669927863,13.347966122869162
0.03446747311990976,-0.3015380308021801,13.590690997172976
0.03496797362041026,-0.4156108051530467,13.56393305819255
0.03546847412091076,-0.48874108019764284,13.36794464208305
0.03596897462141126,-0.5075025086853778,13.689771737941662
0.03646947512191176,-0.47843556147517097,13.391934319345655
0.036969975622412256,-0.4084120399965581,13.295646436864574
0.03747047612291276,-0.2869346624393567,13.44489446746556
0.037970976623413255,-0.14552852149658507,13.504317840294524
0.03847147712391376,0.007938262922389859,13.351563943693563
0.03897197762441426,0.16998143662982304,13.497386344381187
0.03947247812491476,0.29887647060535694,13.331894841584015
0.03997297862541526,0.4147011652013449,13.316749002875488
0.04047347912591576,0.48592177992026336,13.290061424821744
0.04097397962641626,0.5049897532185407,13.43234328197773
0.04147448012691676,0.47555337563933775,13.681361163876305
0.04197498062741726,0.3998685188472814,13.340944526755678
0.04247548112791776,0.2939013691787019,13.394215038938679
0.04297598162841826,0.15143613026270117,13.382240965655013
0.04347648212891876,-0.007149201128672657,13.439212977102136
0.04397698262941926,-0.1648880420094278,13.42311552973822
0.04447748312991976,-0.3094452856480676,13.450385805172177
0.04497798363042026,-0.4175333856919199,13.406201617198057
0.04547848413092076,-0.4821033055246363,13.424788956563116
0.04597898463142126,-0.5059926218863421,13.597956374084882
0.04647948513192176,-0.47769262014746133,13.43509554219033
0.04697998563242226,-0.40400852140312526,13.38186885812829
0.04748048613292276,-0.2906587887240257,13.684454525819389
0.04798098663342326,-0.1453057426413241,13.670619859678059
0.04848148713392376,0.012556961284229975,13.400608884286102
0.04898198763442426,0.1683819875570467,13.124339394849926
0.04948248813492476,0.306602592502238,13.558206998272256
0.04998298863542526,0.414845855435891,13.381783009304689
0.050483489135925756,0.4868981574511868,13.618671048779321
0.05098398963642626,0.5073111035442436,13.60985047130152
0.05148449013692676,0.4794152758622509,13.44715160739102
0.05198499063742726,0.4029370857700968,13.419992478019466
0.05248549113792776,0.2844719448122529,13.416949334531862
0.05298599163842826,0.13743194717383364,13.61506385203276
0.05348649213892876,-0.011915945423826405,13.501189204661316
0.05398699263942926,-0.1709728947536079,13.466933499972797
0.05448749313992976,-0.31532923480615427,13.332905052926082
0.054987993640430256,-0.41972200512221625,13.35458681350503
0.05548849414093076,-0.48219125870909074,13.375521115068073
0.05598899464143126,-0.506380131176466,13.492763674531723
0.05648949514193176,-0.4726852706478012,13.414927168234366
0.05698999564243226,-0.4060322105774167,13.299262322194858
0.05749049614293276,-0.2831107362340935,13.667778887739777
0.05799099664343326,-0.14155612841409715,13.369396977757068
0.05849149714393376,0.013761795036884718,13.524200694666716
0.05899199764443426,0.1710698450386539,13.697804386047064
0.059492498144934756,0.3099459798291684,13.47960094106178
0.05999299864543526,0.42077096892857146,13.520997144771899
0.06049349914593576,0.4874985720686746,13.481300804611369
0.06099399964643626,0.5006276877056919,13.559280743216412
0.06149450014693676,0.47314593687633033,13.589158513466472
0.06199500064743726,0.4075227487740256,13.417508922339213
0.06249550114793776,0.28456222656561575,13.424785237050953
0.06299600164843826,0.14047092556791396,13.146031623748357
0.06349650214893876,-0.01245659277115787,13.662395340131363
0.06399700264943925,-0.1743739520218865,13.692211275493499
0.06449750314993975,-0.3138742373357217,13.43294192271931
0.06499800365044026,-0.41887456088453684,13.351724287426942
0.06549850415094076,-0.48445442349681733,13.722361031857591
0.06599900465144126,-0.5069910719479731,13.396716297095232
0.06649950515194175,-0.47637423087753683,13.748845844704928
0.06700000565244225,-0.4010330058651131,13.377892224017877
0.06750050615294276,-0.2839414722967669,13.28905727315095
0.06800100665344326,-0.1401460380245454,13.49398013150293
0.06850150715394375,0.027791093440587313,13.311570671095796
0.06900200765444425,0.17123400103899677,13.537866458605428
0.06950250815494476,0.31467756490658083,13.336703222922878
0.07000300865544526,0.4210112899412611,13.322765458204879
0.07050350915594576,0.48721532348500224,13.355966142094132
0.07100400965644625,0.5036377914010138,13.412532174263164
0.07150451015694675,0.47568943920829343,13.456563383628001
0.07200501065744726,0.39899681287741634,13.41322044043755
0.07250551115794775,0.28752065182265524,13.422656681682032
0.07300601165844825,0.1401467010449611,13.53746251424587
0.07350651215894875,-0.01926928989603887,13.4603624051836
0.07400701265944926,-0.17797347603290478,13.587775290112488
0.07450751315994976,-0.3096315181714561,13.385960099335309
0.07500801366045025,-0.42251966045390443,13.453585865975217
0.07550851416095075,-0.48920033774475835,13.384494615883236
0.07600901466145125,-0.5083550463995097,13.36071069798787
0.07650951516195176,-0.4728238972935047,13.59131474033526
0.07701001566245225,-0.3977551494446592,13.508484529611376
0.07751051616295275,-0.28343085283928565,13.641454106847727
0.07801101666345325,-0.13335211758995705,13.394747608875823
0.07851151716395376,0.022663363577509383,13.54222763861185
0.07901201766445426,0.17399167453841066,13.562576943717735
0.07951251816495475,0.31972224275576105,13.632740929154837
0.08001301866545525,0.42239181072641935,13.439053348428658
0.08051351916595575,0.49266332218233094,13.688622161565355
0.08101401966645626,0.508172568034054,13.613028513969054
0.08151452016695675,0.4782445218778643,13.372385617678814
0.08201502066745725,0.3960664247045602,13.493938417093869
0.08251552116795775,0.279906549833246,13.472953233098615
0.08301602166845826,0.12815997342941376,13.284641575130854
0.08351652216895876,-0.021752931308823935,13.404727332186704
0.08401702266945925,-0.17841730672455178,13.534831461476204
0.08451752316995975,-0.31666485301005565,13.626372480909243
0.08501802367046025,-0.42222266127583613,13.368518061759593
0.08551852417096076,-0.48720459720773573,13.458335095749693
0.08601902467146125,-0.5098026077948361,13.470019915263915
0.08651952517196175,-0.47938233965901855,13.413566817617733
0.08702002567246225,-0.4001034527388594,13.439206191709895
0.08752052617296276,-0.27291129797885655,13.213057917243393
0.08802102667346326,-0.13675714652900753,13.293681333250003
0.08852152717396375,0.03216857521884386,13.407968574488892
0.08902202767446425,0.1828752467387471,13.291030111372423
0.08952252817496476,0.3253148935928214,13.173078420997548
0.09002302867546526,0.42265013497969667,13.343320273590948
0.09052352917596575,0.4862304363481358,13.681487712129032
0.09102402967646625,0.5103493526893694,13.48103524191792
0.09152453017696675,0.4769521523748722,13.431062745186553
0.09202503067746726,0.3978042806466148,13.36452665861552
0.09252553117796775,0.27404239661799695,13.631879717052223
0.09302603167846825,0.12520780214703522,13.350654474218155
0.09352653217896875,-0.031196789519760612,13.27483009226429
0.09402703267946926,-0.1798124518292636,13.543793533514387
0.09452753317996976,-0.3185019815570579,13.297876557891133
0.09502803368047025,-0.42145363610981035,13.468188366432262
0.09552853418097075,-0.49005598232418557,13.4127641864424
0.09602903468147125,-0.5023759899391027,13.397102502720012
0.09652953518197176,-0.4708123049667287,13.163442880674593
0.09703003568247225,-0.3934379978473847,13.500732889162654
0.09753053618297285,-0.27695181672980224,13.583597898385367
0.09803103668347325,-0.13438894246611086,13.517388381306896
0.09853153718397376,0.02702528216761323,13.31445590486179
0.09903203768447426,0.18551149318662777,13.527072847853935
0.09953253818497475,0.32707833266022723,13.585856978468398
0.10003303868547535,0.4318403110761,13.523135308634847
0.10053353918597585,0.49144539935525505,13.241797787345
0.10103403968647626,0.5054735428065662,13.59958837011763
0.10153454018697675,0.46977159819701514,13.418199472727391
0.10203504068747735,0.3942571712468843,13.477113512143116
0.10253554118797785,0.274544443962046,13.343196038901759
0.10303604168847835,0.12858104629803774,13.418278339400757
0.10353654218897876,-0.029086598517096367,13.314692555810339
0.10403704268947925,-0.18469063464587754,13.496578972111703
0.10453754318997985,-0.3206441388390989,13.530190046447913
0.10503804369048035,-0.42777396023906933,13.455893711464103
0.10553854419098085,-0.4885027761551526,13.616554417600053
0.10603904469148125,-0.5077351637259407,13.43841716296206
0.10653954519198185,-0.47463378749827034,13.310783917224732
0.10704004569248235,-0.39352716770204355,13.406893927712318
0.10754054619298285,-0.27044555238231055,13.50905451729206
0.10804104669348336,-0.12596499041789913,13.36145772995836
0.10854154719398375,0.033600008565249175,13.4149375883094
0.10904204769448435,0.1858076196577553,13.4900689200002
0.10954254819498485,0.3271751765726637,13.616179698034152
0.11004304869548535,0.4296170347622637,13.535211537565822
0.11054354919598586,0.49435556853664636,13.268862099636731
0.11104404969648635,0.5078196717022952,13.522134929250429
0.11154455019698685,0.4681422379780315,13.334331123071044
0.11204505069748735,0.38688449490290727,13.532546778593908
0.11254555119798786,0.27459928853859883,13.331855836954853
0.11304605169848836,0.12786104806433496,13.322452326762098
0.11354655219898885,-0.03641554658703423,13.287891921411328
0.11404705269948935,-0.18727913753857914,13.561133555291493
0.11454755319998985,-0.3270294010143478,13.403736575118865
0.11504805370049036,-0.4373972763269276,13.293989489562657
0.11554855420099085,-0.4921678072106704,13.380052133935447
0.11604905470149135,-0.5033037724781214,13.5227819971866
0.11654955520199185,-0.4717713222639607,13.35209207041449
0.11705005570249236,-0.3903510701153472,13.638508685698888
0.11755055620299286,-0.26592955223970904,13.529241932014909
0.11805105670349335,-0.123869045480437,13.591475779797063
0.11855155720399385,0.03175050554821722,13.446157075455181
0.11905205770449435,0.19325358279224197,13.558725739015646
0.11955255820499486,0.3243775626767241,13.350156852641854
0.12005305870549535,0.43676124455466303,13.46900664500053
0.12055355920599585,0.48931656690372843,13.479535647227738
0.12105405970649635,0.5015044901249187,13.312407313978888
0.12155456020699686,0.47391579509061715,13.614300326578052
0.12205506070749736,0.3875481719664962,13.52874855703664
0.12255556120799785,0.26581130158478267,13.536376251774024
0.12305606170849835,0.12281031807247582,13.413441272938636
0.12355656220899885,-0.03985548925685064,13.32636893609553
0.12405706270949936,-0.190370730362719,13.44419623116241
0.12455756320999985,-0.32575706230565216,13.406816618712572
0.12505806371050035,-0.4358745782509205,13.57764548537722
0.12555856421100087,-0.4928574182649038,13.23861260842797
0.12605906471150136,-0.5032397454945994,13.504979755265165
0.12655956521200187,-0.46379121744452045,13.306194218453705
0.12706006571250236,-0.38540104180163537,13.698809653169297
0.12756056621300285,-0.2663133088312599,13.47975408569697
0.12806106671350337,-0.12305179060609193,13.855378001473236
0.12856156721400386,0.03655484313260763,13.564922520368778
0.12906206771450435,0.198518901144516,13.896717425849545
0.12956256821500486,0.33024989364376317,13.32401039427216
0.13006306871550535,0.42996513879645853,13.409425232073763
0.13056356921600587,0.49454845904972833,13.496230969886502
0.13106406971650636,0.5078110666136203,13.265998024847788
0.13156457021700685,0.4663144875810598,13.64849143024575
0.13206507071750737,0.3865627950438674,13.510358093005344
0.13256557121800785,0.2620179884787737,13.406677850337005
0.13306607171850837,0.12379510279178305,13.508187142197034
0.13356657221900886,-0.03793607059028366,13.642877923184848
0.13406707271950935,-0.19106259687515723,13.49451934974267
0.13456757322000984,-0.32277254414185447,13.533978581428492
0.13506807372051036,-0.4307952501912308,13.432138983374497
0.13556857422101085,-0.494009615194267,13.479996072920672
0.13606907472151136,-0.508940909741631,13.645997953449882
0.13656957522201185,-0.4714683835802916,13.480481557580697
0.13707007572251234,-0.3827324277030505,13.615943275626348
0.13757057622301286,-0.26193553062521785,13.44861368525006
0.13807107672351335,-0.1157530283346298,13.456487535313396
0.13857157722401386,0.04316717200683102,13.353986924979116
0.13907207772451435,0.19620813109334898,13.641697264606613
0.13957257822501484,0.3317759869035228,13.317558069170541
0.14007307872551536,0.4341921887639112,13.55961136323302
0.14057357922601585,0.4957712670067301,13.41402571557304
0.14107407972651637,0.5052277798678392,13.408134241313128
0.14157458022701686,0.46935216905954,13.43113604275424
0.14207508072751734,0.3855897683136391,13.231923482064206
0.14257558122801786,0.2613535323038264,13.156410179217374
0.14307608172851835,0.11928310884581286,13.393390450983267
0.14357658222901884,-0.041248848115415064,13.641067364267899
0.14407708272951936,-0.1976754929962392,13.502247096888148
0.14457758323001985,-0.3334607194598621,13.39816156115263
0.14507808373052036,-0.4383521163813574,13.39126745618665
0.14557858423102085,-0.489688676982267,13.508573577060945
0.14607908473152134,-0.5079256757125455,13.425772802047799
0.14657958523202186,-0.46758928133874367,13.545831609957432
0.14708008573252235,-0.38716462801049917,13.638036050668044
0.14758058623302286,-0.26735596962153474,13.68107404218178
0.14808108673352335,-0.11976305287877347,13.511887667852436
0.14858158723402384,0.04421924923769823,13.515931557560906
0.14908208773452436,0.1990294260348202,13.295126532864826
0.14958258823502485,0.3310415147373833,13.766538166832117
0.15008308873552537,0.433773502212165,13.442843034070282
0.15058358923602586,0.4921460872397008,13.580171038114628
0.15108408973652634,0.5060561734977136,13.261327863570061
0.15158459023702686,0.46343685994068273,13.369640942311467
0.15208509073752735,0.3795013712171633,13.406447499064685
0.15258559123802784,0.2559897747125399,13.580920930585615
0.15308609173852836,0.11191189233171421,13.573584260795169
0.15358659223902885,-0.049698961750314345,13.792711128337604
0.15408709273952936,-0.19814051601514868,13.423869672555846
0.15458759324002985,-0.3363647756300367,13.479775505308469
0.15508809374053034,-0.44312408431868217,13.785784620100547
0.15558859424103086,-0.49899925578698584,13.749993881687818
0.15608909474153135,-0.5081535153251072,13.307545728415207
0.15658959524203186,-0.4676863529190851,13.265473028901962
0.15709009574253235,-0.38094320038323404,13.620844604005164
0.15759059624303284,-0.2588840108984572,13.408511433751721
0.15809109674353336,-0.11147583081330939,13.525260241520627
0.15859159724403385,0.04697461838675611,13.279228541616972
0.15909209774453437,0.20153734775507978,13.504255282647314
0.15959259824503486,0.3334967584147147,13.544193152151223
0.16009309874553534,0.43562851194869256,13.391446987319444
0.16059359924603586,0.4900503350236615,13.532213489168834
0.16109409974653635,0.5086850296565236,13.225310442587107
0.16159460024703684,0.4685748619032986,13.619290545237991
0.16209510074753736,0.38316984132300747,13.710399439712125
0.16259560124803785,0.2568377651720986,13.416605703730125
0.16309610174853836,0.1094749719413856,13.394795011524621
0.16359660224903885,-0.04982431524817034,13.451502470377784
0.16409710274953934,-0.19991857859629564,13.389021661217887
0.16459760325003986,-0.33144678807950256,13.48965830045453
0.16509810375054035,-0.4369356555432371,13.50837521788048
0.16559860425104087,-0.4982282951090861,13.66669275064336
0.16609910475154135,-0.5076424052368664,13.368987631784448
0.16659960525204184,-0.46255437516122827,13.512719821771741
0.16710010575254236,-0.38111629990617607,13.291607112361469
0.16760060625304285,-0.2590830668296696,13.460387284255797
0.16810110675354334,-0.10610372017526365,13.382862798788695
0.16860160725404386,0.05333320845836321,13.279714918653857
0.16910210775454435,0.20551940972733404,13.429484675817664
0.16960260825504486,0.33726775090374667,13.351540106935246
0.17010310875554535,0.43796055402681333,13.351681422216735
0.17060360925604584,0.4967124722309402,13.546347278473329
0.17110410975654636,0.5079393895711449,13.411569861174895
0.17160461025704685,0.46076566591368423,13.208182664936995
0.17210511075754736,0.3823985936464898,13.463334634491925
0.17260561125804785,0.25817619433052386,13.283554842473182
0.17310611175854834,0.10534391713052693,13.449224388907274
0.17360661225904886,-0.04397857208007952,13.699263881362887
0.17410711275954935,-0.20456557181274893,13.510059782307986
0.17460761326004987,-0.33998355084146087,13.498025175268966
