Time,Vin,Vout
0.0,0.0,0.0
0.0005005005005005005,0.15411881148759704,0.0050135233355077195
0.001001001001001001,0.29360780619065135,0.008529548004838324
0.0015015015015015015,0.40283537950541964,0.016096057086319605
0.002002002002002002,0.47497975259687636,0.027940683757866357
0.0025025025025025025,0.49793643277341026,0.04372582758806939
0.003003003003003003,0.47336651123496426,0.06135879942428451
0.0035035035035035035,0.403085595518061,0.07890897789597888
0.004004004004004004,0.29146556545198715,0.09391424506184647
0.0045045045045045045,0.152949653931125,0.10479630352547688
0.005005005005005005,-0.0016184077449978296,0.1093770752660422
0.0055055055055055055,-0.15547232674672504,0.10712440964053603
0.006006006006006006,-0.2949432495585677,0.09775852424082966
0.0065065065065065065,-0.4037533671644015,0.08118880324246493
0.007007007007007007,-0.47534052924742265,0.05924687431516077
0.0075075075075075074,-0.4979922132384345,0.03302764140363004
0.008008008008008008,-0.4728176717031505,0.005007720278754319
0.008508508508508508,-0.4022603673823348,-0.02272191715916749
0.009009009009009009,-0.2901921020159739,-0.047590014057978
0.00950950950950951,-0.15142182845898272,-0.0680302465640561
0.01001001001001001,0.003187260512030665,-0.08188004836117746
0.01051051051051051,0.15694310396752512,-0.08855499813907607
0.011011011011011011,0.29627869292648407,-0.08787831660105853
0.011511511511511512,0.40467135482338346,-0.0796604212483345
0.012012012012012012,0.47570130589796894,-0.06583424215507742
0.012512512512512512,0.49804799370345876,-0.04749235904618639
0.013013013013013013,0.4722688321713367,-0.027104169534352074
0.013513513513513514,0.40143513924660823,-0.006782889945989079
0.014014014014014014,0.28891863857996064,0.01089913870112132
0.014514514514514514,0.14989400298684116,0.024343815689726322
0.015015015015015015,-0.004756113279063778,0.03146281278725866
0.015515515515515516,-0.1584138811883254,0.03157224132278067
0.016016016016016016,-0.29761413629440014,0.02458157157455689
0.016516516516516516,-0.405589342482365,0.010229972300803606
0.017017017017017015,-0.4760620825485152,-0.009521882497469996
0.017517517517517518,-0.49810377416848295,-0.033547180870120416
0.018018018018018018,-0.4717199926395231,-0.05942863350029161
0.018518518518518517,-0.400609911110882,-0.0850503878552383
0.01901901901901902,-0.28764517514394705,-0.10781426302247503
0.01951951951951952,-0.14836617751469833,-0.12615474091677079
0.02002002002002002,0.006324966046096989,-0.13802816604980875
0.02052052052052052,0.15988465840912522,-0.1426869783671134
0.02102102102102102,0.2989495796623155,-0.14014587173653137
0.021521521521521522,0.4065073301413471,-0.13004959062146393
0.022022022022022022,0.4764228591990617,-0.1144422028532264
0.02252252252252252,0.4981595546335072,-0.09446068884321573
0.023023023023023025,0.4711711531077092,-0.07249853517014318
0.023523523523523524,0.3997846829751562,-0.050692266986979526
0.024024024024024024,0.28637171170793374,-0.031644395487722764
0.024524524524524523,0.1468383520425564,-0.01693595013901316
0.025025025025025023,-0.007893818813129894,-0.008546362380344303
0.025525525525525526,-0.1613554356299252,-0.0073091285006162375
0.026026026026026026,-0.30028502303023175,-0.01312126618377732
0.026526526526526525,-0.40742531780032876,-0.026412635505444378
0.02702702702702703,-0.47678363584960803,-0.045097311021149396
0.027527527527527528,-0.49821533509853144,-0.06801227999439381
0.028028028028028028,-0.47062231357589546,-0.09280526936046653
0.028528528528528527,-0.39895945483942996,-0.11733483734558056
0.029029029029029027,-0.28509824827192215,-0.1389760114142586
0.02952952952952953,-0.14531052657041396,-0.15616811740368391
0.03003003003003003,0.009462671580164075,-0.16698310706457378
0.03053053053053053,0.16282621285072502,-0.1705150669944051
0.031031031031031032,0.30162046639814866,-0.1669698035036279
0.03153153153153153,0.40834330545930997,-0.1558263485965742
0.03203203203203203,0.4771444125001543,-0.13924343389638477
0.032532532532532535,0.49827111556355563,-0.11839972576504995
0.03303303303303303,0.47007347404408206,-0.095616695021109
0.033533533533533534,0.39813422670370313,-0.073054027252857
0.03403403403403403,0.2838247848359081,-0.05334421938548015
0.03453453453453453,0.14378270109827238,-0.03805429346324167
0.035035035035035036,-0.011031524347196286,-0.029052551229477648
0.03553553553553553,-0.1642969900715248,-0.02732525944475403
0.036036036036036036,-0.3029559097660646,-0.032575930185105774
0.03653653653653654,-0.40926129311829235,-0.04540316770944715
0.037037037037037035,-0.4775051891507006,-0.06359845547578177
0.03753753753753754,-0.49832689602857977,-0.08596074494466578
0.03803803803803804,-0.4695246345122679,-0.11020534274731413
0.03853853853853854,-0.39724289687910597,-0.13416078196467066
0.03903903903903904,-0.2825513213998941,-0.15518860865199707
0.03953953953953954,-0.14225487562613043,-0.17172164126478678
0.04004004004004004,0.012600377114227748,-0.1819504856100891
0.04054054054054054,0.16576776729232495,-0.18481294838989193
0.04104104104104104,0.3041475994323603,-0.1806723208256275
0.04154154154154154,0.410179280777273,-0.168942999781391
0.04204204204204204,0.47786596580124685,-0.1517989173552488
0.04254254254254254,0.49838267649360385,-0.13049301213422462
0.043043043043043044,0.46897579498045355,-0.10727641248573963
0.04354354354354354,0.39617299319393023,-0.08435335785707036
0.044044044044044044,0.28127785796388,-0.06432247841989193
0.04454454454454455,0.1407270501539864,-0.048801969911910326
0.04504504504504504,-0.014169229881262055,-0.03952684347141036
0.045545545545545546,-0.16723854451312475,-0.037637483380224976
0.04604604604604605,-0.305296388607692,-0.042721603423934607
0.046546546546546545,-0.41109726843625566,-0.05531384559332174
0.04704704704704705,-0.4782267424517931,-0.07331690152479449
0.047547547547547545,-0.49843845695862804,-0.09541342644234163
0.04804804804804805,-0.46842695544864044,-0.11938738819436817
0.04854854854854855,-0.3951030895087541,-0.14300856232415682
0.04904904904904905,-0.28000439452786824,-0.1637116795630404
0.04954954954954955,-0.13919922468184617,-0.1798372830689621
0.050050050050050046,0.015738082648293183,-0.18972297881943623
0.05055055055055055,0.1687093217339229,-0.19215115935894472
0.05105105105105105,0.30644517778301794,-0.18758902332603375
0.05155155155155155,0.4120152560952365,-0.17554756122294313
0.05205205205205205,0.4785875191023393,-0.15805541431705472
0.052552552552552555,0.4984942374236522,-0.13649311336934516
0.05305305305305305,0.4678781159168261,-0.11304213492614551
0.053553553553553554,0.3940331858235773,-0.0899638517812266
0.05405405405405406,0.2787309310918528,-0.06978579306793303
0.05455455455455455,0.13767139920970428,-0.05421516734824982
0.055055055055055056,-0.01730693541532824,-0.04484095643299385
0.05555555555555555,-0.17018009895472413,-0.042958210954264775
0.056056056056056056,-0.30759396695834945,-0.04804931490765668
0.05655655655655656,-0.4129332437542202,-0.06055404051042312
0.057057057057057055,-0.4789482957528856,-0.0785176906316663
0.05755755755755756,-0.4985500178886765,-0.10049607077972197
0.058058058058058054,-0.4673292763850136,-0.12434224430817392
0.05855855855855856,-0.39296328213840376,-0.14776760935070274
0.05905905905905906,-0.2774574676558405,-0.1682794229409155
0.059559559559559556,-0.13614357373756233,-0.18412701689909516
0.06006006006006006,0.01887578818236113,-0.1937945875772821
0.06056056056056056,0.1716508761755245,-0.19590945532964157
0.06106106106106106,0.30874275613367536,-0.1910430613702157
0.06156156156156156,0.41385123141319985,-0.1788024436436294
0.062062062062062065,0.47930907240343235,-0.1610718303204855
0.06256256256256257,0.4986057983537008,-0.13935901988034227
0.06306306306306306,0.4667804368531999,-0.11577610476363807
0.06356356356356356,0.39189337845322636,-0.09264188614033982
0.06406406406406406,0.27618400421982736,-0.07241233915664722
0.06456456456456457,0.1346157482654199,-0.05688440876040378
0.06506506506506507,-0.020444640949397824,-0.04750079178138558
0.06556556556556556,-0.17312165339632218,-0.04571141337788714
0.06606606606606606,-0.30989154530900387,-0.05089358708615609
0.06656656656656657,-0.41476921907218395,-0.06339183989659702
0.06706706706706707,-0.4796698490539767,-0.08139468193696647
0.06756756756756757,-0.4986615788187276,-0.10333086869431296
0.06806806806806806,-0.46623159732138636,-0.12712271963657396
0.06856856856856856,-0.39082347476804885,-0.1504234831487011
0.06906906906906907,-0.27491054078381544,-0.17081263151867349
0.06956956956956957,-0.13308792279327814,-0.18644877581043506
0.07007007007007007,0.022013493716430105,-0.1959625468532035
0.07057057057057058,0.17459243061712557,-0.1978263155485881
0.07107107107107107,0.3110403344843304,-0.19271596529625584
0.07157157157157157,0.4156872067311665,-0.18033432393247784
0.07207207207207207,0.48003062570452165,-0.1624216099624423
0.07257257257257257,0.49871735928375466,-0.14061276919188154
0.07307307307307308,0.46568275778957147,-0.11695060264608748
0.07357357357357357,0.3897535710828716,-0.09381151467235307
0.07407407407407407,0.2736370773478037,-0.07357971328091113
0.07457457457457457,0.13156009732113644,-0.05814221125460755
0.07507507507507508,-0.023582346483462385,-0.04879532833044797
0.07557557557557558,-0.1760632078379249,-0.047143933158380655
0.07607607607607608,-0.3121891236596603,-0.05246042172362001
0.07657657657657657,-0.4166051943901492,-0.06499389948537491
0.07707707707707707,-0.4803914023550668,-0.08307635587900952
0.07757757757757758,-0.4987731397487819,-0.10500942670620218
0.07807807807807808,-0.4651339182577583,-0.12878473789249062
0.07857857857857858,-0.3886836673976896,-0.15199752170209013
0.07907907907907907,-0.27236361391179204,-0.1722993199447807
0.07957957957957958,-0.13003227184899363,-0.18775824599298654
0.08008008008008008,0.025151199250494888,-0.19715131322987886
0.08058058058058058,0.17753398505872595,-0.19879597891895265
0.08108108108108109,0.31333791283498913,-0.19347268531163542
0.08158158158158157,0.4175231820491315,-0.18097992975442254
0.08208208208208208,0.4807521790056129,-0.16291410377616497
0.08258258258258258,0.4988289202138094,-0.1410372625258403
0.08308308308308308,0.46458507872594496,-0.11732294016703011
0.08358358358358359,0.3876137637125131,-0.09420524598336702
0.08408408408408408,0.27109015047578117,-0.07399652147152691
0.08458458458458458,0.12850444637685102,-0.05867399668428997
0.08508508508508508,-0.02672005201752692,-0.04938758716843017
0.08558558558558559,-0.1790047622795272,-0.04789712096779383
0.08608608608608609,-0.31448670201031603,-0.053370165196865785
0.08658658658658659,-0.4184411697081171,-0.06596032180294609
0.08708708708708708,-0.4811129556561584,-0.08414318160555859
0.08758758758758758,-0.4988847006788371,-0.10609324206838404
0.08808808808808809,-0.46403623919413134,-0.12987144490700855
0.08858858858858859,-0.3865438600273364,-0.15301508348844112
0.0890890890890891,-0.26981668703976613,-0.1732477015712887
0.08958958958958958,-0.12697662090470951,-0.18854701442446486
0.09009009009009009,0.0282889047845592,-0.19783640583012438
0.09059059059059059,0.18047553950032677,-0.19927842382178326
0.09109109109109109,0.3156354911856431,-0.19375813669738617
0.0915915915915916,0.4193591573671004,-0.18116965566378052
0.0920920920920921,0.48147373230670515,-0.16296562638790793
0.09259259259259259,0.498940481143865,-0.14103520615118548
0.09309309309309309,0.4634873996623188,-0.11728266303034458
0.0935935935935936,0.3854739563421598,-0.09419986966752039
0.0940940940940941,0.2685432236037549,-0.07402725525348956
0.0945945945945946,0.12544879543256382,-0.05883233306468214
0.09509509509509509,-0.02985775755159145,-0.049618610960180956
0.09559559559559559,-0.18194631672112643,-0.048300874530990454
0.0960960960960961,-0.3167842803609702,-0.053941912780190636
0.0965965965965966,-0.4202771450260838,-0.06659978649754476
0.0970970970970971,-0.4818345089572511,-0.08489374141539507
0.09759759759759759,-0.4989962616088931,-0.10687113590838732
0.0980980980980981,-0.4629385601305064,-0.1306622238045836
0.0985985985985986,-0.38440405265698335,-0.15374640364762562
0.0990990990990991,-0.2672697601677437,-0.17391919023079072
0.0995995995995996,-0.1239209699604204,-0.18906794407671623
0.10010010010010009,0.03142501804129074,-0.19825864046756947
0.1006006006006006,0.18341709394192618,-0.1995102537183311
0.1011011011011011,0.3179330695362975,-0.19380117600711405
0.1016016016016016,0.4211951326850674,-0.18112488718092085
0.1021021021021021,0.4821952856077981,-0.1627903220828263
0.10260260260260261,0.4988730838206587,-0.14080766591453836
0.1031031031031031,0.46238972059869476,-0.11703014554857197
0.1036036036036036,0.38333414897180657,-0.093989199609127
0.1041041041041041,0.2659962967317321,-0.07385940105281755
0.1046046046046046,0.12239314448827765,-0.058798574622460555
0.10510510510510511,-0.03297460797120373,-0.0497133302520399
0.1056056056056056,-0.18488787116272531,-0.04852488644641061
0.1061061061061061,-0.31908185871162553,-0.054339801405813244
0.1066066066066066,-0.42211312034405163,-0.06707107157499748
0.10710710710710711,-0.48255606225834446,-0.08548162030069555
0.10760760760760761,-0.49862172448817,-0.10750817119579022
0.10810810810810811,-0.4618408810668813,-0.13130078349776306
0.1086086086086086,-0.3822642452866304,-0.15433048631342125
0.1091091091091091,-0.2647228332957212,-0.17444825142029935
0.10960960960960961,-0.12086531901613634,-0.18945110278480873
0.11011011011011011,0.03452419790111247,-0.19845993226449382
0.11061061061061062,0.18635864838352917,-0.1996131725323915
0.1111111111111111,0.3202306478869532,-0.19371952295605396
0.11161161161161161,0.42303110800303556,-0.1809595001108805
0.11211211211211211,0.482916838908891,-0.16249834253796444
0.11261261261261261,0.49837036515568145,-0.14045248808645824
0.11311311311311312,0.4612920415350696,-0.11666845611030946
0.1136136136136136,0.3811943416014544,-0.09367293019113865
0.11411411411411411,0.26344936985971046,-0.07358939772061707
0.11461461461461461,0.11933749354399507,-0.05866600645231462
0.11511511511511512,-0.036073787831021234,-0.04975442190218606
0.11561561561561562,-0.18782942560432905,-0.0486564430561656
0.11611611611611611,-0.32137943706228095,-0.05464826015643926
0.11661661661661661,-0.42394909566201966,-0.06745584890348946
0.11711711711711711,-0.48327761555943777,-0.08598581939167625
0.11761761761761762,-0.49811900582319313,-0.10806861820450733
0.11811811811811812,-0.460743202003256,-0.1318610448535272
0.11861861861861862,-0.38012443791627554,-0.15483883270242446
0.11911911911911911,-0.26217590642369976,-0.17490405118728958
0.11961961961961962,-0.11780966807185388,-0.18976339490351185
0.12012012012012012,0.03762337776093004,-0.19859267867537364
0.12062062062062062,0.18930020282513324,-0.19964978221742555
0.12112112112112113,0.32252822623761207,-0.19357373043417817
0.12162162162162161,0.42486708332100387,-0.18073206961688562
0.12212212212212212,0.4836383922099847,-0.1621463476186941
0.12262262262262262,0.49786764649070503,-0.14003926058577046
0.12312312312312312,0.46019436247144463,-0.11625061093382805
0.12362362362362363,0.37905453423109986,-0.09330234239381113
0.12412412412412413,0.2609024429876857,-0.07326685123560761
0.12462462462462462,0.11628184259971272,-0.05848261257416266
0.12512512512512514,-0.039172967690845384,-0.04974635249396433
0.12562562562562563,-0.19077098004592924,-0.04874044262011104
0.12612612612612611,-0.32367701541293914,-0.05491071781488225
0.12662662662662663,-0.4257850709799921,-0.06779612865250999
0.12712712712712712,-0.4839991688605314,-0.08644697531277742
0.12762762762762764,-0.49761628715821676,-0.10858743174612527
0.12812812812812813,-0.45964552293963495,-0.13238103120844544
0.12862862862862862,-0.3779846305459257,-0.15530822173497158
0.12912912912912913,-0.25962897955167274,-0.17532216698458436
0.12962962962962962,-0.11475401712757236,-0.1900392347102134
0.13013013013013014,0.040722557620754135,-0.1986901665748225
0.13063063063063063,0.19224175726672943,-0.19965228389605005
0.13113113113113112,0.3248258045882674,-0.1933949457395155
0.13163163163163163,0.4267030586389766,-0.1804727254362234
0.13213213213213212,0.48435994551107875,-0.16176348203597596
0.13263263263263264,0.4973649278257291,-0.13959617338834457
0.13313313313313313,0.45909668340782395,-0.11580388043942005
0.13363363363363362,0.3769147268607503,-0.09290381421216964
0.13413413413413414,0.25835551611566243,-0.07291727778671415
0.13463463463463463,0.11322619165543119,-0.05827307501319235
0.13513513513513514,-0.04227214755066293,-0.049712995538963384
0.13563563563563563,-0.19371253448752968,-0.04879997985038404
0.13613613613613612,-0.3259745937635957,-0.05514951334783902
0.13663663663663664,-0.42762104629796144,-0.06811351989636671
0.13713713713713713,-0.48472072216162637,-0.086885990732392
0.13763763763763764,-0.4971135684932416,-0.10908482980355902
0.13813813813813813,-0.45854784387601316,-0.1328803009581152
0.13863863863863865,-0.37584482317556905,-0.15575757180919075
0.13913913913913914,-0.25708205267965223,-0.1757208990410996
0.13963963963963963,-0.11169836618329004,-0.19029632421991466
0.14014014014014015,0.04382173748057175,-0.1987695181564696
0.14064064064064064,0.19518331170833003,-0.1996372411394985
0.14114114114114115,0.3271233829389306,-0.1931991904663492
0.14164164164164164,0.4285390339569463,-0.18019696561564333
0.14214214214214213,0.48508149881217416,-0.16136473724344427
0.14264264264264265,0.4968622091607544,-0.13913772692909632
0.14314314314314314,0.4579990043442026,-0.11534229194882732
0.14364364364364365,0.374774919490394,-0.09249091399813192
0.14414414414414414,0.25580858924364225,-0.07255380231520565
0.14464464464464463,0.11017054071114897,-0.05805008970523631
0.14514514514514515,-0.04537132741048061,-0.04966663115588217
0.14564564564564564,-0.19665408892913042,-0.04884693417267721
0.14614614614614616,-0.3282721721142592,-0.055376137505058855
0.14664664664664664,-0.4294570216159314,-0.06841913784490414
0.14714714714714713,-0.4854422754627222,-0.08731361755993744
0.14764764764764765,-0.49661084982826736,-0.10957121215363708
0.14814814814814814,-0.45745016481238987,-0.1333689145219619
0.14864864864864866,-0.3737050158052191,-0.1561966141973052
0.14914914914914915,-0.25453512580763227,-0.17610966057167282
0.14964964964964964,-0.10864271523900794,-0.1905437689893817
0.15015015015015015,0.0469209173403895,-0.19883954077580904
0.15065065065065064,0.19812486614993577,-0.19961317389301045
0.15115115115115116,0.329420961289588,-0.19299470582426548
0.15165165165165165,0.4303750092749167,-0.17991276199083805
0.15215215215215216,0.4858030521132724,-0.16095782453892665
0.15265265265265265,0.49635949049578054,-0.1386713799757289
0.15315315315315314,0.4569013252805796,-0.11487306081462623
0.15365365365365366,0.3726351121200443,-0.09207062105868877
0.15415415415415415,0.2532616623716225,-0.07218317598538689
0.15465465465465467,0.10711488976685848,-0.05782018717964252
0.15515515515515516,-0.04847050727029843,-0.04961357601979121
0.15565565565565564,-0.19959564337073643,-0.04888741610750502
0.15615615615615616,-0.33056975046491693,-0.05559650091348991
0.15665665665665665,-0.4312929969339021,-0.06871869990245541
0.15715715715715717,-0.48616382876382086,-0.08773538635643603
0.15765765765765766,-0.4961081311632939,-0.11005192825597995
0.15815815815815815,-0.4563524857487695,-0.13385204676257806
0.15865865865865866,-0.3715652084348697,-0.15663035448360682
0.15915915915915915,-0.25198819893561286,-0.1764932935132542
0.15965965965965967,-0.10558706429471756,-0.19078625272887503
0.16016016016016016,0.050020097200207385,-0.1989047647785743
0.16066066066066065,0.20106642059153718,-0.19958446463240379
