Time,Vin,Vout
-0.0051862360836189714,-0.0003417258026565762,-0.0013543310928661094
-0.004685735583118472,0.15093415994418638,0.000836557445597592
-0.004185235082617971,0.27846395585796346,-0.008136683467271678
-0.0036847345821174717,0.3889476224081504,-0.00149701131953214
-0.0031842340816169716,0.45277710935558974,0.0006275014671190288
-0.0026837335811164716,0.484222275126021,0.0003936736396998984
-0.0021832330806159715,0.45134709194386596,0.0036332379702268412
-0.0016827325801154714,0.3879706641620921,0.002578956617399073
-0.0011822320796149718,0.28100729291179904,-0.0018137688963097186
-0.0006817315791144713,0.14900445094929723,-0.003273653541705146
-0.00018123107861397168,-0.00032883654748110103,-0.0027077058225324175
0.0003192694218865288,-0.15172993864959353,-0.0007047848960664457
0.0008197699223870284,-0.27786468222066923,-0.006962541576928936
0.001320270422887529,-0.3901947733701984,-0.0023920100808663683
0.0018207709233880286,-0.4565806344086995,-0.011861144188227243
0.002321271423888528,-0.48206444713553265,-0.018718003897296973
0.002821771924389028,-0.4546313949177285,-0.025956443336172377
0.003322272424889529,-0.38972191720901284,-0.027842623731451986
0.003822772925390029,-0.2807472682472461,-0.02808812097066973
0.0043232734258905284,-0.14156818143861702,-0.021787759164318635
0.004823773926391028,0.004904416032281552,-0.03399488800302228
0.005324274426891528,0.155208802899365,-0.028980038392418566
0.005824774927392029,0.2825199570909068,-0.030773705521981005
0.006325275427892529,0.39259958154245117,-0.03223169733208272
0.006825775928393028,0.4528410073694686,-0.030782817408323036
0.007326276428893528,0.4814037838511583,-0.03470991307313576
0.00782677692939403,0.45697240336940276,-0.03772772876727262
0.008327277429894529,0.3871337395237329,-0.02625698934815333
0.008827777930395029,0.28246427478466724,-0.03422991641017612
0.009328278430895528,0.1455190657410339,-0.03555961926303022
0.009828778931396028,-0.0018530884016076947,-0.03204429136517265
0.01032927943189653,-0.15049514734705682,-0.03299122775487032
0.010829779932397027,-0.285117314932461,-0.039689617903960174
0.01133028043289753,-0.38959211588211423,-0.03748780705895331
0.01183078093339803,-0.4584214112190246,-0.04012700608720082
0.01233128143389853,-0.4770716428466526,-0.04982065703577725
0.012831781934399029,-0.45606981418089265,-0.053478737582846686
0.013332282434899529,-0.3849631870210771,-0.04702479031663873
0.013832782935400028,-0.28020190743780976,-0.05434004555521132
0.014333283435900528,-0.141698252109537,-0.054937638607133854
0.014833783936401028,0.00496764743903008,-0.065232756592124
0.015334284436901527,0.15149835538350132,-0.06704995642023998
0.01583478493740203,0.28485837435708794,-0.06382831618959417
0.01633528543790253,0.39213483261246296,-0.06426634886641677
0.016835785938403028,0.45760563437671775,-0.06057605784337636
0.01733628643890353,0.4794127593790914,-0.06767984317361647
0.017836786939404027,0.4542967515063589,-0.05833605277054435
0.01833728743990453,0.38553729062951514,-0.05802338845899542
0.018837787940405026,0.2768408741951722,-0.06554445712606101
0.01933828844090553,0.13727107736540947,-0.06417370477458144
0.019838788941406026,-0.0007745242096707568,-0.06530429852409528
0.02033928944190653,-0.15791038757096218,-0.07195492778063124
0.020839789942407032,-0.28750994018490256,-0.06562638366700646
0.021340290442907528,-0.39073471736032556,-0.06979347621408256
0.02184079094340803,-0.4540354920773706,-0.07993371247124811
0.022341291443908527,-0.4814496987163251,-0.07793943543401836
0.02284179194440903,-0.4522170053221018,-0.0811492528245769
0.023342292444909526,-0.384321495933337,-0.08532495970784289
0.02384279294541003,-0.2784884888647603,-0.0885641685503634
0.024343293445910526,-0.13601730815060914,-0.08543136502632069
0.02484379394641103,0.011857282447921447,-0.08454600284497633
0.025344294446911532,0.16115652300350294,-0.0909403255435078
0.025844794947412028,0.2884095870334476,-0.09626996803888856
0.02634529544791253,0.39178178601007735,-0.09389557632846933
0.026845795948413027,0.4580170107865367,-0.0904225618757664
0.02734629644891353,0.47709965976634483,-0.09404356285650381
0.027846796949414034,0.4531875145592277,-0.09085340918874939
0.02834729744991453,0.3769655795239861,-0.09037409295800093
0.028847797950415033,0.2811705147706362,-0.09249714026499416
0.02934829845091553,0.14376081745574235,-0.0919774239209003
0.029848798951416032,-0.010913778546852097,-0.0947872678139732
0.030349299451916528,-0.16231663707109958,-0.09714742344409272
0.03084979995241703,-0.29142021707331073,-0.09975613913060252
0.03135030045291753,-0.39233565655339664,-0.09195206852304141
0.03185080095341803,-0.45771288216732203,-0.10436960674007112
0.032351301453918534,-0.47887457623028923,-0.10955559691462509
0.03285180195441903,-0.4489585560110608,-0.10158985651363248
0.03335230245491953,-0.383285839804897,-0.10920531134825134
0.03385280295542003,-0.27507905717009723,-0.10988573682256594
0.03435330345592053,-0.14101675817013248,-0.11815229315277714
0.03485380395642103,0.011683918240159283,-0.12223434584477244
0.03535430445692153,0.15574561683595295,-0.1231312266502523
0.03585480495742203,0.29054244354634556,-0.11727666545862712
0.03635530545792253,0.3935354277477127,-0.11916612765523948
0.03685580595842303,0.45203892622672215,-0.12499507127598795
0.03735630645892353,0.4823804444761431,-0.11644171135866331
0.03785680695942403,0.44801943410333317,-0.11404478498875005
0.03835730745992453,0.3746110317027548,-0.11440272514253963
0.03885780796042503,0.26808961596781183,-0.11676659548800125
0.03935830846092553,0.13419014311900035,-0.11473439520110121
0.03985880896142603,-0.014902672273874764,-0.11802932201644542
0.04035930946192653,-0.16431812465095086,-0.12572603966615004
0.04085980996242703,-0.2959929946076458,-0.12747416817043783
0.04136031046292753,-0.3984041890390565,-0.13027138664446974
0.04186081096342803,-0.4640819045136733,-0.13153837812236197
0.04236131146392853,-0.47607551781470075,-0.13309244634480522
0.04286181196442903,-0.4518973765356138,-0.1324814323518462
0.04336231246492953,-0.37686168066575515,-0.13549155755720105
0.04386281296543003,-0.2720335821258216,-0.13750928110396618
0.04436331346593053,-0.13230353134088518,-0.15172583963890915
0.04486381396643103,0.014110943070819743,-0.14676390665025224
0.04536431446693153,0.16466670718056783,-0.15116370913915728
0.04586481496743203,0.29097414925238013,-0.15074246731504673
0.04636531546793253,0.3971827057005308,-0.14499507862481634
0.04686581596843303,0.46184787987416787,-0.14610790902373175
0.04736631646893353,0.4791859968998191,-0.140195534947708
0.04786681696943403,0.449038761398777,-0.13705733249861804
0.04836731746993453,0.3743994043578142,-0.14366686044073132
0.04886781797043503,0.269890778322117,-0.13948359016279455
0.04936831847093553,0.1327003525574334,-0.14132352209151655
0.04986881897143603,-0.022256800973014794,-0.14455637910962474
0.05036931947193653,-0.1645945092743594,-0.1418505953247361
0.05086981997243703,-0.29343554648182274,-0.15172230416916896
0.05137032047293753,-0.3985532767229571,-0.14312355696055587
0.05187082097343803,-0.45504517584054294,-0.15067992090159135
0.05237132147393853,-0.4821358304141937,-0.16157733034316915
0.05287182197443903,-0.4483759825916852,-0.16034902113027905
0.05337232247493953,-0.37780509655826866,-0.16685756808460175
0.05387282297544003,-0.2682073382880371,-0.16314365472099587
0.05437332347594053,-0.12783378111208932,-0.17290951237354682
0.05487382397644103,0.015781790586929002,-0.17212394226671712
0.05537432447694153,0.1640332383088542,-0.1696387287081566
0.055874824977442034,0.2935240085565451,-0.16651742019485544
0.05637532547794253,0.3977029958024151,-0.1712347531655804
0.05687582597844303,0.46415576508756357,-0.16533860420030919
0.05737632647894353,0.4768422887199279,-0.16557963107838156
0.05787682697944403,0.45197903826362984,-0.1720570899505201
0.058377327479944535,0.37316124467032474,-0.16684678780807854
0.058877827980445024,0.26756544724686837,-0.16341581127262012
0.05937832848094553,0.13056386736567796,-0.1620578268748595
0.05987882898144603,-0.01573577081340623,-0.1689526190151545
0.060379329481946534,-0.16414781253774277,-0.16842160531673375
0.06087982998244704,-0.30147111677604405,-0.1666805488588317
0.061380330482947526,-0.3939247379847968,-0.17044242083229544
0.06188083098344803,-0.4583115388103392,-0.17796184820451244
0.06238133148394853,-0.47807589899605807,-0.17410285544456214
0.06288183198444904,-0.4487770186103474,-0.17954173926104064
0.06338233248494952,-0.37308870139994216,-0.1929663445834151
0.06388283298545003,-0.264300897122501,-0.1901674789964925
0.06438333348595053,-0.12744192986594394,-0.18981308577864844
0.06488383398645103,0.028124155611927267,-0.19668025142813012
0.06538433448695154,0.16538656743277744,-0.19217782042286088
0.06588483498745203,0.2995256931289943,-0.19876642006332343
0.06638533548795253,0.39689815293391634,-0.19563460562380394
0.06688583598845303,0.46591730754769656,-0.19003724783767156
0.06738633648895354,0.47571711394804284,-0.1919296672590298
0.06788683698945402,0.4499218984186002,-0.19824706122256058
0.06838733748995453,0.37173454183534327,-0.19506101037756504
0.06888783799045503,0.26428960718310107,-0.19003871630454236
0.06938833849095553,0.13146653368434572,-0.19131851096998992
0.06988883899145604,-0.028141778953044233,-0.19711999351583276
0.07038933949195653,-0.16908317879180876,-0.19005710926324162
0.07088983999245703,-0.2982577516701279,-0.19308571224576554
0.07139034049295753,-0.3981385937520277,-0.198533392064293
0.07189084099345804,-0.4641623348485148,-0.20027260795801963
0.07239134149395852,-0.4746590488577603,-0.2047751344645217
0.07289184199445903,-0.4494370985143517,-0.20802078748220462
0.07339234249495953,-0.37634184504718227,-0.20545900400446437
0.07389284299546003,-0.2589124704404292,-0.2053809348041904
0.07439334349596054,-0.12483126349708305,-0.21633837938334444
0.07489384399646103,0.028710315421034343,-0.2062095827026888
0.07539434449696153,0.17302775193288464,-0.2186366741752896
0.07589484499746203,0.30204916916076147,-0.22261765859523902
0.07639534549796254,0.39915864345672714,-0.21961518556521
0.07689584599846302,0.46303995586141805,-0.21786526383618166
0.07739634649896353,0.4789409258525007,-0.21795591853222585
0.07789684699946403,0.4529102553752308,-0.2120376928371217
0.07839734749996453,0.37199075863245107,-0.2176354461630399
0.07889784800046502,0.26171135727213535,-0.21433881382188277
0.07939834850096553,0.11962481844925778,-0.20832414732032475
0.07989884900146603,-0.021189235158250174,-0.21352848519713638
0.08039934950196653,-0.1755954076423909,-0.22098679155708595
0.08089985000246704,-0.3052914597018108,-0.2172318114783351
0.08140035050296753,-0.4039521032764002,-0.22282687432503454
0.08190085100346803,-0.4661498949562326,-0.2185112649651015
0.08240135150396853,-0.47638337445260864,-0.22110321771898675
0.08290185200446903,-0.44482142621518544,-0.21729110974563892
0.08340235250496952,-0.37201025513207686,-0.22949318208014743
0.08390285300547012,-0.2586282383245081,-0.23652496249498287
0.08440335350597053,-0.12017309342774801,-0.23674903244706177
0.08490385400647103,0.03143691143422144,-0.23155148773945844
0.08540435450697154,0.17756290485603704,-0.23795211503958388
0.08590485500747203,0.30530722897710033,-0.2302303189374243
0.08640535550797263,0.4061808218768339,-0.23741734278345106
0.08690585600847313,0.46250678832075703,-0.24010617844486354
0.08740635650897353,0.4723438118326472,-0.23725602337711552
0.08790685700947402,0.45005288434020285,-0.24140779135345872
0.08840735750997462,0.37091520172900555,-0.22781122144690688
0.08890785801047513,0.26135181522794043,-0.2337545199417219
0.08940835851097563,0.12179510951091922,-0.23557396920182289
0.08990885901147604,-0.02489038636288324,-0.23937922890836727
0.09040935951197653,-0.1722714119974102,-0.2434383462144834
0.09090986001247713,-0.30700581094544743,-0.23455940882388981
0.09141036051297763,-0.40425186903337973,-0.238914514684363
0.09191086101347813,-0.4594584845700071,-0.24663173335857744
0.09241136151397852,-0.47626780748278885,-0.24312773450031464
0.09291186201447912,-0.4458408781578965,-0.25472704897342724
0.09341236251497963,-0.37104822350133365,-0.2504462378473397
0.09391286301548013,-0.25756028771255945,-0.257197943638463
0.09441336351598063,-0.11999148248502076,-0.25243848881045095
0.09491386401648103,0.0324562418755943,-0.25842756716018406
0.09541436451698163,0.17255647319648804,-0.25555542487435795
0.09591486501748213,0.30212601230947644,-0.2600857636794289
0.09641536551798263,0.4066715305732071,-0.2622458626880247
0.09691586601848313,0.4644350177821821,-0.2569513236430734
0.09741636651898362,0.48000063281447247,-0.25119306447577294
0.09791686701948413,0.4467392563324755,-0.24959157238920252
0.09841736751998463,0.3671736039666404,-0.2525090369703199
0.09891786802048513,0.25477147991095334,-0.2504537195338641
0.09941836852098564,0.1168768918801619,-0.24841309390025346
0.09991886902148613,-0.030103401311697073,-0.25171723364354887
0.10041936952198663,-0.18179583444897912,-0.25332562204371323
0.10091987002248713,-0.30665757731905496,-0.2599145027059917
0.10142037052298764,-0.4101499094033493,-0.2576012543038292
0.10192087102348812,-0.46395316282023197,-0.25773350071343176
0.10242137152398863,-0.4767291565386675,-0.2665808003832812
0.10292187202448913,-0.44859365763629033,-0.26749175925249613
0.10342237252498963,-0.36764189736711045,-0.26830274571669777
0.10392287302549014,-0.2589509624084042,-0.26955882548305954
0.10442337352599063,-0.11363559056718307,-0.28233450184157
0.10492387402649113,0.036400102525510916,-0.27323475658310115
0.10542437452699163,0.17738982999862996,-0.2763555559586079
0.10592487502749214,0.3041852712582383,-0.2802533178086525
0.10642537552799262,0.4096196113132932,-0.27665344652887874
0.10692587602849313,0.4634822477769101,-0.27360734595470443
0.10742637652899363,0.4772834302570101,-0.27284774984125265
0.10792687702949413,0.44900256287220836,-0.272881839134467
0.10842737752999464,0.36351761486764295,-0.27384868367302523
0.10892787803049513,0.2526024989333245,-0.2667998624631159
0.10942837853099563,0.11589837353937947,-0.2682068267889679
0.10992887903149613,-0.033871102149907684,-0.2664485566774351
0.11042937953199664,-0.18739529816573672,-0.2681131423056242
0.11092988003249712,-0.3017332131689367,-0.2817027198642486
0.11143038053299763,-0.40820686660736577,-0.2715455955988678
0.11193088103349813,-0.4694323793414188,-0.27616848132867705
0.11243138153399863,-0.47760030361332484,-0.279990501773798
0.11293188203449914,-0.44500811143032587,-0.2877071273704603
0.11343238253499963,-0.3711910098706046,-0.2868012979235091
0.11393288303550013,-0.24916972576720206,-0.28111552346754
0.11443338353600063,-0.11580356085930453,-0.2945778838485263
0.11493388403650114,0.03399383076109999,-0.2915743245700678
0.11543438453700162,0.18272338332082635,-0.29681326974937544
0.11593488503750213,0.31358916954266675,-0.3008011832218662
0.11643538553800263,0.40774117990479647,-0.29682207894467616
0.11693588603850313,0.4663800363372536,-0.298299225650175
0.11743638653900364,0.477731095279754,-0.28885955125475343
0.11793688703950413,0.44698553806137087,-0.29177013873796465
0.11843738754000463,0.36244074836585977,-0.29010082479868043
0.11893788804050513,0.2539093444901185,-0.28181646627309026
0.11943838854100564,0.10983839574939533,-0.2879289117174053
0.11993888904150614,-0.03138405413040682,-0.28209353778176105
0.12043938954200663,-0.18259805715185948,-0.2823734882928909
0.12093989004250712,-0.3144513502106309,-0.29470412803169477
0.12144039054300763,-0.4115884512033476,-0.29547342182883096
0.12194089104350812,-0.46461215795023536,-0.292197932355372
0.12244139154400864,-0.47422417954816193,-0.29404561234620796
0.12294189204450913,-0.43996522002942984,-0.3027250736136622
0.12344239254500962,-0.3666896282432368,-0.30908269401359506
0.12394289304551014,-0.2484583077850255,-0.3037944695219571
0.12444339354601062,-0.11048596561177657,-0.3142860555025536
0.12494389404651114,0.04298762853446066,-0.30817141295809525
0.12544439454701162,0.18422240615570018,-0.3101331322378776
0.1259448950475121,0.30813134866808206,-0.3170704777963598
0.12644539554801262,0.4073069313421622,-0.30542051852109287
0.1269458960485131,0.46954004156657037,-0.31464737291437483
0.12744639654901363,0.4741057667361315,-0.3045883769885215
0.12794689704951412,0.43962650718371127,-0.30530705536299163
0.1284473975500146,0.3678271963467382,-0.3075291552381031
0.12894789805051513,0.2454117352324506,-0.30312075497683083
0.12944839855101561,0.10954759611785628,-0.3078822865859669
0.1299488990515161,-0.04099821988707315,-0.30908096557676223
0.13044939955201662,-0.1847247977939962,-0.3117907226274136
0.1309499000525171,-0.31324761587448285,-0.30910103783237064
0.13145040055301763,-0.40672879396663936,-0.30838477327723784
0.13195090105351812,-0.4654316203912221,-0.31317631903848187
0.1324514015540186,-0.47502517015298007,-0.3131560332356095
0.13295190205451912,-0.43822686889019913,-0.312944658653843
0.1334524025550196,-0.3596767518315163,-0.31970002597833796
0.13395290305552013,-0.24905739081997977,-0.32854524328101375
0.13445340355602062,-0.11417999076929874,-0.32769144131293326
0.1349539040565211,0.04015172423050171,-0.3210463747061817
0.13545440455702162,0.18350715235023665,-0.32456042361881776
0.1359549050575221,0.3173412780784105,-0.3239840431476181
0.13645540555802263,0.4086333891441918,-0.32727638106171086
0.13695590605852312,0.47280480603683994,-0.32490183855346816
0.1374564065590236,0.47597478655688424,-0.32794849903863793
0.13795690705952413,0.44496525346095356,-0.3179684433979289
0.13845740756002461,0.35722495279515826,-0.3252419655337092
0.1389579080605251,0.24266700229617855,-0.32690495041872175
0.13945840856102562,0.10345391022087622,-0.32394738276536106
0.1399589090615261,-0.04506879479838798,-0.32776071498395476
0.14045940956202663,-0.19198326379818384,-0.3225538445154945
0.14095991006252712,-0.3149930147464061,-0.3243554225713889
0.1414604105630276,-0.4067907743566423,-0.32997723063563983
0.14196091106352812,-0.46259951934100607,-0.32094843074134
0.1424614115640286,-0.4778054357689853,-0.34130809727404937
0.14296191206452913,-0.438491336486589,-0.3380443787981787
0.14346241256502962,-0.3589276878828318,-0.33574510377965483
0.1439629130655301,-0.2397215264725537,-0.331250907513594
0.14446341356603062,-0.10665715106997915,-0.3398737555474564
0.1449639140665311,0.04512443943252888,-0.3401980474200724
0.14546441456703163,0.19129260567540707,-0.3419082517495126
0.14596491506753212,0.31494843121467725,-0.33718596577378573
0.1464654155680326,0.41283321838857906,-0.33641075173161283
0.14696591606853313,0.4697585609748555,-0.34442894389194634
0.14746641656903361,0.4747515754368827,-0.3359660414702131
0.1479669170695341,0.4409797373764019,-0.340089386623655
0.14846741757003462,0.36192201757521303,-0.3409397968594506
0.1489679180705351,0.24063764033210538,-0.33222464053255074
0.14946841857103563,0.10162906788991424,-0.3341290055683533
0.14996891907153612,-0.04303295995353878,-0.3362001649622692
0.1504694195720366,-0.19072726322318365,-0.34051065365175653
0.15096992007253712,-0.32191883585211917,-0.3426483550856171
0.1514704205730376,-0.41351144092285286,-0.3396878236670908
0.15197092107353813,-0.4674147913911265,-0.34442296107769316
0.15247142157403862,-0.47112171622062815,-0.3422932190695294
0.1529719220745391,-0.43709614771589705,-0.34472727858036634
0.15347242257503962,-0.3546182116657083,-0.34668926558421836
0.1539729230755401,-0.24203917859514656,-0.35037443465570905
0.1544734235760406,-0.09902430816946833,-0.3511838655649064
0.15497392407654112,0.04427980344246114,-0.35269628674824377
0.1554744245770416,0.18918698356885874,-0.353661439215428
