Time,Vin,Vout
0.009332509906808182,-0.0009215159278631361,-0.0028949666003977126
0.009833010407308681,0.144070666174874,0.05122270492140065
0.010333510907809181,0.2844557125937933,0.1704337697794442
0.010834011408309682,0.3875342026418628,0.2910823840835027
0.011334511908810182,0.454554350603709,0.39512547569630824
0.011835012409310681,0.48448218796397796,0.46130551626918304
0.012335512909811181,0.4494967416513269,0.47342348161011205
0.01283601341031168,0.38243063973198255,0.44633665216109636
0.01333651391081218,0.27225306132882404,0.37769828353489215
0.013837014411312682,0.14490102274346964,0.2691202889674395
0.014337514911813181,-0.001547415766770851,0.12987203524734164
0.014838015412313683,-0.14830582179595375,-0.018712348374647365
0.015338515912814182,-0.28358279064938186,-0.16462167889011223
0.015839016413314682,-0.3870421096207425,-0.2968924714876637
0.01633951691381518,-0.4577996898426394,-0.3946728914568231
0.01684001741431568,-0.4828312088082409,-0.4588931823937805
0.01734051791481618,-0.4533152005075601,-0.4723321361443981
0.017841018415316684,-0.39362933339282913,-0.4493610440331749
0.01834151891581718,-0.27469785370703387,-0.3756832438131808
0.018842019416317683,-0.14598067614802981,-0.2653451228109092
0.01934251991681818,0.003854824792629782,-0.12812001139974818
0.019843020417318682,0.15343344092609176,0.021399630579828854
0.020343520917819182,0.2806914900672826,0.16831455678648002
0.020844021418319682,0.38378245528088706,0.29613832633892684
0.02134452191882018,0.45228107366664494,0.39684482560979345
0.02184502241932068,0.4807296284567394,0.4592229023139753
0.022345522919821184,0.447896008456945,0.4737494499226518
0.02284602342032168,0.3818796200005996,0.4475116608046911
0.023346523920822183,0.27622501395682314,0.3737327792032999
0.02384702442132268,0.14325985765928656,0.25933846138980765
0.024347524921823183,-0.00515824603864509,0.12690477735237515
0.024848025422323682,-0.15470866914159917,-0.014456891973741644
0.025348525922824182,-0.2854656627680163,-0.16392132608769727
0.025849026423324685,-0.38328700103262603,-0.2905975853386759
0.02634952692382518,-0.4565970995755478,-0.3961640551266763
0.026850027424325684,-0.4775334533448239,-0.4602457550784308
0.02735052792482618,-0.4510354306934914,-0.48211918402719384
0.027851028425326683,-0.38698667815429255,-0.4409901203601721
0.02835152892582718,-0.2734456840093503,-0.3671209553941108
0.028852029426327683,-0.13796550399134244,-0.26639824591455
0.02935252992682818,0.005671487524810802,-0.12795155630549473
0.029853030427328682,0.15386183809477386,0.027119497539656076
0.030353530927829178,0.2873938256324049,0.16958244766779929
0.03085403142832968,0.3910985894764242,0.2915963282238036
0.031354531928830184,0.45605085843629517,0.39638549954845315
0.03185503242933068,0.47234669036649585,0.4608815846187624
0.032355532929831184,0.45001645387540584,0.47979876511324154
0.03285603343033168,0.38308541107166266,0.44832416123501195
0.03335653393083218,0.2750695228906132,0.36887395159361763
0.03385703443133268,0.14085602752683396,0.26354297537739174
0.03435753493183318,-0.01221274398438467,0.12571952646809129
0.03485803543233368,-0.15786107936667845,-0.02255234762318233
0.03535853593283418,-0.29040829870209045,-0.16567074506154686
0.035859036433334684,-0.3950276722698604,-0.2959173550048854
0.03635953693383518,-0.4514852731008096,-0.3984044246852745
0.036860037434335684,-0.4830357035235165,-0.4620248475373917
0.03736053793483618,-0.4534483703310001,-0.4678044193691936
0.03786103843533668,-0.37869987728177634,-0.44462866551497093
0.03836153893583718,-0.27617677982187866,-0.3748626785525438
0.03886203943633768,-0.13813129171346003,-0.2632947600578831
0.03936253993683818,0.006557155772706891,-0.12318611261429914
0.03986304043733868,0.15529605321745024,0.025886172502234135
0.040363540937839185,0.28578551823446424,0.17399728768860478
0.04086404143833968,0.39567513672651977,0.3059752208069068
0.04136454193884018,0.4542197152246746,0.4024835222731631
0.04186504243934068,0.4815027144451533,0.4612002671401661
0.04236554293984118,0.4486450004013319,0.4779389317630994
0.04286604344034168,0.37944411982706805,0.44836690103029564
0.04336654394084218,0.2729895446498059,0.3634267997088332
0.04386704444134268,0.13852767737191318,0.25731949751058125
0.04436754494184318,-0.014095853681294639,0.12279986997953887
0.04486804544234368,-0.1549226865262463,-0.022025641147614742
0.04536854594284418,-0.2881186813967916,-0.17454736751555805
0.04586904644334468,-0.39892986245260315,-0.29448256273515716
0.04636954694384518,-0.46110741824546864,-0.4007306278315493
0.04687004744434568,-0.47970526470267927,-0.4596355959125476
0.04737054794484618,-0.4457306277374837,-0.47180778387532507
0.04787104844534668,-0.3817394050286038,-0.438538931892245
0.04837154894584718,-0.27377672904083844,-0.36807665766840664
0.04887204944634768,-0.13456172793282087,-0.25820001085781497
0.04937254994684818,0.009994685895042744,-0.12132890344716193
0.04987305044734868,0.15672093170638893,0.030320764823857323
0.05037355094784918,0.28989657976559025,0.17871596037625329
0.05087405144834968,0.3926015297839331,0.3048036337917258
0.051374551948850176,0.45874394168020394,0.3959971515197951
0.05187505244935068,0.4802581109506072,0.46432207556176364
0.05237555294985118,0.45322397501183037,0.47489569251922653
0.05287605345035168,0.3797128119802123,0.4411057752302747
0.05337655395085218,0.2766599905204996,0.36763460987838403
0.05387705445135268,0.1376835942549711,0.26050832830122334
0.05437755495185318,-0.02041189373353847,0.12115313527308971
0.05487805545235368,-0.16336916876320648,-0.026970902989093402
0.05537855595285418,-0.29084793903164713,-0.169366044370369
0.05587905645335468,-0.39907402279843573,-0.30401594028687073
0.05637955695385518,-0.46052155235634173,-0.39903231952532187
0.05688005745435568,-0.4774229228985973,-0.4619971449148246
0.05738055795485618,-0.454683668405923,-0.4694915474642172
0.05788105845535668,-0.37679059916890634,-0.44157533629364415
0.05838155895585718,-0.2661358281711414,-0.3707801737159818
0.05888205945635768,-0.13021522841545982,-0.25103926632867124
0.05938255995685818,0.01176363121642871,-0.1183673233334879
0.05988306045735868,0.16713373088376945,0.031320563543943226
0.06038356095785918,0.2956302524510507,0.17473100241703382
0.06088406145835968,0.395199831015714,0.3074188369282443
0.06138456195886018,0.4602316089394843,0.4029589607760675
0.06188506245936068,0.47470606905294616,0.46137490807289816
0.06238556295986118,0.45047338808119,0.475035812626862
0.06288606346036169,0.37703408601069954,0.4452848475049347
0.06338656396086219,0.2710776299470059,0.36975312424578477
0.06388706446136268,0.13285554198512278,0.2477914129672248
0.06438756496186318,-0.01700677552668365,0.11181776742579122
0.06488806546236368,-0.1594328416654151,-0.02862311404803365
0.06538856596286419,-0.29895695207236417,-0.17577258056567555
0.06588906646336469,-0.39393667050663356,-0.3091094113637121
0.06638956696386518,-0.46188288984727105,-0.40060195327940173
0.06689006746436568,-0.4831706439351026,-0.4615921956131807
0.06739056796486619,-0.4492801002535539,-0.47802418852559186
0.06789106846536669,-0.3793151314406968,-0.43966662223395725
0.06839156896586718,-0.2692350012589269,-0.3629765765253275
0.06889206946636768,-0.13084227251704011,-0.2515675406508931
0.06939256996686818,0.012472148920243039,-0.11114312036272843
0.06989307046736869,0.16540619988210414,0.041914313281011736
0.07039357096786919,0.2964409477846886,0.18268779740523722
0.07089407146836968,0.3945301279289965,0.3135417286156691
0.07139457196887018,0.45332228653765816,0.4044781097535196
0.07189507246937069,0.47586882797335645,0.4703264532497342
0.07239557296987119,0.44810490734964786,0.47692474045662525
0.07289607347037169,0.3696701522272311,0.44328348078968915
0.07339657397087218,0.2634191000323698,0.366113307725064
0.07389707447137268,0.13101446906826913,0.2502687693583416
0.07439757497187319,-0.019208037268585578,0.11201569915620033
0.07489807547237369,-0.16918098708638418,-0.036855900412782486
0.0753985759728742,-0.2952322881333105,-0.18062277756329573
0.07589907647337468,-0.3940806334234824,-0.31032387127153926
0.07639957697387519,-0.46143109929939996,-0.4063348567737554
0.07690007747437569,-0.4816170790357736,-0.4655625023798692
0.07740057797487619,-0.4517222816814044,-0.4765065884411589
0.07790107847537668,-0.3731949256826648,-0.43302645374432785
0.07840157897587718,-0.2610816537406352,-0.3655022351563224
0.07890207947637769,-0.1279423149450266,-0.24858582659402662
0.07940257997687819,0.019757637757590315,-0.10692527959587345
0.0799030804773787,0.1602307576828759,0.03987464680419477
0.08040358097787918,0.30077741786057177,0.1850868761490904
0.08090408147837969,0.3982345232176061,0.31095976348055343
0.08140458197888019,0.4616705787447318,0.40610451398722913
0.08190508247938069,0.4785371580215762,0.4630677085654771
0.08240558297988118,0.4470370053681324,0.472655878893782
0.08290608348038168,0.3735972003008375,0.4407085260143452
0.08340658398088219,0.2619085973384114,0.3636664936767786
0.08390708448138269,0.12617736666724907,0.2454993510706301
0.0844075849818832,-0.022153679746299736,0.10865184357166598
0.08490808548238368,-0.16709682509677118,-0.0334490343463781
0.08540858598288419,-0.2992347357366258,-0.1879117300476816
0.08590908648338469,-0.4042552109138343,-0.31429117647222365
0.08640958698388519,-0.46223159482524945,-0.40281616798388076
0.08691008748438568,-0.47218006800290274,-0.4597653710792524
0.08741058798488618,-0.4487445034049688,-0.4720042956456189
0.08791108848538669,-0.3739650052745535,-0.436483539638941
0.08841158898588719,-0.26387745346628516,-0.36479677776655806
0.0889120894863877,-0.12205500843567539,-0.24693969074176214
0.08941258998688818,0.023714846676792165,-0.10773494809653215
0.08991309048738869,0.1642251095173473,0.0445614355107744
0.09041359098788919,0.29388838006256,0.18738650578482396
0.09091409148838969,0.4019911450902648,0.3133018127533978
0.09141459198889018,0.461576179361869,0.4073875621570293
0.09191509248939068,0.47047684181223365,0.46759303764398963
0.09241559298989119,0.44941398698450613,0.4781177671997169
0.09291609349039169,0.3719148828530154,0.4378834325046333
0.09341659399089218,0.25644883763097365,0.3623297193257839
0.09391709449139268,0.12451154898041147,0.24970327129309475
0.09441759499189319,-0.027991906856861655,0.11171830367934851
0.09491809549239369,-0.17590482776547764,-0.038111713982794705
0.09541859599289419,-0.30171430997522175,-0.1816339845353054
0.09591909649339468,-0.40329697065991144,-0.3106521190237865
0.09641959699389518,-0.4632499772658883,-0.4087068820366417
0.09692009749439569,-0.4744723257092435,-0.46288827537598676
0.09742059799489619,-0.45064473791631676,-0.47136053984532567
0.09792109849539668,-0.3744774367448016,-0.4373076192773163
0.09842159899589728,-0.25842455577491696,-0.3557131954795247
0.09892209949639769,-0.12272716518392336,-0.23881614067254706
0.09942259999689819,0.030953688234213617,-0.10694883847518487
0.09992310049739869,0.17114883636982808,0.04380507556217259
0.10042360099789918,0.30314913031324847,0.19155192782028904
0.10092410149839978,0.3983779661249634,0.31454520407338293
0.10142460199890029,0.4665576540402929,0.40980236187945984
0.10192510249940069,0.47299629723586817,0.4601300572586324
0.10242560299990118,0.44451460134139353,0.4733876522460935
0.10292610350040178,0.37023116900963965,0.4402058631056672
0.10342660400090228,0.25773178232817795,0.3576116672879605
0.10392710450140279,0.12122052927040061,0.24761233266237387
0.10442760500190319,-0.03091884488814249,0.10238324902584457
0.10492810550240368,-0.17326759738260078,-0.039493688325349954
0.10542860600290428,-0.30327168221902545,-0.18977366052398542
0.10592910650340479,-0.4033687291195174,-0.3088356321087062
0.10642960700390529,-0.4630932861353928,-0.4074328427516076
0.10693010750440568,-0.48217123641611104,-0.4583480189876627
0.10743060800490628,-0.44552058263289634,-0.4683093029715885
0.10793110850540678,-0.3699247387631967,-0.43636556550075506
0.10843160900590729,-0.26059392309024343,-0.3534703794084613
0.10893210950640779,-0.12297315441418677,-0.24131141133057998
0.10943261000690818,0.03022302112358241,-0.10489109127969862
0.10993311050740878,0.1794194759343658,0.04636633687510941
0.11043361100790929,0.3079569764424484,0.19319785170027423
0.11093411150840979,0.40945481161898967,0.31751727369661975
0.11143461200891029,0.46113588541153144,0.41530183847192925
0.11193511250941078,0.47936409865175506,0.4667662142225501
0.11243561300991128,0.44842553410506564,0.47547415627278117
0.11293611351041179,0.36287219980121904,0.4379253194317638
0.11343661401091229,0.2521552229499158,0.3613660763548096
0.1139371145114128,0.11750491980829268,0.23897741491486885
0.11443761501191328,-0.030134597668046197,0.10325361300229009
0.11493811551241379,-0.17627223149712498,-0.045169399339103626
0.11543861601291429,-0.3003441545511737,-0.19227481909520214
0.11593911651341479,-0.399043061494358,-0.31492359617815535
0.11643961701391528,-0.46308349517607805,-0.40830176151700315
0.11694011751441578,-0.4779437062871564,-0.4637036223177804
0.11744061801491629,-0.4446173527678328,-0.4763454196098198
0.11794111851541679,-0.3646410023248728,-0.433621233250604
0.1184416190159173,-0.25793131621021753,-0.35231908110559523
0.11894211951641778,-0.11881637144554573,-0.23880822072597954
0.11944262001691829,0.029839836955877705,-0.1018319134190133
0.11994312051741879,0.174088878765093,0.053402190459378794
0.12044362101791929,0.31174802774605614,0.19211456748967162
0.12094412151841978,0.40770559684891083,0.31858481916554854
0.12144462201892028,0.4628986196801309,0.40861598412097455
0.12194512251942079,0.4772745324865426,0.4657811413778071
0.12244562301992129,0.4421206932350701,0.4697260815329041
0.1229461235204218,0.36473597212377995,0.42854204929384176
0.12344662402092228,0.25619346845257973,0.35677235673171737
0.12394712452142279,0.11951679009372802,0.23879704516705152
0.12444762502192329,-0.03214018319707855,0.10053923768236253
0.12494812552242379,-0.18554596962616593,-0.05584725647868559
0.12544862602292428,-0.3098006517315123,-0.19253857334541485
0.12594912652342477,-0.40871615718269444,-0.31991957187519043
0.1264496270239253,-0.4643124980563924,-0.4135585821877283
0.12695012752442578,-0.4780724557300654,-0.4648156794365017
0.1274506280249263,-0.44775464632095585,-0.473388059312027
0.12795112852542678,-0.36107097328086507,-0.43218916548803954
0.12845162902592727,-0.2493505119799093,-0.35461885058251374
0.1289521295264278,-0.1146281104705914,-0.2339051984471136
0.12945263002692828,0.03683250090704605,-0.1015951141444702
0.12995313052742877,0.18308376185939587,0.052947295092571206
0.13045363102792928,0.3083486981608901,0.19984040694664426
0.13095413152842977,0.40509979445834865,0.31957931882165586
0.1314546320289303,0.465156595209583,0.41436135269805313
0.13195513252943078,0.4751314466349445,0.4672686053212444
0.13245563302993127,0.4458117396732641,0.47838704889813544
0.13295613353043179,0.3630980742621716,0.4388120465432883
0.13345663403093228,0.25329006683514654,0.35428504973551445
0.1339571345314328,0.10895545099376046,0.23426422905519545
0.13445763503193328,-0.03586518069456644,0.08760702252159525
0.13495813553243377,-0.18930871094112986,-0.05759176237817476
0.13545863603293426,-0.30869379595548013,-0.19363071783855892
0.13595913653343478,-0.4102406458832044,-0.3228674241026765
0.13645963703393527,-0.4643283910264668,-0.4073006908954404
0.13696013753443578,-0.4734094909273422,-0.4697610176880357
0.13746063803493627,-0.4446859567923233,-0.4703841160215353
0.13796113853543676,-0.3596878998106346,-0.4291578714583264
0.13846163903593728,-0.24432600203918353,-0.34691418535346885
0.13896213953643777,-0.11215720757076043,-0.23392097153167615
0.13946264003693828,0.0419634761243061,-0.10066216580773908
0.13996314053743877,0.1830436855277265,0.05390623530913157
0.14046364103793926,0.31061151357017347,0.20544299470368502
0.14096414153843978,0.4079665716896782,0.3239813386263022
0.14146464203894027,0.46677960339918007,0.415171118989657
0.1419651425394408,0.4774196025933219,0.46762672089758595
0.14246564303994128,0.4434090499933934,0.46935024524279695
0.14296614354044176,0.36325608579899127,0.43486688885232916
0.14346664404094228,0.2489092270238012,0.3495800728781707
0.14396714454144277,0.10617371405638942,0.2313623178253368
0.14446764504194326,-0.03762866705768134,0.09033473977580445
0.14496814554244378,-0.18882429765995618,-0.056300222607699034
0.14546864604294427,-0.30731460894290735,-0.20062786848312122
0.14596914654344478,-0.41116859183634774,-0.32304471837347054
0.14646964704394527,-0.46326706541166174,-0.41264526149756764
0.14697014754444576,-0.4743901040835118,-0.46694466092850284
0.14747064804494628,-0.4408546273372833,-0.4733942624062815
0.14797114854544677,-0.3588584725192776,-0.43348279291171393
0.14847164904594728,-0.24896117468239257,-0.3483761070453699
0.14897214954644777,-0.104323316854229,-0.23094342116594938
0.14947265004694826,0.04187253905272029,-0.08675858564251877
0.14997315054744878,0.18595191081261803,0.05939881983636887
0.15047365104794927,0.31548742376057426,0.20039791761885267
0.1509741515484498,0.4137435847065055,0.32884620143311327
0.15147465204895028,0.4708316670986075,0.41206008585698073
0.15197515254945076,0.4799031313163915,0.46250977031962065
0.15247565304995128,0.4384433562885841,0.47848675436985183
0.15297615355045177,0.3608228756867802,0.43333087314898294
0.15347665405095226,0.2406907443676821,0.3521700129306256
0.15397715455145278,0.11100795914217786,0.2319816760349943
0.15447765505195327,-0.04045639840454401,0.08792061009287992
0.15497815555245378,-0.19371242058496885,-0.05931173191302287
0.15547865605295427,-0.31232570569135987,-0.203977812098321
0.15597915655345476,-0.40882043657774336,-0.32575848785388456
0.15647965705395528,-0.46651180925351204,-0.41657205848985884
0.15698015755445577,-0.4712120207561874,-0.47023481278675117
0.15748065805495629,-0.44390006669132615,-0.4726764115803188
0.15798115855545677,-0.3558360317047846,-0.4312769044286651
0.15848165905595726,-0.24284059281076223,-0.34273199937144205
0.15898215955645778,-0.1053188031299524,-0.22107489036049538
0.15948266005695827,0.041772578364943434,-0.08648564139266016
0.1599831605574588,0.18878134631688792,0.058997492406923695
0.16048366105795928,0.31938100560023547,0.20394433459690825
0.16098416155845977,0.4071136656256544,0.3298442706019675
0.16148466205896028,0.46546938552502404,0.4204811670898617
0.16198516255946077,0.47262220309982744,0.4644993425386054
0.16248566305996126,0.43751293620064563,0.47758700015606603
0.16298616356046178,0.3583198656072393,0.4348086597093721
0.16348666406096227,0.24148581037440867,0.3433215291652977
0.16398716456146278,0.1013589365293451,0.2229164080122983
0.16448766506196327,-0.04546528532071839,0.08907162918049738
0.16498816556246376,-0.1958739528574066,-0.060079224886487204
0.16548866606296428,-0.31413695006094916,-0.20289980876321173
0.16598916656346477,-0.41021409040514717,-0.3300557859658207
0.16648966706396529,-0.46801292088396534,-0.4175887538439031
0.16699016756446577,-0.4778426466128649,-0.4650239676758128
0.16749066806496626,-0.43900157006635426,-0.47015229407873266
0.16799116856546678,-0.3592079559617285,-0.431540920936719
0.16849166906596727,-0.23741524488172533,-0.3452643407218077
0.16899216956646776,-0.09425487818579592,-0.22600647734644183
0.16949267006696828,0.048065826347391184,-0.08399764317908612
0.16999317056746877,0.19645411261838222,0.06126902727023167
0.17049367106796928,0.31956658200851923,0.20305380551134802
0.17099417156846977,0.4105013120735928,0.33239441700669675
0.17149467206897026,0.47016896641486294,0.4243182098434017
0.17199517256947078,0.47225487560801505,0.470249581674209
