Time,Vin,Vout
0.0008242904937792693,0.0003615115809856622,0.0022738167026656853
0.0009243905938793693,0.014428397391385054,0.006653309969950531
0.0010244906939794692,0.027802293416741154,0.010927907952315349
0.0011245907940795694,0.0504673421026687,0.009566736396035506
0.0012246908941796692,0.05857909718870811,0.025722736430692564
0.0013247909942797694,0.08102276218128425,0.04169173852107869
0.0014248910943798693,0.09614565999337253,0.06424290865977547
0.0015249911944799693,0.11353477755656624,0.09797805946489813
0.0016250912945800693,0.12259434958836772,0.12092237283428242
0.0017251913946801692,0.13946760435352684,0.13883153210996454
0.0018252914947802692,0.1553117752910605,0.16473213231783834
0.0019253915948803694,0.17782119735188026,0.19066793635787932
0.0020254916949804694,0.1891851067468277,0.21427168846427672
0.0021255917950805696,0.20442372588437707,0.23769128081624463
0.0022256918951806693,0.21355325810455617,0.2560396808064089
0.002325791995280769,0.22572928600494294,0.28557765484725983
0.0024258920953808692,0.2437511889377397,0.31112481641325757
0.0025259921954809694,0.25941341659719175,0.33013683742917843
0.002626092295581069,0.270194117274945,0.3538490360573781
0.0027261923956811694,0.28220275184085697,0.36847496828661885
0.002826292495781269,0.2943785096834074,0.4012727023234973
0.0029263925958813693,0.3093945547833088,0.41534031179352354
0.0030264926959814695,0.32088423356627077,0.4448150735345653
0.0031265927960815692,0.33757450872249456,0.45023958209903275
0.0032266928961816694,0.35056596760747416,0.47581657202504124
0.003326792996281769,0.3591498449251565,0.5000956447252121
0.0034268930963818694,0.3698133890612282,0.5097158270979143
0.003526993196481969,0.38124092967491346,0.5345271091688188
0.0036270932965820693,0.38211432387780453,0.5618830755834259
0.0037271933966821695,0.3985747916308673,0.572187079526076
0.0038272934967822692,0.40530718661637516,0.5858812068448667
0.003927393596882369,0.4236257092378542,0.6067914909770123
0.004027493696982469,0.43112932661054976,0.6195038192233743
0.004127593797082569,0.4262607876998407,0.6377886790983186
0.0042276938971826696,0.4443916900593671,0.6449439584019949
0.004327793997282769,0.4480272569823311,0.6569363867369735
0.004427894097382869,0.45394876968022135,0.6755711456531501
0.00452799419748297,0.4642949213947235,0.6858227679380597
0.004628094297583069,0.4699977840460309,0.7087818553228773
0.004728194397683169,0.4801450784473888,0.7087630372681273
0.004828294497783269,0.4799220666231863,0.7224124280985327
0.0049283945978833696,0.4835679046509576,0.7390400257280421
0.005028494697983469,0.4930151209233788,0.7377992568600071
0.005128594798083569,0.4958635842004196,0.750182250404787
0.00522869489818367,0.49589428919414,0.7633445085450683
0.005328794998283769,0.4978760035321171,0.7609886928044451
0.005428895098383869,0.5042784759438151,0.768049792186715
0.005528995198483969,0.502479739744371,0.7800456923686991
0.0056290952985840696,0.5046050350106764,0.7867503650823682
0.005729195398684169,0.49940927845678273,0.7866096436635183
0.005829295498784269,0.5025848889667395,0.7813324630998265
0.00592939559888437,0.5018208361286206,0.7923899279015514
0.006029495698984469,0.5069026722415073,0.7846364144659965
0.006129595799084569,0.4986320167786824,0.7874568767603366
0.006229695899184669,0.5022339296884597,0.7879673324609713
0.0063297959992847696,0.4942059418200602,0.7884323451712407
0.006429896099384869,0.49935527556356074,0.7773502803279613
0.006529996199484969,0.4971826127657108,0.7819094034565467
0.00663009629958507,0.48569090752948646,0.7797635864887782
0.006730196399685169,0.48343874562052863,0.7719741672878094
0.006830296499785269,0.48791475398799145,0.7658874297184427
0.006930396599885369,0.4770084643283752,0.7670182766069427
0.0070304966999854696,0.4706990770395944,0.7605764575012431
0.007130596800085569,0.46252900807424546,0.7507625793692528
0.007230696900185669,0.45389004460040266,0.7423611796641426
0.00733079700028577,0.4515001075156378,0.7386879140192466
0.007430897100385869,0.4419378994498129,0.7166322238419156
0.007530997200485969,0.4305791475328995,0.7210895491585848
0.007631097300586069,0.42125180004483237,0.6996593808664694
0.0077311974006861696,0.4209925691308886,0.6902631794101292
0.00783129750078627,0.4069041830158254,0.6721068241884114
0.007931397600886368,0.3989648905348578,0.6681694282738524
0.008031497700986469,0.38976689545385235,0.6444989765847278
0.00813159780108657,0.3755763009598459,0.6323033205901673
0.00823169790118667,0.370138368426705,0.6219599282441399
0.008331798001286769,0.355072444119048,0.6073320688183298
0.00843189810138687,0.3391754669914784,0.5899000134492991
0.008531998201486968,0.33727830164555334,0.5786863166238504
0.008632098301587069,0.3255368586758645,0.5570711474326469
0.00873219840168717,0.3092617530602807,0.5345863509520785
0.008832298501787269,0.28922552024985815,0.5256741372666696
0.00893239860188737,0.28034709717572953,0.5106787439767614
0.00903249870198747,0.27109005434023203,0.49155166748237583
0.009132598802087569,0.25459421708464836,0.47223208370775765
0.00923269890218767,0.24432621824616269,0.43947111705736797
0.00933279900228777,0.23144146948272917,0.4252604643359439
0.009432899102387869,0.21193718426620672,0.410851023397381
0.00953299920248797,0.19705507625407348,0.3867439629919339
0.00963309930258807,0.182925061845145,0.35351592120631925
0.009733199402688169,0.17031002898167288,0.34101317553404836
0.00983329950278827,0.1498638060802152,0.3168344664475533
0.009933399602888368,0.14765810251333808,0.2942160647704861
0.010033499702988469,0.12545786377022322,0.26706251102653
0.01013359980308857,0.1067070932468822,0.24499868684457948
0.010233699903188669,0.08999955760060821,0.22304707444618924
0.01033380000328877,0.07302678028520782,0.19665864792061158
0.01043390010338887,0.06711678906466617,0.17476669070414816
0.010534000203488969,0.04633994081372322,0.15149840510417698
0.01063410030358907,0.023001287334765103,0.13131554874972073
0.01073420040368917,0.015435754433569529,0.10039260685247536
0.010834300503789269,0.004203768489878804,0.07739805569453552
0.01093440060388937,-0.016340910942855523,0.05215165112353591
0.01103450070398947,-0.035956152403562903,0.040160733796963465
0.011134600804089569,-0.048511547087745584,0.008109861409977125
0.01123470090418967,-0.06706144931376888,-0.028299239659030143
0.011334801004289768,-0.08356942075193335,-0.04210292663670546
0.011434901104389869,-0.09538188231056346,-0.07205160824630573
0.01153500120448997,-0.11151712330265966,-0.09390860543048653
0.011635101304590069,-0.13136107624534954,-0.12181423164086173
0.01173520140469017,-0.14400054883462662,-0.14586782706412965
0.01183530150479027,-0.15779945127621253,-0.17633639034355275
0.011935401604890369,-0.1798592591597281,-0.18138263119107764
0.01203550170499047,-0.1862932668846803,-0.21865737121760004
0.01213560180509057,-0.2037784530720665,-0.24267075922197145
0.012235701905190669,-0.21144283669111716,-0.27027231824581516
0.01233580200529077,-0.2273833366062814,-0.2908691256826308
0.01243590210539087,-0.24298891877726705,-0.30880121526258825
0.012536002205490969,-0.26717992151026626,-0.32826423768096574
0.01263610230559107,-0.2774140475140567,-0.3526169078504357
0.012736202405691168,-0.2885594262681629,-0.3811575672962544
0.012836302505791269,-0.2969147075880789,-0.4020479560205415
0.01293640260589137,-0.3150100450399972,-0.4205742381235505
0.013036502705991469,-0.32894697704712245,-0.43884002845460274
0.01313660280609157,-0.33411704082205224,-0.4556215951309613
0.01323670290619167,-0.3483907929306052,-0.4808273655838782
0.013336803006291769,-0.3589664190121674,-0.49676936836569296
0.01343690310639187,-0.36521108411019754,-0.5285511187274595
0.01353700320649197,-0.37781491379442567,-0.5397073524339983
0.013637103306592069,-0.38932149407464345,-0.5481353351835586
0.01373720340669217,-0.39880015955326636,-0.5671347032298325
0.01383730350679227,-0.4082629275671055,-0.5799850488240292
0.013937403606892369,-0.4194630718995658,-0.6038609705933463
0.01403750370699247,-0.4284555583924576,-0.6218317152439014
0.014137603807092568,-0.439674013918776,-0.6375627593269976
0.014237703907192669,-0.44285965546596917,-0.6473421837370199
0.01433780400729277,-0.44822006466646175,-0.6617345393862708
0.014437904107392869,-0.4604729768818349,-0.682083221008595
0.01453800420749297,-0.46487828803800696,-0.6887854018040258
0.01463810430759307,-0.4672535641082183,-0.7010208391580748
0.014738204407693169,-0.47987301021526785,-0.7151813633470417
0.01483830450779327,-0.48052289399314146,-0.7309859317797336
0.01493840460789337,-0.48617857398205705,-0.7329601864783871
0.015038504707993469,-0.48687010605402226,-0.7449188521962328
0.01513860480809357,-0.5013959536452152,-0.7470040532124581
0.01523870490819367,-0.49457184108758634,-0.7559499470258503
0.015338805008293769,-0.502469699870248,-0.759025621627536
0.01543890510839387,-0.5006651409057171,-0.761241185625976
0.015539005208493968,-0.5048509239221395,-0.7750970608668019
0.015639105308594067,-0.5027098135427408,-0.7728261455993175
0.015739205408694168,-0.5014100023982078,-0.7840956876358848
0.01583930550879427,-0.5026348143674635,-0.7754510550930369
0.01593940560889437,-0.510770170594667,-0.7865234050528369
0.01603950570899447,-0.5093179270569989,-0.7871112030689287
0.01613960580909457,-0.510324738105238,-0.7896926179587407
0.01623970590919467,-0.5022256049643249,-0.7857777254085482
0.01633980600929477,-0.49528404498344974,-0.776179922134705
0.01643990610939487,-0.49382137691764977,-0.781636849029742
0.01654000620949497,-0.4914048629904896,-0.7838549926683839
0.01664010630959507,-0.488961660001686,-0.7689570981859074
0.01674020640969517,-0.4865030576442948,-0.779282562796099
0.016840306509795268,-0.4827250135488323,-0.7662248618323299
0.01694040660989537,-0.4808540039781018,-0.7549662499324852
0.01704050670999547,-0.47523839456771905,-0.7598505172541645
0.01714060681009557,-0.45993197328187696,-0.75068096179247
0.01724070691019567,-0.4539794263782427,-0.736834853807286
0.01734080701029577,-0.4507443396823233,-0.729907382135543
0.017440907110395868,-0.4409515061798631,-0.7212280850103215
0.01754100721049597,-0.42893401517719215,-0.7071088932398581
0.01764110731059607,-0.4257666009235566,-0.6981577581531576
0.01774120741069617,-0.4142189395081082,-0.7013482964718246
0.01784130751079627,-0.40657264688466754,-0.677895089882545
0.017941407610896368,-0.39860170688037805,-0.6580894309323791
0.01804150771099647,-0.3833080612182214,-0.6473248909151696
0.01814160781109657,-0.3736174579119685,-0.6334445894063396
0.01824170791119667,-0.36778422227781293,-0.628182899811417
0.01834180801129677,-0.3494762952361273,-0.6160468861084383
0.01844190811139687,-0.34545636577995953,-0.5942986788440144
0.018542008211496968,-0.3305955502100849,-0.5745725550416775
0.01864210831159707,-0.3213947345140386,-0.5497384904094259
0.01874220841169717,-0.30187824079354253,-0.5311910785459855
0.01884230851179727,-0.29899145137390515,-0.5238027867260198
0.01894240861189737,-0.28125801420154695,-0.505284936680562
0.019042508711997468,-0.2634058721164726,-0.48154401858820917
0.019142608812097568,-0.26115690249948736,-0.4665130046781115
0.01924270891219767,-0.2409086336747606,-0.4416864396382943
0.01934280901229777,-0.22725878834361973,-0.4260122947643455
0.01944290911239787,-0.2122749595845891,-0.40571491304308543
0.01954300921249797,-0.20050645679245727,-0.378370847238569
0.019643109312598068,-0.17980364080659503,-0.35826721048757154
0.01974320941269817,-0.17056970510155758,-0.33336840321806477
0.01984330951279827,-0.1516945620559768,-0.32773726926208274
0.01994340961289837,-0.13551023000085385,-0.2882782385952531
0.02004350971299847,-0.11672853723179472,-0.2653969413099096
0.02014360981309857,-0.10858609767065294,-0.2438048701934832
0.020243709913198668,-0.09542694743201911,-0.22489567482670997
0.02034381001329877,-0.07572863205426371,-0.19564616201719426
0.02044391011339887,-0.05943158177299036,-0.1708581168185357
0.02054401021349897,-0.04355450581958367,-0.147003082296149
0.02064411031359907,-0.030102330526393745,-0.12208632255737864
0.020744210413699168,-0.017524972661740516,-0.09409735651944368
0.02084431051379927,0.0026411148361496608,-0.07414072297581233
0.02094441061389937,0.020574083600464577,-0.04761948099184107
0.02104451071399947,0.03613982498046006,-0.017339104431978662
0.02114461081409957,0.049786364748785644,-0.002190154235175055
0.02124471091419967,0.06545336306413081,0.020307371919470518
0.021344811014299768,0.08036779904461061,0.05749051599600775
0.02144491111439987,0.09516567078233178,0.06941005823208592
0.02154501121449997,0.10634739198489165,0.09002912213880554
0.02164511131460007,0.13386529065586297,0.12428359397468342
0.02174521141470017,0.14990836195372034,0.15009648934257108
0.021845311514800268,0.16369366039365946,0.1785914815818677
0.021945411614900368,0.1702355716151609,0.1985482305224016
0.02204551171500047,0.18948446603311508,0.2179320884660256
0.02214561181510057,0.20450212672466392,0.24635612541333624
0.02224571191520067,0.21759031045079005,0.2738092763551353
0.02234581201530077,0.2324280303860155,0.28624180792444637
0.022445912115400868,0.24824197205284892,0.322072870554876
0.02254601221550097,0.256979449221912,0.32906880379441794
0.02264611231560107,0.27413276299739087,0.3559841662908742
0.02274621241570117,0.2836181592569161,0.3795068803251251
0.02284631251580127,0.30161264267119187,0.3918744285390201
0.02294641261590137,0.3109830624512404,0.42310522132824846
0.023046512716001468,0.31984488811016093,0.44505164390969526
0.02314661281610157,0.33850707558046794,0.46371161110745956
0.02324671291620167,0.3436592186617959,0.4855273690799555
0.02334681301630177,0.35882982762834115,0.5059554242585717
0.02344691311640187,0.37014386176617886,0.5240144682187352
0.023547013216501968,0.38341527028745154,0.5410773267644099
0.02364711331660207,0.38327791472174005,0.5610319008920521
0.02374721341670217,0.40052813704897344,0.5737012551576604
0.02384731351680227,0.41004251735703257,0.5809934054119967
0.02394741361690237,0.4174383104318631,0.6086081684257114
0.02404751371700247,0.42476020547430776,0.6219425642109818
0.024147613817102568,0.4284403928756744,0.6330638895196639
0.02424771391720267,0.44689089982278196,0.6563567127979816
0.02434781401730277,0.45376455123632453,0.6688210851386228
0.02444791411740287,0.45620665955583034,0.6808814631750036
0.02454801421750297,0.4650416178826256,0.6900843535740764
0.024648114317603068,0.46964310724738867,0.70456442628022
0.024748214417703168,0.4749022146223402,0.7123010851008011
0.02484831451780327,0.4770883014613825,0.7249490186569573
0.02494841461790337,0.4925830734671124,0.7314845556837188
0.02504851471800347,0.49349654173031837,0.7442996697881155
0.02514861481810357,0.4899047570662891,0.7476275804598775
0.025248714918203668,0.5010990644472719,0.7576971144004024
0.02534881501830377,0.49891852440449164,0.762713093362128
0.02544891511840387,0.49374782494970904,0.7737404700793857
0.02554901521850397,0.5019840913987303,0.7688988301464579
0.02564911531860407,0.5038324732577724,0.7854464974227655
0.02574921541870417,0.506057212860298,0.7828754081506374
0.025849315518804268,0.49872173166822276,0.7919659523318505
0.02594941561890437,0.5041192092301602,0.7867609691739424
0.02604951571900447,0.5082965635268112,0.7857163387800639
0.02614961581910457,0.5100443411997676,0.7907043287737634
0.02624971591920467,0.5013521742834404,0.7802556355947293
0.026349816019304768,0.4958979760455035,0.7843695925647555
0.02644991611940487,0.4944465647117374,0.7812620992569818
0.02655001621950497,0.49514738577231626,0.7773120221305979
0.02665011631960507,0.479494312624034,0.7638633695146456
0.02675021641970517,0.48052099763877987,0.7697090532263865
0.02685031651980527,0.48238882747557066,0.763929349838107
0.026950416619905368,0.47035557444940357,0.7659695926022284
0.02705051672000547,0.4692114424575594,0.7538995120169506
0.02715061682010557,0.4587100560564424,0.7464218008911488
0.02725071692020567,0.45430393256877677,0.7414555956408345
0.02735081702030577,0.44984689373920733,0.7213639061661121
0.027450917120405868,0.43945293994462875,0.7189868106553119
0.027551017220505968,0.43706861624380217,0.7172147105995343
0.02765111732060607,0.4246486303801358,0.7112755319120976
0.02775121742070617,0.40883489379215665,0.68604078720728
0.02785131752080627,0.3993934903258376,0.6853255931465507
0.02795141762090637,0.39736793675433524,0.666908990049778
0.028051517721006468,0.3898109170556875,0.6522707025282694
0.02815161782110657,0.37589307672934136,0.6370519729462311
0.02825171792120667,0.371945071665691,0.618549754472868
0.02835181802130677,0.35375096295842007,0.6024620305967219
0.02845191812140687,0.34442716805385026,0.5990405634132814
0.02855201822150697,0.3339754310003678,0.5587818542341298
0.028652118321607068,0.3227723430359897,0.5621751272656705
0.02875221842170717,0.3041265075622837,0.5357557987344598
0.02885231852180727,0.290316626305944,0.5251678638830363
0.02895241862190737,0.2820567947704571,0.4958929835806026
0.02905251872200747,0.2686710638004949,0.4839782382241052
0.029152618822107568,0.24967215118799993,0.4556769963943674
0.02925271892220767,0.24514384588172802,0.4451057302031024
0.02935281902230777,0.2311062261490121,0.4185774267770098
0.02945291912240787,0.2112859967181581,0.4025687093906063
0.02955301922250797,0.1958490510900057,0.385794905143566
0.02965311932260807,0.18198585450754853,0.362564979288704
0.029753219422708168,0.1650229750554525,0.33180818150941654
0.02985331952280827,0.15474004266312236,0.32033356809987573
0.02995341962290837,0.13318703132072293,0.2914345417607951
0.03005351972300847,0.11949576104953238,0.25625152884830793
0.03015361982310857,0.10482110749040291,0.24355492206067011
0.030253719923208668,0.08993845987084871,0.2084989121763461
0.030353820023308768,0.07273693038469695,0.2026100420720346
0.03045392012340887,0.05552896653908615,0.16977714070461145
0.03055402022350897,0.037617670523858636,0.1415425847068383
0.03065412032360907,0.023528039975877314,0.1272289256609282
0.03075422042370917,0.0063473917781014235,0.09758862738672566
0.030854320523809268,-0.00562816538267158,0.07388811504341301
0.03095442062390937,-0.023162725231363073,0.06265938698883726
0.03105452072400947,-0.03645138592078419,0.026733631796839533
0.03115462082410957,-0.05387423081366123,0.002791936651894189
0.03125472092420967,-0.06603534872627452,-0.028613223501425318
0.03135482102430977,-0.08129244622260563,-0.051678615751858725
0.03145492112440987,-0.101470125051673,-0.0772070616046119
0.03155502122450997,-0.11346563711906155,-0.09600157352540963
0.03165512132461007,-0.1299747587676636,-0.13114112115334892
0.03175522142471017,-0.15041161849830584,-0.14649576622967989
0.03185532152481027,-0.159772646338505,-0.16956237715712116
0.03195542162491037,-0.1769058360999421,-0.19415963829505578
0.03205552172501047,-0.19067416983227542,-0.22124961859775488
0.03215562182511057,-0.20582838838626472,-0.2505557749157947
0.03225572192521067,-0.22210732935890912,-0.2678004206984054
0.032355822025310774,-0.2346076929129846,-0.2990088004735448
0.032455922125410874,-0.24674985436696711,-0.30922978038590376
0.032556022225510975,-0.26160889483537253,-0.3425567095120168
0.032656122325611076,-0.27369251614781737,-0.35748921408950346
0.032756222425711176,-0.2876986604645234,-0.37641255813894253
0.03285632252581126,-0.3013132730904394,-0.39802001065604886
0.032956422625911364,-0.30814169622234705,-0.420705658430446
0.033056522726011464,-0.32951250825367095,-0.4445878251476258
0.033156622826111565,-0.33463888574689904,-0.4657199804117646
0.033256722926211665,-0.34388172858018745,-0.4793269275607717
0.033356823026311766,-0.36332406563933567,-0.511231603405509
0.03345692312641187,-0.37244745086575926,-0.5146410913984233
